Time Stamp,ID,Extended,Dir,Bus,LEN,D1,D2,D3,D4,D5,D6,D7,D8,D9,D10,D11,D12
1756488339602771,00000420,false,Rx,0,1,01,00,00,00,00,00,00,00
1756488339604656,00000193,false,Rx,0,6,12,00,F2,FF,00,00,00,00
1756488339607572,00000188,false,Rx,0,6,C0,FF,0D,00,E9,03,00,00
1756488339607790,00000213,false,Rx,0,4,08,00,00,00,00,00,00,00
1756488339607887,00000214,false,Rx,0,4,08,00,00,00,00,00,00,00
1756488339608295,00000288,false,Rx,0,6,00,00,00,00,00,00,00,00
1756488339608411,00000188,false,Rx,0,6,C0,FF,0D,00,E8,03,00,00
1756488339608528,00000488,false,Rx,0,8,08,27,59,00,51,01,90,00
1756488339608631,00000288,false,Rx,0,6,00,00,00,00,00,00,00,00
1756488339608736,00000488,false,Rx,0,8,08,27,59,00,51,01,90,00
1756488339609043,00000701,false,Rx,0,1,05,00,00,00,00,00,00,00
1756488339611010,00000194,false,Rx,0,6,14,00,01,00,01,00,00,00
1756488339614480,00000193,false,Rx,0,6,14,00,F7,FF,01,00,00,00
1756488339615546,00000181,false,Rx,0,8,04,10,00,E9,02,0A,06,07
1756488339618537,00000188,false,Rx,0,6,C0,FF,0D,00,E8,03,00,00
1756488339618780,00000288,false,Rx,0,6,00,00,00,00,00,00,00,00
1756488339618878,00000213,false,Rx,0,4,08,00,00,00,00,00,00,00
1756488339618975,00000214,false,Rx,0,4,08,00,00,00,00,00,00,00
1756488339619075,00000488,false,Rx,0,8,08,27,59,00,51,01,90,00
1756488339620834,00000194,false,Rx,0,6,14,00,00,00,FE,FF,00,00
1756488339624297,00000393,false,Rx,0,6,10,01,D5,01,0F,01,00,00
1756488339624390,00000293,false,Rx,0,4,71,A3,00,00,00,00,00,00
1756488339624488,00000713,false,Rx,0,1,05,00,00,00,00,00,00,00
1756488339624586,00000733,false,Rx,0,8,02,00,00,C0,3F,A3,00,05
1756488339624693,00000193,false,Rx,0,6,14,00,FA,FF,03,00,00,00
1756488339628747,00000188,false,Rx,0,6,C0,FF,10,00,F3,03,00,00
1756488339628981,00000288,false,Rx,0,6,FF,FF,00,00,00,00,00,00
1756488339629097,00000488,false,Rx,0,8,08,27,59,00,51,01,90,00
1756488339629876,00000213,false,Rx,0,4,08,00,00,00,00,00,00,00
1756488339629957,00000214,false,Rx,0,4,08,00,00,00,00,00,00,00
1756488339630656,00000394,false,Rx,0,6,76,05,DD,01,1F,01,00,00
1756488339630756,00000294,false,Rx,0,4,F8,A2,F8,FF,00,00,00,00
1756488339630858,00000714,false,Rx,0,1,05,00,00,00,00,00,00,00
1756488339630952,00000734,false,Rx,0,8,07,00,00,80,3F,A2,F8,05
1756488339631049,00000194,false,Rx,0,6,14,00,FD,FF,03,00,00,00
1756488339634126,00000193,false,Rx,0,6,14,00,FC,FF,00,00,00,00
1756488339638950,00000188,false,Rx,0,6,B5,FF,13,00,DC,03,00,00
1756488339639183,00000288,false,Rx,0,6,00,00,01,00,00,00,00,00
1756488339639300,00000488,false,Rx,0,8,08,27,59,00,51,01,90,00
1756488339640396,00000290,false,Rx,0,7,01,E8,00,8B,A4,06,00,00
1756488339640514,00000194,false,Rx,0,6,14,00,00,00,01,00,00,00
1756488339640819,00000213,false,Rx,0,4,08,00,00,00,00,00,00,00
1756488339641900,00000214,false,Rx,0,4,08,00,00,00,00,00,00,00
1756488339643951,00000193,false,Rx,0,6,14,00,F6,FF,05,00,00,00
1756488339649155,00000188,false,Rx,0,6,C1,FF,18,00,E4,03,00,00
1756488339649390,00000288,false,Rx,0,6,00,00,00,00,00,00,00,00
1756488339649509,00000488,false,Rx,0,8,08,27,59,00,51,01,90,00
1756488339650313,00000194,false,Rx,0,6,14,00,02,00,00,00,00,00
1756488339651812,00000213,false,Rx,0,4,08,00,00,00,00,00,00,00
1756488339652906,00000214,false,Rx,0,4,08,00,00,00,00,00,00,00
1756488339653780,00000193,false,Rx,0,6,14,00,0A,00,FE,FF,00,00
1756488339659336,00000188,false,Rx,0,6,C0,FF,0B,00,EB,03,00,00
1756488339659581,00000288,false,Rx,0,6,00,00,00,00,00,00,00,00
1756488339659699,00000488,false,Rx,0,8,08,27,59,00,51,01,90,00
1756488339660141,00000194,false,Rx,0,6,14,00,FF,FF,FE,FF,00,00
1756488339662808,00000213,false,Rx,0,4,08,00,00,00,00,00,00,00
1756488339663609,00000193,false,Rx,0,6,14,00,04,00,09,00,00,00
1756488339663912,00000214,false,Rx,0,4,08,00,00,00,00,00,00,00
1756488339669582,00000188,false,Rx,0,6,BD,FF,19,00,E7,03,00,00
1756488339669809,00000288,false,Rx,0,6,00,00,00,00,00,00,00,00
1756488339669915,00000488,false,Rx,0,8,08,27,59,00,51,01,90,00
1756488339670012,00000194,false,Rx,0,6,14,00,FD,FF,02,00,00,00
1756488339671834,00000710,false,Rx,0,1,7F,00,00,00,00,00,00,00
1756488339673441,00000193,false,Rx,0,6,14,00,F0,FF,04,00,00,00
1756488339673826,00000213,false,Rx,0,4,08,00,00,00,00,00,00,00
1756488339674912,00000214,false,Rx,0,4,08,00,00,00,00,00,00,00
1756488339679737,00000188,false,Rx,0,6,B9,FF,18,00,DE,03,00,00
1756488339679852,00000194,false,Rx,0,6,14,00,01,00,00,00,00,00
1756488339679968,00000288,false,Rx,0,6,00,00,FF,FF,00,00,00,00
1756488339680085,00000488,false,Rx,0,8,08,27,59,00,51,01,90,00
1756488339683266,00000193,false,Rx,0,6,14,00,07,00,02,00,00,00
1756488339684813,00000213,false,Rx,0,4,08,00,00,00,00,00,00,00
1756488339685920,00000214,false,Rx,0,4,08,00,00,00,00,00,00,00
1756488339689628,00000194,false,Rx,0,6,14,00,FF,FF,FF,FF,00,00
1756488339689928,00000188,false,Rx,0,6,BE,FF,0C,00,EF,03,00,00
1756488339691172,00000288,false,Rx,0,6,00,00,00,00,01,00,00,00
1756488339691292,00000488,false,Rx,0,8,08,27,59,00,51,01,90,00
1756488339693091,00000193,false,Rx,0,6,14,00,FF,FF,03,00,00,00
1756488339695823,00000213,false,Rx,0,4,08,00,00,00,00,00,00,00
1756488339696924,00000214,false,Rx,0,4,08,00,00,00,00,00,00,00
1756488339699453,00000194,false,Rx,0,6,14,00,01,00,02,00,00,00
1756488339701170,00000188,false,Rx,0,6,BA,FF,13,00,E0,03,00,00
1756488339701286,00000288,false,Rx,0,6,00,00,00,00,00,00,00,00
1756488339701402,00000488,false,Rx,0,8,08,27,59,00,51,01,90,00
1756488339702924,00000193,false,Rx,0,6,14,00,0C,00,FA,FF,00,00
1756488339706823,00000213,false,Rx,0,4,08,00,00,00,00,00,00,00
1756488339707923,00000214,false,Rx,0,4,08,00,00,00,00,00,00,00
1756488339709207,00000701,false,Rx,0,1,05,00,00,00,00,00,00,00
1756488339709323,00000194,false,Rx,0,6,14,00,FF,FF,FC,FF,00,00
1756488339711456,00000188,false,Rx,0,6,BD,FF,09,00,EE,03,00,00
1756488339711568,00000288,false,Rx,0,6,00,00,00,00,00,00,00,00
1756488339711685,00000488,false,Rx,0,8,08,27,59,00,51,01,90,00
1756488339712746,00000193,false,Rx,0,6,14,00,F0,FF,01,00,00,00
1756488339717831,00000213,false,Rx,0,4,08,00,00,00,00,00,00,00
1756488339718928,00000214,false,Rx,0,4,08,00,00,00,00,00,00,00
1756488339719104,00000194,false,Rx,0,6,14,00,02,00,01,00,00,00
1756488339721677,00000188,false,Rx,0,6,BA,FF,10,00,E7,03,00,00
1756488339721771,00000288,false,Rx,0,6,01,00,01,00,00,00,00,00
1756488339721868,00000488,false,Rx,0,8,08,27,59,00,51,01,90,00
1756488339722569,00000393,false,Rx,0,6,10,01,D5,01,0F,01,00,00
1756488339722669,00000293,false,Rx,0,4,41,A3,00,00,00,00,00,00
1756488339722765,00000713,false,Rx,0,1,05,00,00,00,00,00,00,00
1756488339722864,00000733,false,Rx,0,8,03,6F,12,03,3B,A3,00,05
1756488339722962,00000193,false,Rx,0,6,14,00,0A,00,FF,FF,00,00
1756488339728949,00000394,false,Rx,0,6,76,05,DD,01,1F,01,00,00
1756488339729041,00000294,false,Rx,0,4,D7,A2,F8,FF,00,00,00,00
1756488339729140,00000714,false,Rx,0,1,05,00,00,00,00,00,00,00
1756488339729238,00000734,false,Rx,0,8,08,00,00,80,3F,A2,F8,05
1756488339729335,00000194,false,Rx,0,6,14,00,FF,FF,FC,FF,00,00
1756488339729995,00000213,false,Rx,0,4,08,00,00,00,00,00,00,00
1756488339730088,00000214,false,Rx,0,4,08,00,00,00,00,00,00,00
1756488339731863,00000188,false,Rx,0,6,BB,FF,19,00,DC,03,00,00
1756488339731982,00000288,false,Rx,0,6,00,00,00,00,00,00,00,00
1756488339732097,00000488,false,Rx,0,8,08,27,59,00,52,01,90,00
1756488339732394,00000193,false,Rx,0,6,14,00,10,00,04,00,00,00
1756488339738767,00000194,false,Rx,0,6,14,00,00,00,FD,FF,00,00
1756488339741039,00000213,false,Rx,0,4,08,00,00,00,00,00,00,00
1756488339741139,00000214,false,Rx,0,4,08,00,00,00,00,00,00,00
1756488339742066,00000188,false,Rx,0,6,C2,FF,0B,00,EA,03,00,00
1756488339742180,00000288,false,Rx,0,6,00,00,01,00,00,00,00,00
1756488339742281,00000193,false,Rx,0,6,14,00,02,00,FF,FF,00,00
1756488339742379,00000488,false,Rx,0,8,08,27,59,00,52,01,90,00
1756488339745495,00000181,false,Rx,0,8,04,10,00,E9,02,0A,06,07
1756488339748602,00000194,false,Rx,0,6,14,00,FF,FF,FE,FF,00,00
1756488339752066,00000193,false,Rx,0,6,14,00,EA,FF,01,00,00,00
1756488339752158,00000213,false,Rx,0,4,08,00,00,00,00,00,00,00
1756488339752254,00000188,false,Rx,0,6,C1,FF,10,00,ED,03,00,00
1756488339752440,00000214,false,Rx,0,4,08,00,00,00,00,00,00,00
1756488339752500,00000288,false,Rx,0,6,00,00,00,00,00,00,00,00
1756488339752558,00000488,false,Rx,0,8,08,27,59,00,52,01,90,00
1756488339758429,00000194,false,Rx,0,6,14,00,FE,FF,00,00,00,00
1756488339761888,00000193,false,Rx,0,6,14,00,FA,FF,FB,FF,00,00
1756488339762439,00000188,false,Rx,0,6,BA,FF,13,00,DE,03,00,00
1756488339762586,00000288,false,Rx,0,6,00,00,00,00,00,00,00,00
1756488339762704,00000488,false,Rx,0,8,08,27,59,00,51,01,90,00
1756488339763194,00000213,false,Rx,0,4,08,00,00,00,00,00,00,00
1756488339763294,00000214,false,Rx,0,4,08,00,00,00,00,00,00,00
1756488339768253,00000194,false,Rx,0,6,14,00,02,00,FF,FF,00,00
1756488339771711,00000193,false,Rx,0,6,14,00,06,00,02,00,00,00
1756488339773334,00000188,false,Rx,0,6,BF,FF,16,00,E6,03,00,00
1756488339773450,00000288,false,Rx,0,6,01,00,00,00,00,00,00,00
1756488339773570,00000488,false,Rx,0,8,08,27,59,00,52,01,90,00
1756488339774202,00000213,false,Rx,0,4,08,00,00,00,00,00,00,00
1756488339774297,00000214,false,Rx,0,4,08,00,00,00,00,00,00,00
1756488339778072,00000194,false,Rx,0,6,14,00,FD,FF,00,00,00,00
1756488339779976,00000190,false,Rx,0,8,00,CA,CA,CA,CA,CA,CA,CA
1756488339780090,00000190,false,Rx,0,8,07,CA,CA,CA,CA,CA,CA,CA
1756488339780207,00000190,false,Rx,0,8,0E,CA,CA,CA,CA,CA,CA,CA
1756488339781556,00000193,false,Rx,0,6,14,00,07,00,FF,FF,00,00
1756488339783447,00000188,false,Rx,0,6,B5,FF,15,00,DE,03,00,00
1756488339783585,00000288,false,Rx,0,6,01,00,00,00,00,00,00,00
1756488339783702,00000488,false,Rx,0,8,08,27,59,00,51,01,90,00
1756488339785163,00000213,false,Rx,0,4,08,00,00,00,00,00,00,00
1756488339786262,00000214,false,Rx,0,4,08,00,00,00,00,00,00,00
1756488339787898,00000194,false,Rx,0,6,14,00,02,00,FF,FF,00,00
1756488339791366,00000193,false,Rx,0,6,14,00,F7,FF,02,00,00,00
1756488339792343,00000190,false,Rx,0,8,15,CA,CA,CA,CA,CA,CA,CA
1756488339792464,00000190,false,Rx,0,8,1C,CA,CA,CA,CA,CA,CA,CA
1756488339792580,00000190,false,Rx,0,8,2A,CA,CA,CA,CA,CA,CA,CA
1756488339792677,00000190,false,Rx,0,8,31,CA,CA,CA,CA,CA,CA,CA
1756488339792774,00000190,false,Rx,0,8,38,CA,CA,CA,CA,CA,CA,C9
1756488339792890,00000190,false,Rx,0,8,23,CA,CA,CA,CA,CA,CA,CA
1756488339793007,00000190,false,Rx,0,8,3F,CA,CA,CA,CA,CA,CA,CA
1756488339793125,00000190,false,Rx,0,8,46,CA,CA,CA,CA,CA,CA,CA
1756488339793242,00000190,false,Rx,0,8,54,CA,CA,CA,CA,CA,CA,CA
1756488339793359,00000190,false,Rx,0,8,5B,CA,CA,CA,CA,CA,CA,CA
1756488339793478,00000190,false,Rx,0,8,4D,CA,CA,CA,CA,CA,CA,CA
1756488339793601,00000190,false,Rx,0,8,62,CA,C8,CA,CA,CA,CA,CA
1756488339793697,00000188,false,Rx,0,6,BE,FF,12,00,E1,03,00,00
1756488339793794,00000288,false,Rx,0,6,00,00,00,00,00,00,00,00
1756488339793913,00000390,false,Rx,0,8,15,3D,3D,3D,3D,3C,3D,3C
1756488339794029,00000390,false,Rx,0,8,0E,3D,3D,3D,3D,3D,3D,3D
1756488339794145,00000390,false,Rx,0,8,23,3D,3D,3D,3D,3D,3D,3C
1756488339794243,00000390,false,Rx,0,8,2A,3D,3D,3D,3D,3D,3D,3D
1756488339794340,00000390,false,Rx,0,8,1C,3C,3C,3C,3C,3D,3D,3D
1756488339794458,00000390,false,Rx,0,8,31,3D,3D,3C,3C,3C,3C,3C
1756488339794575,00000390,false,Rx,0,8,38,3C,13,3D,3D,3D,3D,3D
1756488339794696,00000390,false,Rx,0,8,46,3D,3D,3D,3D,3D,3C,3C
1756488339794819,00000390,false,Rx,0,8,4D,3C,3C,3C,13,13,3D,13
1756488339794933,00000390,false,Rx,0,8,3F,3D,3D,13,3D,3D,3D,3D
1756488339795049,00000390,false,Rx,0,8,54,13,13,13,13,3D,3C,3D
1756488339795166,00000390,false,Rx,0,8,5B,13,13,13,13,13,3D,3D
1756488339795283,00000390,false,Rx,0,8,69,3C,3D,3C,3C,3C,3C,3C
1756488339795380,00000390,false,Rx,0,8,62,3D,3D,3D,3D,3D,3D,3D
1756488339795477,00000390,false,Rx,0,8,70,3D,3C,3D,3D,3D,3D,3D
1756488339795593,00000390,false,Rx,0,8,77,3D,3C,3D,3C,3C,3C,3C
1756488339795710,00000390,false,Rx,0,8,85,3D,3D,3D,3D,3D,13,13
1756488339795827,00000390,false,Rx,0,8,8C,13,13,13,13,3C,13,3D
1756488339795950,00000390,false,Rx,0,8,7E,3C,3C,13,3D,3D,3D,3D
1756488339796065,00000390,false,Rx,0,8,93,3D,3D,3D,3D,3D,3D,3C
1756488339796182,00000390,false,Rx,0,8,9A,3D,3D,3D,3D,3D,3D,3D
1756488339796299,00000181,false,Rx,0,8,04,10,00,E9,03,0A,06,07
1756488339796396,00000213,false,Rx,0,4,08,00,00,00,00,00,00,00
1756488339796493,00000390,false,Rx,0,8,B6,13,13,3C,3C,3D,3D,3D
1756488339796610,00000390,false,Rx,0,8,BD,3D,3D,3D,3D,3D,13,13
1756488339796726,00000390,false,Rx,0,8,C4,13,13,13,13,13,3D,3D
1756488339796844,00000390,false,Rx,0,8,A1,3D,13,3D,3D,3D,3D,3D
1756488339796960,00000390,false,Rx,0,8,CB,3D,3D,3D,3D,3D,3C,3C
1756488339797061,00000390,false,Rx,0,8,D2,13,3D,3D,3D,3D,3D,3D
1756488339797160,00000390,false,Rx,0,8,D9,3D,3C,3D,3D,3D,3D,3D
1756488339797276,00000488,false,Rx,0,8,08,27,59,00,51,01,90,00
1756488339797373,00000214,false,Rx,0,4,08,00,00,00,00,00,00,00
1756488339797723,00000194,false,Rx,0,6,14,00,01,00,FE,FF,00,00
1756488339801196,00000193,false,Rx,0,6,14,00,F1,FF,02,00,00,00
1756488339803839,00000188,false,Rx,0,6,BF,FF,0F,00,F4,03,00,00
1756488339803992,00000288,false,Rx,0,6,00,00,00,00,00,00,00,00
1756488339804113,00000488,false,Rx,0,8,08,27,59,00,51,01,90,00
1756488339807169,00000213,false,Rx,0,4,08,00,00,00,00,00,00,00
1756488339807552,00000194,false,Rx,0,6,14,00,FD,FF,00,00,00,00
1756488339808284,00000214,false,Rx,0,4,08,00,00,00,00,00,00,00
1756488339809437,00000701,false,Rx,0,1,05,00,00,00,00,00,00,00
1756488339811020,00000193,false,Rx,0,6,14,00,05,00,FF,FF,00,00
1756488339814045,00000188,false,Rx,0,6,B8,FF,14,00,E3,03,00,00
1756488339814185,00000288,false,Rx,0,6,00,00,00,00,00,00,00,00
1756488339814311,00000488,false,Rx,0,8,08,27,59,00,51,01,90,00
1756488339816012,00000181,false,Rx,0,8,04,10,00,E9,02,0A,06,06
1756488339817381,00000194,false,Rx,0,6,14,00,FD,FF,FF,FF,00,00
1756488339818186,00000213,false,Rx,0,4,08,00,00,00,00,00,00,00
1756488339819274,00000214,false,Rx,0,4,08,00,00,00,00,00,00,00
1756488339820842,00000393,false,Rx,0,6,10,01,D5,01,0F,01,00,00
1756488339820937,00000293,false,Rx,0,4,6E,A3,00,00,00,00,00,00
1756488339821034,00000713,false,Rx,0,1,05,00,00,00,00,00,00,00
1756488339821132,00000733,false,Rx,0,8,04,8F,C2,F5,3F,A3,00,05
1756488339821229,00000193,false,Rx,0,6,14,00,F4,FF,03,00,00,00
1756488339824247,00000188,false,Rx,0,6,BD,FF,13,00,E7,03,00,00
1756488339824384,00000288,false,Rx,0,6,00,00,00,00,00,00,00,00
1756488339824502,00000488,false,Rx,0,8,08,27,59,00,51,01,90,00
1756488339827206,00000394,false,Rx,0,6,76,05,DD,01,16,01,00,00
1756488339827303,00000294,false,Rx,0,4,E7,A2,8B,FF,00,00,00,00
1756488339827400,00000714,false,Rx,0,1,05,00,00,00,00,00,00,00
1756488339827499,00000734,false,Rx,0,8,09,00,00,00,00,A2,8B,05
1756488339827595,00000194,false,Rx,0,6,14,00,01,00,00,00,00,00
1756488339829214,00000181,false,Rx,0,8,04,10,00,E9,02,09,06,06
1756488339829310,00000213,false,Rx,0,4,08,00,00,00,00,00,00,00
1756488339830291,00000214,false,Rx,0,4,08,00,00,00,00,00,00,00
1756488339830673,00000193,false,Rx,0,6,14,00,F9,FF,FB,FF,00,00
1756488339834450,00000188,false,Rx,0,6,C0,FF,0C,00,ED,03,00,00
1756488339834588,00000288,false,Rx,0,6,FF,FF,00,00,00,00,00,00
1756488339834705,00000488,false,Rx,0,8,08,27,59,00,52,01,90,00
1756488339837035,00000194,false,Rx,0,6,14,00,00,00,01,00,00,00
1756488339840195,00000213,false,Rx,0,4,08,00,00,00,00,00,00,00
1756488339840434,00000290,false,Rx,0,7,01,E8,00,8B,A4,06,00,00
1756488339840552,00000193,false,Rx,0,6,14,00,07,00,03,00,00,00
1756488339841329,00000214,false,Rx,0,4,08,00,00,00,00,00,00,00
1756488339842427,00000181,false,Rx,0,8,04,10,00,E9,02,09,06,06
1756488339844645,00000188,false,Rx,0,6,BB,FF,19,00,E0,03,00,00
1756488339844790,00000288,false,Rx,0,6,00,00,00,00,00,00,00,00
1756488339844906,00000488,false,Rx,0,8,08,27,59,00,52,01,90,00
1756488339846876,00000194,false,Rx,0,6,14,00,00,00,FD,FF,00,00
1756488339850338,00000193,false,Rx,0,6,14,00,04,00,00,00,00,00
1756488339851205,00000213,false,Rx,0,4,08,00,00,00,00,00,00,00
1756488339852295,00000214,false,Rx,0,4,08,00,00,00,00,00,00,00
1756488339854845,00000188,false,Rx,0,6,BC,FF,17,00,E2,03,00,00
1756488339854988,00000288,false,Rx,0,6,00,00,00,00,00,00,00,00
1756488339855158,00000488,false,Rx,0,8,08,27,59,00,52,01,90,00
1756488339855694,00000181,false,Rx,0,8,04,10,00,E9,02,09,05,06
1756488339856693,00000194,false,Rx,0,6,14,00,00,00,00,00,00,00
1756488339860160,00000193,false,Rx,0,6,14,00,01,00,06,00,00,00
1756488339862220,00000213,false,Rx,0,4,08,00,00,00,00,00,00,00
1756488339863315,00000214,false,Rx,0,4,08,00,00,00,00,00,00,00
1756488339865043,00000188,false,Rx,0,6,C2,FF,0A,00,EC,03,00,00
1756488339866548,00000288,false,Rx,0,6,00,00,01,00,00,00,00,00
1756488339866623,00000194,false,Rx,0,6,14,00,FE,FF,FF,FF,00,00
1756488339866685,00000488,false,Rx,0,8,08,27,59,00,52,01,90,00
1756488339868846,00000181,false,Rx,0,8,04,10,00,E9,02,09,05,06
1756488339869992,00000193,false,Rx,0,6,14,00,FF,FF,04,00,00,00
1756488339874304,00000213,false,Rx,0,4,08,00,00,00,00,00,00,00
1756488339874400,00000214,false,Rx,0,4,08,00,00,00,00,00,00,00
1756488339876345,00000194,false,Rx,0,6,14,00,00,00,FE,FF,00,00
1756488339876460,00000188,false,Rx,0,6,BF,FF,14,00,DD,03,00,00
1756488339876576,00000288,false,Rx,0,6,00,00,00,00,00,00,00,00
1756488339878429,00000488,false,Rx,0,8,08,27,59,00,52,01,90,00
1756488339879814,00000193,false,Rx,0,6,14,00,06,00,04,00,00,00
1756488339880962,00000181,false,Rx,0,8,04,10,00,E9,02,09,05,06
1756488339885307,00000213,false,Rx,0,4,08,00,00,00,00,00,00,00
1756488339885404,00000214,false,Rx,0,4,08,00,00,00,00,00,00,00
1756488339886173,00000194,false,Rx,0,6,14,00,03,00,04,00,00,00
1756488339886496,00000188,false,Rx,0,6,C0,FF,12,00,E5,03,00,00
1756488339886617,00000288,false,Rx,0,6,00,00,00,00,00,00,00,00
1756488339888421,00000488,false,Rx,0,8,08,27,59,00,51,01,90,00
1756488339889663,00000193,false,Rx,0,6,14,00,FC,FF,02,00,00,00
1756488339894161,00000181,false,Rx,0,8,04,10,00,E9,02,09,05,06
1756488339896004,00000194,false,Rx,0,6,14,00,FC,FF,00,00,00,00
1756488339896335,00000213,false,Rx,0,4,08,00,00,00,00,00,00,00
1756488339896433,00000214,false,Rx,0,4,08,00,00,00,00,00,00,00
1756488339896643,00000188,false,Rx,0,6,BD,FF,13,00,DC,03,00,00
1756488339896759,00000288,false,Rx,0,6,00,00,01,00,00,00,00,00
1756488339898720,00000488,false,Rx,0,8,08,27,59,00,51,01,90,00
1756488339899468,00000193,false,Rx,0,6,14,00,00,00,FE,FF,00,00
1756488339899816,00000710,false,Rx,0,1,7F,00,00,00,00,00,00,00
1756488339905830,00000194,false,Rx,0,6,14,00,FC,FF,00,00,00,00
1756488339906969,00000188,false,Rx,0,6,C3,FF,0E,00,EA,03,00,00
1756488339907073,00000288,false,Rx,0,6,00,00,00,00,00,00,00,00
1756488339907386,00000181,false,Rx,0,8,04,10,00,E9,02,08,05,05
1756488339907490,00000213,false,Rx,0,4,08,00,00,00,00,00,00,00
1756488339908426,00000214,false,Rx,0,4,08,00,00,00,00,00,00,00
1756488339909018,00000488,false,Rx,0,8,08,27,59,00,51,01,90,00
1756488339909288,00000193,false,Rx,0,6,14,00,FF,FF,01,00,00,00
1756488339909655,00000701,false,Rx,0,1,05,00,00,00,00,00,00,00
1756488339915659,00000194,false,Rx,0,6,14,00,FF,FF,06,00,00,00
1756488339917256,00000188,false,Rx,0,6,BE,FF,14,00,EA,03,00,00
1756488339917370,00000288,false,Rx,0,6,FF,FF,01,00,00,00,00,00
1756488339918352,00000213,false,Rx,0,4,08,00,00,00,00,00,00,00
1756488339919114,00000393,false,Rx,0,6,10,01,D5,01,0F,01,00,00
1756488339919213,00000293,false,Rx,0,4,59,A3,00,00,00,00,00,00
1756488339919309,00000713,false,Rx,0,1,05,00,00,00,00,00,00,00
1756488339919407,00000488,false,Rx,0,8,08,27,58,00,51,01,90,00
1756488339919505,00000214,false,Rx,0,4,08,00,00,00,00,00,00,00
1756488339919602,00000733,false,Rx,0,8,05,00,00,C0,3F,A3,00,05
1756488339919700,00000193,false,Rx,0,6,14,00,0F,00,00,00,00,00
1756488339920605,00000181,false,Rx,0,8,04,10,00,E9,02,08,05,05
1756488339925480,00000394,false,Rx,0,6,76,05,DD,01,1F,01,00,00
1756488339925580,00000294,false,Rx,0,4,DC,A2,B3,FF,00,00,00,00
1756488339925675,00000714,false,Rx,0,1,05,00,00,00,00,00,00,00
1756488339925774,00000734,false,Rx,0,8,01,9A,99,19,40,A2,B3,05
1756488339925872,00000194,false,Rx,0,6,14,00,FF,FF,01,00,00,00
1756488339927568,00000188,false,Rx,0,6,B9,FF,15,00,DD,03,00,00
1756488339927678,00000288,false,Rx,0,6,00,00,00,00,00,00,00,00
1756488339928950,00000193,false,Rx,0,6,14,00,00,00,05,00,00,00
1756488339929342,00000213,false,Rx,0,4,08,00,00,00,00,00,00,00
1756488339929620,00000488,false,Rx,0,8,08,27,59,00,52,01,90,00
1756488339930461,00000214,false,Rx,0,4,08,00,00,00,00,00,00,00
1756488339933788,00000181,false,Rx,0,8,04,10,00,E9,02,08,05,05
1756488339935311,00000194,false,Rx,0,6,14,00,01,00,06,00,00,00
1756488339938473,00000188,false,Rx,0,6,BF,FF,18,00,E5,03,00,00
1756488339938586,00000288,false,Rx,0,6,00,00,00,00,00,00,00,00
1756488339938767,00000193,false,Rx,0,6,14,00,FC,FF,FA,FF,00,00
1756488339939191,00000488,false,Rx,0,8,08,27,59,00,52,01,90,00
1756488339940364,00000213,false,Rx,0,4,08,00,00,00,00,00,00,00
1756488339941448,00000214,false,Rx,0,4,08,00,00,00,00,00,00,00
1756488339945138,00000194,false,Rx,0,6,14,00,FF,FF,04,00,00,00
1756488339947006,00000181,false,Rx,0,8,04,10,00,E9,02,08,05,05
1756488339948605,00000193,false,Rx,0,6,14,00,F6,FF,05,00,00,00
1756488339948699,00000188,false,Rx,0,6,C1,FF,09,00,EC,03,00,00
1756488339948795,00000288,false,Rx,0,6,00,00,00,00,00,00,00,00
1756488339949483,00000488,false,Rx,0,8,08,27,59,00,52,01,90,00
1756488339951352,00000213,false,Rx,0,4,08,00,00,00,00,00,00,00
1756488339952446,00000214,false,Rx,0,4,08,00,00,00,00,00,00,00
1756488339954961,00000194,false,Rx,0,6,14,00,01,00,05,00,00,00
1756488339958432,00000193,false,Rx,0,6,14,00,F9,FF,F6,FF,00,00
1756488339958938,00000188,false,Rx,0,6,B6,FF,1B,00,E4,03,00,00
1756488339959054,00000288,false,Rx,0,6,FE,FF,02,00,00,00,00,00
1756488339959784,00000488,false,Rx,0,8,08,27,59,00,52,01,90,00
1756488339960222,00000181,false,Rx,0,8,04,10,00,E9,02,07,04,04
1756488339962358,00000213,false,Rx,0,4,08,00,00,00,00,00,00,00
1756488339963452,00000214,false,Rx,0,4,08,00,00,00,00,00,00,00
1756488339964794,00000194,false,Rx,0,6,14,00,02,00,05,00,00,00
1756488339968260,00000193,false,Rx,0,6,14,00,08,00,FF,FF,00,00
1756488339969236,00000188,false,Rx,0,6,BE,FF,16,00,E5,03,00,00
1756488339969355,00000288,false,Rx,0,6,00,00,00,00,00,00,00,00
1756488339970092,00000488,false,Rx,0,8,08,27,59,00,52,01,90,00
1756488339973386,00000181,false,Rx,0,8,04,10,00,E9,02,06,04,04
1756488339973481,00000213,false,Rx,0,4,08,00,00,00,00,00,00,00
1756488339974453,00000214,false,Rx,0,4,08,00,00,00,00,00,00,00
1756488339974609,00000194,false,Rx,0,6,14,00,02,00,07,00,00,00
1756488339978088,00000193,false,Rx,0,6,14,00,FE,FF,01,00,00,00
1756488339979537,00000188,false,Rx,0,6,C0,FF,16,00,F1,03,00,00
1756488339979652,00000288,false,Rx,0,6,00,00,00,00,00,00,00,00
1756488339981303,00000488,false,Rx,0,8,08,27,59,00,52,01,90,00
1756488339984362,00000213,false,Rx,0,4,08,00,00,00,00,00,00,00
1756488339984482,00000194,false,Rx,0,6,14,00,00,00,FF,FF,00,00
1756488339985481,00000214,false,Rx,0,4,08,00,00,00,00,00,00,00
1756488339986594,00000181,false,Rx,0,8,04,10,00,E9,02,06,03,03
1756488339987914,00000193,false,Rx,0,6,14,00,04,00,FC,FF,00,00
1756488339991313,00000188,false,Rx,0,6,BF,FF,1A,00,E5,03,00,00
1756488339991429,00000288,false,Rx,0,6,00,00,00,00,00,00,00,00
1756488339991550,00000488,false,Rx,0,8,08,27,59,00,52,01,90,00
1756488339994276,00000194,false,Rx,0,6,14,00,FF,FF,00,00,00,00
1756488339996464,00000213,false,Rx,0,4,08,00,00,00,00,00,00,00
1756488339996560,00000214,false,Rx,0,4,08,00,00,00,00,00,00,00
1756488339997741,00000193,false,Rx,0,6,14,00,F7,FF,06,00,00,00
1756488339999801,00000181,false,Rx,0,8,04,10,00,E9,02,05,03,03
1756488340001446,00000188,false,Rx,0,6,BE,FF,0C,00,F4,03,00,00
1756488340001592,00000288,false,Rx,0,6,00,00,00,00,00,00,00,00
1756488340001709,00000488,false,Rx,0,8,08,27,59,00,53,01,90,00
1756488340004102,00000194,false,Rx,0,6,14,00,00,00,FE,FF,00,00
1756488340007469,00000213,false,Rx,0,4,08,00,00,00,00,00,00,00
1756488340007593,00000193,false,Rx,0,6,14,00,F9,FF,FF,FF,00,00
1756488340007694,00000214,false,Rx,0,4,08,00,00,00,00,00,00,00
1756488340007824,00000710,false,Rx,0,1,7F,00,00,00,00,00,00,00
1756488340009859,00000701,false,Rx,0,1,05,00,00,00,00,00,00,00
1756488340011646,00000188,false,Rx,0,6,B9,FF,17,00,E2,03,00,00
1756488340011822,00000288,false,Rx,0,6,00,00,00,00,00,00,00,00
1756488340011913,00000488,false,Rx,0,8,08,27,59,00,53,01,90,00
1756488340013142,00000181,false,Rx,0,8,04,10,00,E9,02,00,03,03
1756488340013933,00000194,false,Rx,0,6,14,00,00,00,FC,FF,00,00
1756488340017393,00000393,false,Rx,0,6,10,01,D5,01,0F,01,00,00
1756488340017490,00000293,false,Rx,0,4,63,A3,00,00,00,00,00,00
1756488340017589,00000713,false,Rx,0,1,05,00,00,00,00,00,00,00
1756488340017684,00000733,false,Rx,0,8,06,6F,12,03,3B,A3,00,05
1756488340017780,00000193,false,Rx,0,6,14,00,FB,FF,03,00,00,00
1756488340018638,00000213,false,Rx,0,4,08,00,00,00,00,00,00,00
1756488340018732,00000214,false,Rx,0,4,08,00,00,00,00,00,00,00
1756488340021854,00000188,false,Rx,0,6,B8,FF,14,00,DB,03,00,00
1756488340021992,00000288,false,Rx,0,6,00,00,00,00,00,00,00,00
1756488340022111,00000488,false,Rx,0,8,08,27,59,00,53,01,90,00
1756488340023754,00000394,false,Rx,0,6,7A,05,DD,01,1F,01,00,00
1756488340023847,00000294,false,Rx,0,4,D9,A2,47,FF,00,00,00,00
1756488340023947,00000714,false,Rx,0,1,05,00,00,00,00,00,00,00
1756488340024048,00000734,false,Rx,0,8,02,00,00,C0,3F,A2,47,05
1756488340024145,00000194,false,Rx,0,6,14,00,FF,FF,FD,FF,00,00
1756488340027232,00000193,false,Rx,0,6,14,00,00,00,FC,FF,00,00
1756488340029701,00000213,false,Rx,0,4,08,00,00,00,00,00,00,00
1756488340029793,00000214,false,Rx,0,4,08,00,00,00,00,00,00,00
1756488340032050,00000188,false,Rx,0,6,BF,FF,0E,00,EC,03,00,00
1756488340032190,00000288,false,Rx,0,6,00,00,00,00,00,00,00,00
1756488340032317,00000488,false,Rx,0,8,08,27,59,00,53,01,90,00
1756488340033591,00000194,false,Rx,0,6,14,00,03,00,FE,FF,00,00
1756488340037053,00000193,false,Rx,0,6,14,00,02,00,FE,FF,00,00
1756488340040467,00000290,false,Rx,0,7,01,E8,00,00,00,00,00,00
1756488340040564,00000490,false,Rx,0,5,64,00,00,00,00,00,00,00
1756488340040724,00000213,false,Rx,0,4,08,00,00,00,00,00,00,00
1756488340040818,00000214,false,Rx,0,4,08,00,00,00,00,00,00,00
1756488340042250,00000188,false,Rx,0,6,BD,FF,12,00,E4,03,00,00
1756488340042390,00000288,false,Rx,0,6,00,00,00,00,00,00,00,00
1756488340042507,00000488,false,Rx,0,8,08,27,59,00,53,01,90,00
1756488340043411,00000194,false,Rx,0,6,14,00,02,00,FD,FF,00,00
1756488340046904,00000193,false,Rx,0,6,14,00,FE,FF,FB,FF,00,00
1756488340051704,00000213,false,Rx,0,4,08,00,00,00,00,00,00,00
1756488340052451,00000188,false,Rx,0,6,B9,FF,18,00,D9,03,00,00
1756488340052590,00000288,false,Rx,0,6,00,00,00,00,00,00,00,00
1756488340052707,00000488,false,Rx,0,8,08,27,59,00,53,01,90,00
1756488340052853,00000214,false,Rx,0,4,08,00,00,00,00,00,00,00
1756488340053233,00000194,false,Rx,0,6,14,00,FE,FF,FE,FF,00,00
1756488340056712,00000193,false,Rx,0,6,14,00,F8,FF,04,00,00,00
1756488340062662,00000188,false,Rx,0,6,C3,FF,12,00,EC,03,00,00
1756488340062819,00000213,false,Rx,0,4,08,00,00,00,00,00,00,00
1756488340063067,00000194,false,Rx,0,6,14,00,FD,FF,FE,FF,00,00
1756488340063493,00000288,false,Rx,0,6,00,00,01,00,00,00,00,00
1756488340063611,00000488,false,Rx,0,8,08,27,59,00,53,01,90,00
1756488340063954,00000214,false,Rx,0,4,08,00,00,00,00,00,00,00
1756488340066534,00000193,false,Rx,0,6,14,00,F3,FF,FE,FF,00,00
1756488340072894,00000194,false,Rx,0,6,14,00,FF,FF,FC,FF,00,00
1756488340073552,00000188,false,Rx,0,6,BD,FF,1B,00,DF,03,00,00
1756488340073656,00000288,false,Rx,0,6,FF,FF,00,00,00,00,00,00
1756488340073753,00000488,false,Rx,0,8,08,27,59,00,53,01,90,00
1756488340073851,00000213,false,Rx,0,4,08,00,00,00,00,00,00,00
1756488340074932,00000214,false,Rx,0,4,08,00,00,00,00,00,00,00
1756488340076356,00000193,false,Rx,0,6,14,00,EE,FF,FD,FF,00,00
1756488340082719,00000194,false,Rx,0,6,14,00,00,00,FF,FF,00,00
1756488340083784,00000188,false,Rx,0,6,C3,FF,0E,00,EB,03,00,00
1756488340083898,00000288,false,Rx,0,6,FF,FF,00,00,00,00,00,00
1756488340084012,00000488,false,Rx,0,8,08,27,59,00,53,01,90,00
1756488340084853,00000213,false,Rx,0,4,08,00,00,00,00,00,00,00
1756488340085918,00000214,false,Rx,0,4,08,00,00,00,00,00,00,00
1756488340086190,00000193,false,Rx,0,6,14,00,FE,FF,FE,FF,00,00
1756488340092650,00000194,false,Rx,0,6,14,00,FF,FF,FE,FF,00,00
1756488340093885,00000188,false,Rx,0,6,C1,FF,12,00,F1,03,00,00
1756488340093993,00000288,false,Rx,0,6,00,00,00,00,00,00,00,00
1756488340094090,00000488,false,Rx,0,8,08,27,58,00,53,01,90,00
1756488340095853,00000181,false,Rx,0,8,04,10,00,E9,02,00,01,02
1756488340095945,00000213,false,Rx,0,4,08,00,00,00,00,00,00,00
1756488340096041,00000193,false,Rx,0,6,14,00,0F,00,FB,FF,00,00
1756488340096928,00000214,false,Rx,0,4,08,00,00,00,00,00,00,00
1756488340102383,00000194,false,Rx,0,6,14,00,FE,FF,01,00,00,00
1756488340104070,00000188,false,Rx,0,6,B7,FF,16,00,E2,03,00,00
1756488340104182,00000288,false,Rx,0,6,00,00,00,00,00,00,00,00
1756488340104299,00000488,false,Rx,0,8,08,27,58,00,53,01,90,00
1756488340105849,00000193,false,Rx,0,6,14,00,08,00,FE,FF,00,00
1756488340106844,00000213,false,Rx,0,4,08,00,00,00,00,00,00,00
1756488340107926,00000214,false,Rx,0,4,08,00,00,00,00,00,00,00
1756488340109052,00000181,false,Rx,0,8,04,10,00,E9,02,00,01,02
1756488340110108,00000701,false,Rx,0,1,05,00,00,00,00,00,00,00
1756488340112200,00000194,false,Rx,0,6,14,00,FF,FF,FF,FF,00,00
1756488340114269,00000188,false,Rx,0,6,BE,FF,1A,00,E9,03,00,00
1756488340114385,00000288,false,Rx,0,6,00,00,00,00,00,00,00,00
1756488340114502,00000488,false,Rx,0,8,08,27,58,00,53,01,90,00
1756488340115668,00000393,false,Rx,0,6,10,01,D5,01,07,01,00,00
1756488340115763,00000293,false,Rx,0,4,51,A3,00,00,00,00,00,00
1756488340115860,00000713,false,Rx,0,1,05,00,00,00,00,00,00,00
1756488340115920,00000004,false,Rx,0,8,00,01,00,00,00,00,00,00
1756488340116025,00000733,false,Rx,0,8,07,00,00,80,3F,A3,00,05
1756488340116121,00000193,false,Rx,0,6,14,00,02,00,FE,FF,00,00
1756488340117824,00000213,false,Rx,0,4,08,00,00,00,00,00,00,00
1756488340118922,00000214,false,Rx,0,4,08,00,00,00,00,00,00,00
1756488340122038,00000394,false,Rx,0,6,7A,05,DD,01,1F,01,00,00
1756488340122127,00000294,false,Rx,0,4,17,A3,73,FF,00,00,00,00
1756488340122224,00000714,false,Rx,0,1,05,00,00,00,00,00,00,00
1756488340122327,00000734,false,Rx,0,8,03,6F,12,03,3B,A3,73,05
1756488340122428,00000194,false,Rx,0,6,14,00,01,00,FF,FF,00,00
1756488340124466,00000188,false,Rx,0,6,BA,FF,0C,00,EE,03,00,00
1756488340124580,00000288,false,Rx,0,6,00,00,00,00,00,00,00,00
1756488340124700,00000488,false,Rx,0,8,08,27,58,00,53,01,90,00
1756488340125494,00000193,false,Rx,0,6,14,00,02,00,03,00,00,00
1756488340128828,00000213,false,Rx,0,4,08,00,00,00,00,00,00,00
1756488340129933,00000214,false,Rx,0,4,08,00,00,00,00,00,00,00
1756488340131857,00000194,false,Rx,0,6,14,00,FE,FF,FF,FF,00,00
1756488340134670,00000188,false,Rx,0,6,B7,FF,17,00,E1,03,00,00
1756488340134785,00000288,false,Rx,0,6,00,00,00,00,00,00,00,00
1756488340134901,00000488,false,Rx,0,8,08,27,58,00,53,01,90,00
1756488340135322,00000193,false,Rx,0,6,14,00,FF,FF,00,00,00,00
1756488340135539,00000181,false,Rx,0,8,04,10,00,E9,02,00,01,02
1756488340139934,00000213,false,Rx,0,4,08,00,00,00,00,00,00,00
1756488340141032,00000214,false,Rx,0,4,08,00,00,00,00,00,00,00
1756488340141679,00000194,false,Rx,0,6,14,00,FE,FF,FF,FF,00,00
1756488340144848,00000188,false,Rx,0,6,B8,FF,15,00,E1,03,00,00
1756488340144990,00000288,false,Rx,0,6,00,00,00,00,00,00,00,00
1756488340145108,00000488,false,Rx,0,8,08,27,59,00,53,01,90,00
1756488340145223,00000193,false,Rx,0,6,14,00,02,00,04,00,00,00
1756488340148897,00000181,false,Rx,0,8,04,10,00,E9,02,00,01,01
1756488340151045,00000213,false,Rx,0,4,08,00,00,00,00,00,00,00
1756488340151512,00000194,false,Rx,0,6,14,00,02,00,00,00,00,00
1756488340152163,00000214,false,Rx,0,4,08,00,00,00,00,00,00,00
1756488340154980,00000193,false,Rx,0,6,14,00,F6,FF,FD,FF,00,00
1756488340155098,00000188,false,Rx,0,6,C1,FF,0C,00,F2,03,00,00
1756488340155195,00000288,false,Rx,0,6,00,00,00,00,00,00,00,00
1756488340155317,00000488,false,Rx,0,8,08,27,59,00,53,01,90,00
1756488340161342,00000194,false,Rx,0,6,14,00,FF,FF,FF,FF,00,00
1756488340162161,00000213,false,Rx,0,4,08,00,00,00,00,00,00,00
1756488340163246,00000214,false,Rx,0,4,08,00,00,00,00,00,00,00
1756488340164821,00000193,false,Rx,0,6,14,00,08,00,FD,FF,00,00
1756488340165239,00000188,false,Rx,0,6,B9,FF,13,00,E2,03,00,00
1756488340165537,00000181,false,Rx,0,8,04,10,00,E9,02,00,01,01
1756488340166600,00000288,false,Rx,0,6,01,00,00,00,00,00,00,00
1756488340166719,00000488,false,Rx,0,8,08,27,59,00,53,01,90,00
1756488340170029,00000100,false,Rx,0,6,C8,56,BD,03,70,3B,00,00
1756488340171724,00000194,false,Rx,0,6,14,00,FF,FF,02,00,00,00
1756488340173293,00000213,false,Rx,0,4,08,00,00,00,00,00,00,00
1756488340174276,00000214,false,Rx,0,4,08,00,00,00,00,00,00,00
1756488340174868,00000193,false,Rx,0,6,14,00,FE,FF,FD,FF,00,00
1756488340176629,00000188,false,Rx,0,6,C2,FF,0B,00,EC,03,00,00
1756488340176733,00000288,false,Rx,0,6,00,00,FF,FF,00,00,00,00
1756488340176887,00000488,false,Rx,0,8,08,27,59,00,53,01,90,00
1756488340178708,00000181,false,Rx,0,8,04,10,00,E9,02,00,01,01
1756488340181286,00000194,false,Rx,0,6,14,00,01,00,01,00,00,00
1756488340184776,00000193,false,Rx,0,6,14,00,0A,00,03,00,00,00
1756488340185316,00000213,false,Rx,0,4,08,00,00,00,00,00,00,00
1756488340185420,00000214,false,Rx,0,4,08,00,00,00,00,00,00,00
1756488340187101,00000188,false,Rx,0,6,BC,FF,16,00,E3,03,00,00
1756488340187275,00000288,false,Rx,0,6,00,00,FF,FF,00,00,00,00
1756488340187342,00000488,false,Rx,0,8,08,27,59,00,53,01,90,00
1756488340191141,00000194,false,Rx,0,6,14,00,01,00,00,00,00,00
