Time Stamp,ID,Extended,Dir,Bus,LEN,D1,D2,D3,D4,D5,D6,D7,D8,D9,D10,D11,D12
1756490193460176,00000420,false,Rx,0,1,01,00,00,00,00,00,00,00
1756490193460355,00000213,false,Rx,0,4,08,00,00,00,00,00,00,00
1756490193460441,00000193,false,Rx,0,6,12,00,F9,FF,00,00,00,00
1756490193460509,00000214,false,Rx,0,4,08,00,00,00,00,00,00,00
1756490193460571,00000194,false,Rx,0,6,14,00,FF,FF,00,00,00,00
1756490193460633,00000701,false,Rx,0,1,05,00,00,00,00,00,00,00
1756490193460693,00000488,false,Rx,0,8,08,27,55,00,53,01,8A,00
1756490193460754,00000188,false,Rx,0,6,BE,FF,12,00,F6,03,00,00
1756490193460816,00000288,false,Rx,0,6,00,00,00,00,00,00,00,00
1756490193460875,00000393,false,Rx,0,6,07,01,D5,01,0F,01,00,00
1756490193460935,00000293,false,Rx,0,4,A7,A2,00,00,00,00,00,00
1756490193460993,00000713,false,Rx,0,1,05,00,00,00,00,00,00,00
1756490193461051,00000733,false,Rx,0,8,01,9A,99,19,40,A2,00,05
1756490193461110,00000193,false,Rx,0,6,14,00,F2,FF,02,00,00,00
1756490193461188,00000213,false,Rx,0,4,08,00,00,00,00,00,00,00
1756490193461248,00000194,false,Rx,0,6,14,00,FD,FF,FD,FF,00,00
1756490193461308,00000214,false,Rx,0,4,08,00,00,00,00,00,00,00
1756490193461364,00000488,false,Rx,0,8,08,27,55,00,53,01,8A,00
1756490193461426,00000188,false,Rx,0,6,AD,FF,16,00,CA,03,00,00
1756490193461526,00000288,false,Rx,0,6,00,00,00,00,00,00,00,00
1756490193461593,00000193,false,Rx,0,6,14,00,F1,FF,FE,FF,00,00
1756490193461656,00000194,false,Rx,0,6,14,00,00,00,FD,FF,00,00
1756490193461716,00000213,false,Rx,0,4,08,00,00,00,00,00,00,00
1756490193461773,00000214,false,Rx,0,4,08,00,00,00,00,00,00,00
1756490193461831,00000488,false,Rx,0,8,08,27,55,00,53,01,8A,00
1756490193461892,00000181,false,Rx,0,8,68,10,00,EA,02,0C,07,08
1756490193461952,00000188,false,Rx,0,6,C3,FF,14,00,F1,03,00,00
1756490193462011,00000288,false,Rx,0,6,00,00,00,00,00,00,00,00
1756490193462070,00000193,false,Rx,0,6,14,00,01,00,FD,FF,00,00
1756490193462128,00000194,false,Rx,0,6,14,00,FD,FF,FE,FF,00,00
1756490193462187,00000213,false,Rx,0,4,08,00,00,00,00,00,00,00
1756490193462246,00000214,false,Rx,0,4,08,00,00,00,00,00,00,00
1756490193462304,00000488,false,Rx,0,8,08,27,55,00,53,01,8A,00
1756490193462363,00000188,false,Rx,0,6,CB,FF,08,00,FF,03,00,00
1756490193462422,00000193,false,Rx,0,6,14,00,06,00,FE,FF,00,00
1756490193462480,00000288,false,Rx,0,6,00,00,00,00,00,00,00,00
1756490193462537,00000181,false,Rx,0,8,04,10,00,E9,02,0C,07,08
1756490193462597,00000194,false,Rx,0,6,14,00,FE,FF,FD,FF,00,00
1756490193462654,00000213,false,Rx,0,4,08,00,00,00,00,00,00,00
1756490193462711,00000214,false,Rx,0,4,08,00,00,00,00,00,00,00
1756490193462772,00000488,false,Rx,0,8,08,27,55,00,53,01,8A,00
1756490193462833,00000193,false,Rx,0,6,14,00,FE,FF,FF,FF,00,00
1756490193462894,00000188,false,Rx,0,6,B8,FF,12,00,D5,03,00,00
1756490193462957,00000288,false,Rx,0,6,00,00,00,00,00,00,00,00
1756490193463016,00000194,false,Rx,0,6,14,00,FD,FF,00,00,00,00
1756490193463076,00000213,false,Rx,0,4,08,00,00,00,00,00,00,00
1756490193463133,00000488,false,Rx,0,8,08,27,55,00,53,01,8A,00
1756490193463210,00000214,false,Rx,0,4,08,00,00,00,00,00,00,00
1756490193463267,00000193,false,Rx,0,6,14,00,01,00,FD,FF,00,00
1756490193463324,00000188,false,Rx,0,6,C3,FF,14,00,06,04,00,00
1756490193463381,00000288,false,Rx,0,6,00,00,00,00,00,00,00,00
1756490193463438,00000194,false,Rx,0,6,14,00,FC,FF,FF,FF,00,00
1756490193463496,00000213,false,Rx,0,4,08,00,00,00,00,00,00,00
1756490193463552,00000488,false,Rx,0,8,08,27,55,00,53,01,8A,00
1756490193463611,00000214,false,Rx,0,4,08,00,00,00,00,00,00,00
1756490193463666,00000193,false,Rx,0,6,14,00,07,00,FD,FF,00,00
1756490193463723,00000188,false,Rx,0,6,BE,FF,0E,00,E4,03,00,00
1756490193463780,00000288,false,Rx,0,6,00,00,00,00,00,00,00,00
1756490193463839,00000394,false,Rx,0,6,55,05,ED,01,0E,01,00,00
1756490193463895,00000294,false,Rx,0,4,35,A2,04,00,00,00,00,00
1756490193463952,00000714,false,Rx,0,1,05,00,00,00,00,00,00,00
1756490193464189,00000734,false,Rx,0,8,05,00,00,20,3F,A2,04,05
1756490193464270,00000194,false,Rx,0,6,14,00,FB,FF,FD,FF,00,00
1756490193464330,00000213,false,Rx,0,4,08,00,00,00,00,00,00,00
1756490193464390,00000488,false,Rx,0,8,08,27,55,00,53,01,8A,00
1756490193464449,00000193,false,Rx,0,6,14,00,05,00,FA,FF,00,00
1756490193464507,00000214,false,Rx,0,4,08,00,00,00,00,00,00,00
1756490193464564,00000188,false,Rx,0,6,B9,FF,16,00,C8,03,00,00
1756490193464623,00000288,false,Rx,0,6,00,00,00,00,00,00,00,00
1756490193464684,00000194,false,Rx,0,6,14,00,FD,FF,03,00,00,00
1756490193464743,00000710,false,Rx,0,1,7F,00,00,00,00,00,00,00
1756490193464798,00000488,false,Rx,0,8,08,27,55,00,53,01,8A,00
1756490193464856,00000213,false,Rx,0,4,08,00,00,00,00,00,00,00
1756490193464911,00000193,false,Rx,0,6,14,00,F3,FF,07,00,00,00
1756490193464968,00000188,false,Rx,0,6,C7,FF,0F,00,F4,03,00,00
1756490193465025,00000288,false,Rx,0,6,00,00,00,00,00,00,00,00
1756490193465088,00000214,false,Rx,0,4,08,00,00,00,00,00,00,00
1756490193465144,00000194,false,Rx,0,6,14,00,FE,FF,02,00,00,00
1756490193465202,00000290,false,Rx,0,7,01,E8,00,D3,9C,06,00,00
1756490193465278,00000490,false,Rx,0,5,54,00,00,00,00,00,00,00
1756490193465340,00000488,false,Rx,0,8,08,27,55,00,53,01,8A,00
1756490193465398,00000193,false,Rx,0,6,14,00,F4,FF,04,00,00,00
1756490193465455,00000188,false,Rx,0,6,C3,FF,09,00,F8,03,00,00
1756490193465553,00000213,false,Rx,0,4,08,00,00,00,00,00,00,00
1756490193465611,00000194,false,Rx,0,6,14,00,FB,FF,03,00,00,00
1756490193465669,00000288,false,Rx,0,6,00,00,00,00,00,00,00,00
1756490193465727,00000214,false,Rx,0,4,08,00,00,00,00,00,00,00
1756490193465784,00000701,false,Rx,0,1,05,00,00,00,00,00,00,00
1756490193465839,00000181,false,Rx,0,8,04,10,00,EA,02,0C,07,08
1756490193465897,00000488,false,Rx,0,8,08,27,55,00,53,01,8A,00
1756490193465955,00000393,false,Rx,0,6,07,01,D5,01,07,01,00,00
1756490193466013,00000293,false,Rx,0,4,B2,A2,00,00,00,00,00,00
1756490193466070,00000713,false,Rx,0,1,05,00,00,00,00,00,00,00
1756490193466125,00000733,false,Rx,0,8,02,00,00,C0,3F,A2,00,05
1756490193466183,00000193,false,Rx,0,6,14,00,05,00,00,00,00,00
1756490193466240,00000194,false,Rx,0,6,14,00,FF,FF,03,00,00,00
1756490193466297,00000188,false,Rx,0,6,B5,FF,1B,00,C9,03,00,00
1756490193466354,00000288,false,Rx,0,6,00,00,00,00,00,00,00,00
1756490193466413,00000213,false,Rx,0,4,08,00,00,00,00,00,00,00
1756490193466472,00000214,false,Rx,0,4,08,00,00,00,00,00,00,00
1756490193466530,00000193,false,Rx,0,6,14,00,05,00,06,00,00,00
1756490193466587,00000488,false,Rx,0,8,08,27,55,00,53,01,8A,00
1756490193466646,00000194,false,Rx,0,6,14,00,FE,FF,01,00,00,00
1756490193466703,00000188,false,Rx,0,6,BD,FF,11,00,DB,03,00,00
1756490193466760,00000288,false,Rx,0,6,00,00,00,00,00,00,00,00
1756490193466816,00000213,false,Rx,0,4,08,00,00,00,00,00,00,00
1756490193466871,00000214,false,Rx,0,4,08,00,00,00,00,00,00,00
1756490193466927,00000193,false,Rx,0,6,14,00,F9,FF,05,00,00,00
1756490193466987,00000488,false,Rx,0,8,08,27,55,00,53,01,8A,00
1756490193467044,00000194,false,Rx,0,6,14,00,FC,FF,01,00,00,00
1756490193467102,00000188,false,Rx,0,6,C3,FF,10,00,02,04,00,00
1756490193467171,00000288,false,Rx,0,6,00,00,00,00,00,00,00,00
1756490193467229,00000213,false,Rx,0,4,08,00,00,00,00,00,00,00
1756490193467285,00000214,false,Rx,0,4,08,00,00,00,00,00,00,00
1756490193467341,00000193,false,Rx,0,6,14,00,02,00,05,00,00,00
1756490193467398,00000488,false,Rx,0,8,08,27,55,00,53,01,8A,00
1756490193467456,00000194,false,Rx,0,6,14,00,FE,FF,04,00,00,00
1756490193467513,00000188,false,Rx,0,6,BB,FF,1A,00,D4,03,00,00
1756490193467647,00000288,false,Rx,0,6,00,00,00,00,00,00,00,00
1756490193467799,00000213,false,Rx,0,4,08,00,00,00,00,00,00,00
1756490193467857,00000214,false,Rx,0,4,08,00,00,00,00,00,00,00
1756490193467915,00000193,false,Rx,0,6,14,00,0E,00,02,00,00,00
1756490193467973,00000194,false,Rx,0,6,14,00,FD,FF,FD,FF,00,00
1756490193468030,00000488,false,Rx,0,8,08,27,55,00,53,01,8A,00
1756490193468125,00000188,false,Rx,0,6,C6,FF,0E,00,F8,03,00,00
1756490193468274,00000288,false,Rx,0,6,00,00,00,00,00,00,00,00
1756490193468392,00000213,false,Rx,0,4,08,00,00,00,00,00,00,00
1756490193468641,00000214,false,Rx,0,4,08,00,00,00,00,00,00,00
1756490193468702,00000193,false,Rx,0,6,14,00,07,00,01,00,00,00
1756490193468762,00000181,false,Rx,0,8,04,10,00,EA,02,0C,07,08
1756490193468824,00000194,false,Rx,0,6,14,00,FE,FF,01,00,00,00
1756490193468885,00000488,false,Rx,0,8,08,27,55,00,53,01,8A,00
1756490193468946,00000188,false,Rx,0,6,C3,FF,0E,00,F7,03,00,00
1756490193469003,00000288,false,Rx,0,6,00,00,00,00,00,00,00,00
1756490193469061,00000213,false,Rx,0,4,08,00,00,00,00,00,00,00
1756490193469118,00000193,false,Rx,0,6,14,00,EF,FF,06,00,00,00
1756490193469175,00000214,false,Rx,0,4,08,00,00,00,00,00,00,00
1756490193469231,00000394,false,Rx,0,6,55,05,ED,01,1F,01,00,00
1756490193469288,00000294,false,Rx,0,4,36,A2,E8,FF,00,00,00,00
1756490193469344,00000714,false,Rx,0,1,05,00,00,00,00,00,00,00
1756490193469399,00000734,false,Rx,0,8,06,00,00,00,00,A2,E8,05
1756490193469580,00000194,false,Rx,0,6,14,00,FC,FF,00,00,00,00
1756490193469682,00000488,false,Rx,0,8,08,27,55,00,53,01,8A,00
1756490193469802,00000181,false,Rx,0,8,04,10,00,E9,02,0C,07,08
1756490193469863,00000188,false,Rx,0,6,B6,FF,12,00,C6,03,00,00
1756490193469920,00000288,false,Rx,0,6,00,00,00,00,00,00,00,00
1756490193469979,00000193,false,Rx,0,6,14,00,F5,FF,03,00,00,00
1756490193470038,00000213,false,Rx,0,4,08,00,00,00,00,00,00,00
1756490193470096,00000214,false,Rx,0,4,08,00,00,00,00,00,00,00
1756490193470153,00000194,false,Rx,0,6,14,00,FF,FF,FD,FF,00,00
1756490193471353,00000488,false,Rx,0,8,08,27,55,00,53,01,8A,00
1756490193471485,00000188,false,Rx,0,6,C3,FF,11,00,F3,03,00,00
1756490193471548,00000288,false,Rx,0,6,00,00,00,00,00,00,00,00
1756490193471606,00000710,false,Rx,0,1,7F,00,00,00,00,00,00,00
1756490193471663,00000193,false,Rx,0,6,14,00,FF,FF,FA,FF,00,00
1756490193471721,00000181,false,Rx,0,8,68,10,00,EA,02,0C,07,08
1756490193471781,00000213,false,Rx,0,4,08,00,00,00,00,00,00,00
1756490193471838,00000194,false,Rx,0,6,14,00,FD,FF,FD,FF,00,00
1756490193472005,00000488,false,Rx,0,8,08,27,55,00,52,01,8A,00
1756490193472069,00000214,false,Rx,0,4,08,00,00,00,00,00,00,00
1756490193472125,00000188,false,Rx,0,6,C4,FF,0B,00,00,04,00,00
1756490193472183,00000288,false,Rx,0,6,00,00,00,00,00,00,00,00
1756490193472241,00000193,false,Rx,0,6,14,00,02,00,FD,FF,00,00
1756490193472298,00000194,false,Rx,0,6,14,00,FE,FF,00,00,00,00
1756490193472356,00000213,false,Rx,0,4,08,00,00,00,00,00,00,00
1756490193472415,00000488,false,Rx,0,8,08,27,55,00,52,01,8A,00
1756490193472475,00000214,false,Rx,0,4,08,00,00,00,00,00,00,00
1756490193472534,00000188,false,Rx,0,6,B4,FF,16,00,D2,03,00,00
1756490193472593,00000288,false,Rx,0,6,00,00,00,00,00,00,00,00
1756490193472651,00000701,false,Rx,0,1,05,00,00,00,00,00,00,00
1756490193472706,00000393,false,Rx,0,6,07,01,D5,01,07,01,00,00
1756490193472764,00000293,false,Rx,0,4,9C,A2,00,00,00,00,00,00
1756490193472820,00000713,false,Rx,0,1,05,00,00,00,00,00,00,00
1756490193472875,00000733,false,Rx,0,8,03,6F,12,03,3B,A2,00,05
1756490193472932,00000193,false,Rx,0,6,14,00,02,00,FF,FF,00,00
1756490193472989,00000181,false,Rx,0,8,04,10,00,EA,02,0C,07,08
1756490193473047,00000194,false,Rx,0,6,14,00,FD,FF,FD,FF,00,00
1756490193473105,00000488,false,Rx,0,8,08,27,55,00,53,01,8A,00
1756490193473162,00000213,false,Rx,0,4,08,00,00,00,00,00,00,00
1756490193473219,00000214,false,Rx,0,4,08,00,00,00,00,00,00,00
1756490193473276,00000188,false,Rx,0,6,BB,FF,12,00,E0,03,00,00
1756490193473333,00000288,false,Rx,0,6,00,00,00,00,00,00,00,00
1756490193473390,00000193,false,Rx,0,6,14,00,FF,FF,FF,FF,00,00
1756490193473446,00000194,false,Rx,0,6,14,00,FE,FF,01,00,00,00
1756490193473537,00000488,false,Rx,0,8,08,27,55,00,53,01,8A,00
1756490193473597,00000213,false,Rx,0,4,08,00,00,00,00,00,00,00
1756490193473656,00000188,false,Rx,0,6,C6,FF,0B,00,FC,03,00,00
1756490193473716,00000288,false,Rx,0,6,00,00,00,00,00,00,00,00
1756490193473776,00000214,false,Rx,0,4,08,00,00,00,00,00,00,00
1756490193473832,00000193,false,Rx,0,6,14,00,00,00,FB,FF,00,00
1756490193473890,00000181,false,Rx,0,8,68,10,00,E9,02,0C,07,08
1756490193473950,00000194,false,Rx,0,6,14,00,FF,FF,FF,FF,00,00
1756490193474008,00000488,false,Rx,0,8,08,27,55,00,52,01,8A,00
1756490193474065,00000188,false,Rx,0,6,BC,FF,14,00,E0,03,00,00
1756490193474122,00000288,false,Rx,0,6,00,00,00,00,00,00,00,00
1756490193474178,00000213,false,Rx,0,4,08,00,00,00,00,00,00,00
1756490193474234,00000214,false,Rx,0,4,08,00,00,00,00,00,00,00
1756490193474290,00000193,false,Rx,0,6,14,00,06,00,FC,FF,00,00
1756490193474346,00000194,false,Rx,0,6,14,00,FE,FF,FD,FF,00,00
1756490193474403,00000488,false,Rx,0,8,08,27,55,00,53,01,8A,00
1756490193474460,00000181,false,Rx,0,8,04,10,00,E9,02,0C,07,08
1756490193474518,00000188,false,Rx,0,6,B9,FF,14,00,D2,03,00,00
1756490193474575,00000288,false,Rx,0,6,00,00,00,00,00,00,00,00
1756490193474639,00000213,false,Rx,0,4,08,00,00,00,00,00,00,00
1756490193474694,00000214,false,Rx,0,4,08,00,00,00,00,00,00,00
1756490193474910,00000193,false,Rx,0,6,14,00,FB,FF,01,00,00,00
1756490193474980,00000194,false,Rx,0,6,14,00,00,00,02,00,00,00
1756490193475039,00000488,false,Rx,0,8,08,27,55,00,53,01,8A,00
1756490193475098,00000188,false,Rx,0,6,C6,FF,11,00,FA,03,00,00
1756490193475155,00000288,false,Rx,0,6,00,00,00,00,00,00,00,00
1756490193475212,00000213,false,Rx,0,4,08,00,00,00,00,00,00,00
1756490193475268,00000193,false,Rx,0,6,14,00,FF,FF,FF,FF,00,00
1756490193475326,00000214,false,Rx,0,4,08,00,00,00,00,00,00,00
1756490193475381,00000194,false,Rx,0,6,14,00,FB,FF,FF,FF,00,00
1756490193475438,00000488,false,Rx,0,8,08,27,55,00,53,01,8A,00
1756490193475498,00000188,false,Rx,0,6,C3,FF,0F,00,F1,03,00,00
1756490193475556,00000288,false,Rx,0,6,00,00,00,00,00,00,00,00
1756490193475613,00000193,false,Rx,0,6,14,00,10,00,FC,FF,00,00
1756490193475670,00000213,false,Rx,0,4,08,00,00,00,00,00,00,00
1756490193475727,00000394,false,Rx,0,6,55,05,ED,01,16,01,00,00
1756490193475784,00000294,false,Rx,0,4,2F,A2,F4,FF,00,00,00,00
1756490193475840,00000714,false,Rx,0,1,05,00,00,00,00,00,00,00
1756490193475900,00000734,false,Rx,0,8,07,00,00,80,3F,A2,F4,05
1756490193475957,00000193,false,Rx,0,6,14,00,F7,FF,FE,FF,00,00
1756490193476063,00000188,false,Rx,0,6,AF,FF,1B,00,C9,03,00,00
1756490193476199,00000288,false,Rx,0,6,00,00,00,00,00,00,00,00
1756490193476262,00000488,false,Rx,0,8,08,27,55,00,52,01,8A,00
1756490193476320,00000194,false,Rx,0,6,14,00,FE,FF,FF,FF,00,00
1756490193476378,00000213,false,Rx,0,4,08,00,00,00,00,00,00,00
1756490193476433,00000214,false,Rx,0,4,08,00,00,00,00,00,00,00
1756490193476489,00000710,false,Rx,0,1,7F,00,00,00,00,00,00,00
1756490193476543,00000181,false,Rx,0,8,04,10,00,E9,02,00,00,01
1756490193477568,00000393,false,Rx,0,6,07,01,D5,01,07,01,00,00
1756490193477682,00000293,false,Rx,0,4,AF,A2,00,00,00,00,00,00
1756490193477822,00000713,false,Rx,0,1,05,00,00,00,00,00,00,00
1756490193477942,00000733,false,Rx,0,8,07,00,00,80,3F,A2,00,05
1756490193478003,00000193,false,Rx,0,6,14,00,F8,FF,FE,FF,00,00
1756490193478478,00000188,false,Rx,0,6,C1,FF,10,00,F3,03,00,00
1756490193478613,00000288,false,Rx,0,6,00,00,00,00,00,00,00,00
1756490193478730,00000488,false,Rx,0,8,08,27,55,00,52,01,8A,00
1756490193479428,00000194,false,Rx,0,6,14,00,FF,FF,00,00,00,00
1756490193480571,00000213,false,Rx,0,4,08,00,00,00,00,00,00,00
1756490193480674,00000214,false,Rx,0,4,08,00,00,00,00,00,00,00
1756490193483148,00000701,false,Rx,0,1,05,00,00,00,00,00,00,00
1756490193487383,00000193,false,Rx,0,6,14,00,F8,FF,FF,FF,00,00
1756490193488676,00000188,false,Rx,0,6,BF,FF,10,00,E6,03,00,00
1756490193488807,00000288,false,Rx,0,6,00,00,00,00,00,00,00,00
1756490193488948,00000488,false,Rx,0,8,08,27,55,00,53,01,8A,00
1756490193489374,00000194,false,Rx,0,6,14,00,FF,FF,03,00,00,00
1756490193489586,00000181,false,Rx,0,8,68,10,00,E9,02,00,00,01
1756490193490708,00000213,false,Rx,0,4,08,00,00,00,00,00,00,00
1756490193490824,00000214,false,Rx,0,4,08,00,00,00,00,00,00,00
1756490193491202,00000100,false,Rx,0,6,51,9E,D9,03,70,3B,00,00
1756490193497585,00000193,false,Rx,0,6,14,00,06,00,00,00,00,00
1756490193498971,00000188,false,Rx,0,6,B7,FF,1A,00,CC,03,00,00
1756490193499405,00000288,false,Rx,0,6,00,00,00,00,00,00,00,00
1756490193499497,00000488,false,Rx,0,8,08,27,55,00,52,01,8A,00
1756490193499560,00000194,false,Rx,0,6,14,00,FF,FF,FF,FF,00,00
1756490193500513,00000213,false,Rx,0,4,08,00,00,00,00,00,00,00
1756490193500807,00000214,false,Rx,0,4,08,00,00,00,00,00,00,00
1756490193506061,00000181,false,Rx,0,8,04,10,00,EA,02,00,00,01
1756490193507288,00000193,false,Rx,0,6,14,00,FE,FF,03,00,00,00
1756490193509047,00000188,false,Rx,0,6,C5,FF,0D,00,E4,03,00,00
1756490193509372,00000194,false,Rx,0,6,14,00,FF,FF,FF,FF,00,00
1756490193509437,00000288,false,Rx,0,6,00,00,00,00,00,00,00,00
1756490193509523,00000488,false,Rx,0,8,08,27,55,00,52,01,8A,00
1756490193510662,00000213,false,Rx,0,4,08,00,00,00,00,00,00,00
1756490193510770,00000214,false,Rx,0,4,08,00,00,00,00,00,00,00
1756490193513246,00000190,false,Rx,0,8,00,C9,C9,C9,C9,C9,C9,C9
1756490193513722,00000190,false,Rx,0,8,07,C9,C9,C9,C9,C9,C9,C9
1756490193513908,00000190,false,Rx,0,8,15,C9,C9,C9,C9,C9,C9,C9
1756490193514035,00000190,false,Rx,0,8,1C,C9,C9,C9,C9,C9,C9,C9
1756490193514155,00000190,false,Rx,0,8,23,C9,C9,C9,C9,C9,C9,C9
1756490193514255,00000190,false,Rx,0,8,0E,C9,C9,C9,C9,C9,C9,C9
1756490193514355,00000190,false,Rx,0,8,2A,C9,C9,C9,C9,C9,C9,C9
1756490193514476,00000190,false,Rx,0,8,31,C9,C9,C9,C9,C9,C9,C9
1756490193514627,00000190,false,Rx,0,8,3F,C9,C9,C9,C9,C9,C9,C9
1756490193514868,00000190,false,Rx,0,8,46,C9,C9,C9,C9,C9,C9,CA
1756490193514993,00000190,false,Rx,0,8,38,C9,C9,C9,C9,C9,C9,C7
1756490193515421,00000190,false,Rx,0,8,4D,C9,C9,C9,C9,C9,C9,C9
1756490193515645,00000190,false,Rx,0,8,54,C9,C9,CA,C9,C9,C9,C9
1756490193515775,00000190,false,Rx,0,8,62,C9,C7,C9,C9,C9,C9,C9
1756490193515896,00000190,false,Rx,0,8,5B,C9,C9,C9,C9,C9,C9,C9
1756490193516015,00000390,false,Rx,0,8,00,3D,3D,3D,3D,3D,3D,3D
1756490193516117,00000390,false,Rx,0,8,07,3D,3D,3D,3D,3D,3D,3D
1756490193516216,00000390,false,Rx,0,8,0E,3D,3D,3D,3D,3D,3D,3D
1756490193516336,00000390,false,Rx,0,8,1C,3D,3D,3D,3D,3D,3D,3D
1756490193516455,00000390,false,Rx,0,8,23,3D,3D,3D,3D,3D,3D,3D
1756490193516573,00000390,false,Rx,0,8,15,3D,3D,3D,3D,3D,3D,3D
1756490193516722,00000390,false,Rx,0,8,2A,3D,3D,3D,3D,3D,3D,3D
1756490193517115,00000390,false,Rx,0,8,31,3D,3D,3D,3D,3D,3D,3D
1756490193517334,00000390,false,Rx,0,8,3F,3D,3D,3D,3D,3D,3D,3D
1756490193517464,00000390,false,Rx,0,8,46,3D,3D,3D,3D,3D,3D,3D
1756490193517597,00000390,false,Rx,0,8,38,3D,3D,3D,3D,3D,3D,3D
1756490193517700,00000390,false,Rx,0,8,4D,3D,3D,3D,3D,3D,3D,3D
1756490193517878,00000390,false,Rx,0,8,54,3D,3D,3D,3D,3D,3D,3D
1756490193517998,00000390,false,Rx,0,8,62,13,13,13,13,13,13,3D
1756490193518117,00000390,false,Rx,0,8,5B,3D,3D,3D,3D,3D,13,13
1756490193518235,00000390,false,Rx,0,8,69,3D,3D,3D,3D,3D,3D,3D
1756490193518468,00000390,false,Rx,0,8,70,3D,3D,3D,3D,3D,3D,3D
1756490193518541,00000390,false,Rx,0,8,7E,3D,3D,3D,3D,3D,3D,3D
1756490193518601,00000390,false,Rx,0,8,85,3D,3D,3D,13,13,13,13
1756490193518661,00000390,false,Rx,0,8,77,3D,3D,3D,3D,3D,3D,3D
1756490193518720,00000390,false,Rx,0,8,8C,13,13,13,13,3C,3C,3C
1756490193518778,00000193,false,Rx,0,6,14,00,FF,FF,06,00,00,00
1756490193518947,00000390,false,Rx,0,8,A1,13,13,13,13,13,13,13
1756490193519009,00000390,false,Rx,0,8,A8,13,13,13,13,13,13,13
1756490193519102,00000390,false,Rx,0,8,AF,13,3D,3D,3D,3D,3D,3D
1756490193519218,00000390,false,Rx,0,8,B6,3D,3D,3C,3C,3C,3C,3C
1756490193519278,00000390,false,Rx,0,8,BD,3C,3C,3C,3D,3D,3D,3D
1756490193519337,00000390,false,Rx,0,8,9A,3C,3C,3C,3C,3C,3C,13
1756490193519395,00000390,false,Rx,0,8,C4,3D,3D,3D,3D,3D,3D,3D
1756490193519455,00000390,false,Rx,0,8,CB,3D,3D,3D,3D,3D,3D,3D
1756490193519523,00000390,false,Rx,0,8,D9,3D,3D,3D,3D,3D,3D,3D
1756490193519580,00000390,false,Rx,0,8,D2,3D,3D,3D,3D,3D,3D,3D
1756490193519638,00000194,false,Rx,0,6,14,00,FC,FF,00,00,00,00
1756490193519695,00000188,false,Rx,0,6,C6,FF,11,00,01,04,00,00
1756490193520628,00000288,false,Rx,0,6,00,00,00,00,00,00,00,00
1756490193520763,00000488,false,Rx,0,8,08,27,55,00,52,01,8A,00
1756490193521431,00000213,false,Rx,0,4,08,00,00,00,00,00,00,00
1756490193521568,00000214,false,Rx,0,4,08,00,00,00,00,00,00,00
1756490193525866,00000181,false,Rx,0,8,68,10,00,E9,02,00,00,01
1756490193526941,00000193,false,Rx,0,6,14,00,07,00,01,00,00,00
1756490193528824,00000194,false,Rx,0,6,14,00,FE,FF,FF,FF,00,00
1756490193530639,00000188,false,Rx,0,6,BA,FF,1A,00,D3,03,00,00
1756490193530906,00000288,false,Rx,0,6,00,00,00,00,00,00,00,00
1756490193531116,00000488,false,Rx,0,8,08,27,55,00,52,01,8A,00
1756490193531336,00000213,false,Rx,0,4,08,00,00,00,00,00,00,00
1756490193531437,00000214,false,Rx,0,4,08,00,00,00,00,00,00,00
1756490193536776,00000193,false,Rx,0,6,14,00,09,00,03,00,00,00
1756490193538824,00000394,false,Rx,0,6,58,05,ED,01,0E,01,00,00
1756490193539029,00000294,false,Rx,0,4,39,A2,73,FF,00,00,00,00
1756490193539092,00000714,false,Rx,0,1,05,00,00,00,00,00,00,00
1756490193539149,00000734,false,Rx,0,8,02,00,00,20,3F,A2,73,05
1756490193539218,00000194,false,Rx,0,6,14,00,FD,FF,00,00,00,00
1756490193540881,00000188,false,Rx,0,6,C8,FF,0A,00,FF,03,00,00
1756490193541099,00000288,false,Rx,0,6,00,00,00,00,00,00,00,00
1756490193541204,00000488,false,Rx,0,8,08,27,55,00,52,01,8A,00
1756490193541305,00000213,false,Rx,0,4,08,00,00,00,00,00,00,00
1756490193541419,00000214,false,Rx,0,4,08,00,00,00,00,00,00,00
1756490193546605,00000193,false,Rx,0,6,14,00,03,00,06,00,00,00
1756490193548476,00000194,false,Rx,0,6,14,00,FF,FF,FF,FF,00,00
1756490193551072,00000188,false,Rx,0,6,BE,FF,12,00,E9,03,00,00
1756490193551471,00000288,false,Rx,0,6,00,00,00,00,00,00,00,00
1756490193551550,00000488,false,Rx,0,8,08,27,55,00,52,01,8A,00
1756490193552245,00000213,false,Rx,0,4,08,00,00,00,00,00,00,00
1756490193552346,00000214,false,Rx,0,4,08,00,00,00,00,00,00,00
1756490193556431,00000193,false,Rx,0,6,14,00,FF,FF,07,00,00,00
1756490193558307,00000194,false,Rx,0,6,14,00,FF,FF,FF,FF,00,00
1756490193561293,00000188,false,Rx,0,6,B6,FF,16,00,C8,03,00,00
1756490193561589,00000288,false,Rx,0,6,00,00,00,00,00,00,00,00
1756490193561657,00000488,false,Rx,0,8,08,27,55,00,52,01,8A,00
1756490193562166,00000213,false,Rx,0,4,08,00,00,00,00,00,00,00
1756490193562322,00000214,false,Rx,0,4,08,00,00,00,00,00,00,00
1756490193566255,00000193,false,Rx,0,6,14,00,FF,FF,FD,FF,00,00
1756490193568133,00000194,false,Rx,0,6,14,00,FF,FF,00,00,00,00
1756490193571933,00000188,false,Rx,0,6,C2,FF,13,00,EC,03,00,00
1756490193573041,00000288,false,Rx,0,6,00,00,00,00,00,00,00,00
1756490193573125,00000488,false,Rx,0,8,08,27,55,00,52,01,8A,00
1756490193573188,00000213,false,Rx,0,4,08,00,00,00,00,00,00,00
1756490193573246,00000214,false,Rx,0,4,08,00,00,00,00,00,00,00
1756490193575099,00000710,false,Rx,0,1,7F,00,00,00,00,00,00,00
1756490193575240,00000290,false,Rx,0,7,01,E8,00,00,00,00,00,00
1756490193575308,00000490,false,Rx,0,5,64,00,00,00,00,00,00,00
1756490193576063,00000393,false,Rx,0,6,09,01,D5,01,07,01,00,00
1756490193576253,00000293,false,Rx,0,4,99,A2,00,00,00,00,00,00
1756490193576359,00000713,false,Rx,0,1,05,00,00,00,00,00,00,00
1756490193576476,00000733,false,Rx,0,8,08,00,00,80,3F,A2,00,05
1756490193576537,00000193,false,Rx,0,6,14,00,FB,FF,01,00,00,00
1756490193577966,00000194,false,Rx,0,6,14,00,00,00,00,00,00,00
1756490193581689,00000188,false,Rx,0,6,C7,FF,0B,00,FB,03,00,00
1756490193581922,00000213,false,Rx,0,4,08,00,00,00,00,00,00,00
1756490193582180,00000214,false,Rx,0,4,08,00,00,00,00,00,00,00
1756490193582556,00000288,false,Rx,0,6,00,00,00,00,00,00,00,00
1756490193582660,00000188,false,Rx,0,6,C5,FF,09,00,F1,03,00,00
1756490193582780,00000288,false,Rx,0,6,00,00,00,00,00,00,00,00
1756490193582899,00000488,false,Rx,0,8,08,27,55,00,52,01,8A,00
1756490193583018,00000488,false,Rx,0,8,08,27,55,00,52,01,8A,00
1756490193583294,00000701,false,Rx,0,1,05,00,00,00,00,00,00,00
1756490193585908,00000193,false,Rx,0,6,14,00,02,00,00,00,00,00
1756490193587792,00000194,false,Rx,0,6,14,00,00,00,00,00,00,00
1756490193593086,00000213,false,Rx,0,4,08,00,00,00,00,00,00,00
1756490193593461,00000188,false,Rx,0,6,C5,FF,09,00,F1,03,00,00
1756490193593561,00000214,false,Rx,0,4,08,00,00,00,00,00,00,00
1756490193593620,00000288,false,Rx,0,6,00,00,00,00,00,00,00,00
1756490193593679,00000488,false,Rx,0,8,08,27,55,00,52,01,8A,00
1756490193595746,00000193,false,Rx,0,6,14,00,0C,00,01,00,00,00
1756490193596295,00000181,false,Rx,0,8,04,10,00,EA,02,00,00,00
1756490193597621,00000194,false,Rx,0,6,14,00,FF,FF,05,00,00,00
1756490193602833,00000213,false,Rx,0,4,08,00,00,00,00,00,00,00
1756490193602953,00000214,false,Rx,0,4,08,00,00,00,00,00,00,00
1756490193603161,00000188,false,Rx,0,6,C1,FF,0A,00,FF,03,00,00
1756490193603262,00000288,false,Rx,0,6,00,00,00,00,00,00,00,00
1756490193603359,00000488,false,Rx,0,8,08,27,55,00,52,01,8A,00
1756490193605573,00000193,false,Rx,0,6,14,00,06,00,FF,FF,00,00
1756490193607446,00000194,false,Rx,0,6,14,00,FE,FF,01,00,00,00
1756490193612731,00000213,false,Rx,0,4,08,00,00,00,00,00,00,00
1756490193612856,00000214,false,Rx,0,4,08,00,00,00,00,00,00,00
1756490193613376,00000188,false,Rx,0,6,B4,FF,12,00,D2,03,00,00
1756490193613551,00000288,false,Rx,0,6,00,00,00,00,00,00,00,00
1756490193613614,00000488,false,Rx,0,8,08,27,55,00,52,01,8A,00
1756490193615385,00000193,false,Rx,0,6,14,00,05,00,FE,FF,00,00
1756490193616111,00000181,false,Rx,0,8,68,10,00,E9,02,00,00,00
1756490193617265,00000194,false,Rx,0,6,14,00,FE,FF,03,00,00,00
1756490193622648,00000213,false,Rx,0,4,08,00,00,00,00,00,00,00
1756490193622920,00000214,false,Rx,0,4,08,00,00,00,00,00,00,00
1756490193623566,00000188,false,Rx,0,6,B6,FF,16,00,D6,03,00,00
1756490193623671,00000288,false,Rx,0,6,00,00,00,00,00,00,00,00
1756490193623771,00000488,false,Rx,0,8,08,27,55,00,52,01,8A,00
1756490193625218,00000193,false,Rx,0,6,14,00,06,00,01,00,00,00
1756490193627095,00000194,false,Rx,0,6,14,00,00,00,03,00,00,00
1756490193629296,00000181,false,Rx,0,8,04,10,00,E9,02,00,00,00
1756490193633663,00000213,false,Rx,0,4,08,00,00,00,00,00,00,00
1756490193633955,00000214,false,Rx,0,4,08,00,00,00,00,00,00,00
1756490193634080,00000188,false,Rx,0,6,C0,FF,10,00,FF,03,00,00
1756490193634142,00000288,false,Rx,0,6,00,00,00,00,00,00,00,00
1756490193634200,00000488,false,Rx,0,8,08,27,55,00,52,01,8A,00
1756490193635040,00000193,false,Rx,0,6,14,00,01,00,FE,FF,00,00
1756490193636901,00000394,false,Rx,0,6,5B,05,ED,01,16,01,00,00
1756490193637065,00000294,false,Rx,0,4,20,A2,D4,FF,00,00,00,00
1756490193637166,00000714,false,Rx,0,1,05,00,00,00,00,00,00,00
1756490193637283,00000734,false,Rx,0,8,03,00,00,00,00,A2,D4,05
1756490193637344,00000194,false,Rx,0,6,14,00,FE,FF,05,00,00,00
1756490193643615,00000213,false,Rx,0,4,08,00,00,00,00,00,00,00
1756490193643704,00000214,false,Rx,0,4,08,00,00,00,00,00,00,00
1756490193643958,00000188,false,Rx,0,6,BD,FF,13,00,E3,03,00,00
1756490193644060,00000288,false,Rx,0,6,00,00,00,00,00,00,00,00
1756490193644160,00000488,false,Rx,0,8,08,27,55,00,52,01,8A,00
1756490193644870,00000193,false,Rx,0,6,14,00,FC,FF,FC,FF,00,00
1756490193646749,00000194,false,Rx,0,6,14,00,FD,FF,04,00,00,00
1756490193653541,00000213,false,Rx,0,4,08,00,00,00,00,00,00,00
1756490193653635,00000214,false,Rx,0,4,08,00,00,00,00,00,00,00
1756490193654166,00000188,false,Rx,0,6,AE,FF,1B,00,CC,03,00,00
1756490193654350,00000288,false,Rx,0,6,00,00,00,00,00,00,00,00
1756490193654413,00000488,false,Rx,0,8,08,27,55,00,52,01,8A,00
1756490193654674,00000193,false,Rx,0,6,14,00,08,00,FC,FF,00,00
1756490193656584,00000194,false,Rx,0,6,14,00,FE,FF,03,00,00,00
1756490193656811,00000181,false,Rx,0,8,68,10,00,E9,02,00,00,00
1756490193664385,00000188,false,Rx,0,6,C2,FF,12,00,EA,03,00,00
1756490193664672,00000288,false,Rx,0,6,00,00,00,00,00,00,00,00
1756490193664895,00000193,false,Rx,0,6,14,00,0A,00,03,00,00,00
1756490193664961,00000213,false,Rx,0,4,08,00,00,00,00,00,00,00
1756490193665020,00000214,false,Rx,0,4,08,00,00,00,00,00,00,00
1756490193665463,00000488,false,Rx,0,8,08,27,55,00,53,01,8A,00
1756490193666417,00000194,false,Rx,0,6,14,00,FE,FF,03,00,00,00
1756490193674467,00000393,false,Rx,0,6,09,01,D5,01,07,01,00,00
1756490193674641,00000213,false,Rx,0,4,08,00,00,00,00,00,00,00
1756490193674813,00000214,false,Rx,0,4,08,00,00,00,00,00,00,00
1756490193674903,00000293,false,Rx,0,4,B1,A2,00,00,00,00,00,00
1756490193675019,00000733,false,Rx,0,8,09,00,00,00,00,A2,00,05
1756490193675080,00000004,false,Rx,0,8,00,01,00,00,00,00,00,00
1756490193675139,00000193,false,Rx,0,6,14,00,07,00,00,00,00,00
1756490193675197,00000710,false,Rx,0,1,7F,00,00,00,00,00,00,00
1756490193675469,00000188,false,Rx,0,6,B4,FF,16,00,CD,03,00,00
1756490193675570,00000288,false,Rx,0,6,00,00,00,00,00,00,00,00
1756490193675667,00000488,false,Rx,0,8,08,27,55,00,53,01,8A,00
1756490193676218,00000194,false,Rx,0,6,14,00,FE,FF,08,00,00,00
1756490193676661,00000181,false,Rx,0,8,04,10,00,E9,02,00,00,00
1756490193683553,00000701,false,Rx,0,1,05,00,00,00,00,00,00,00
1756490193684159,00000193,false,Rx,0,6,14,00,01,00,FF,FF,00,00
1756490193684369,00000213,false,Rx,0,4,08,00,00,00,00,00,00,00
1756490193684473,00000214,false,Rx,0,4,08,00,00,00,00,00,00,00
1756490193685673,00000188,false,Rx,0,6,BF,FF,13,00,F0,03,00,00
1756490193685781,00000288,false,Rx,0,6,00,00,00,00,00,00,00,00
1756490193685912,00000488,false,Rx,0,8,08,27,55,00,53,01,8A,00
1756490193686031,00000194,false,Rx,0,6,14,00,FE,FF,01,00,00,00
1756490193688905,00000181,false,Rx,0,8,68,10,00,E9,02,00,00,00
1756490193693992,00000193,false,Rx,0,6,14,00,FF,FF,FE,FF,00,00
1756490193694358,00000213,false,Rx,0,4,08,00,00,00,00,00,00,00
1756490193694455,00000214,false,Rx,0,4,08,00,00,00,00,00,00,00
1756490193695870,00000188,false,Rx,0,6,C7,FF,08,00,FE,03,00,00
1756490193695983,00000194,false,Rx,0,6,14,00,FF,FF,FD,FF,00,00
1756490193696083,00000288,false,Rx,0,6,00,00,00,00,00,00,00,00
1756490193696200,00000488,false,Rx,0,8,08,27,55,00,53,01,8A,00
1756490193703841,00000193,false,Rx,0,6,14,00,04,00,00,00,00,00
1756490193704375,00000213,false,Rx,0,4,08,00,00,00,00,00,00,00
1756490193704483,00000214,false,Rx,0,4,08,00,00,00,00,00,00,00
1756490193705703,00000194,false,Rx,0,6,14,00,FE,FF,FD,FF,00,00
1756490193706058,00000188,false,Rx,0,6,BC,FF,17,00,D8,03,00,00
1756490193706158,00000288,false,Rx,0,6,00,00,00,00,00,00,00,00
1756490193706255,00000488,false,Rx,0,8,08,27,55,00,53,01,8A,00
1756490193713668,00000193,false,Rx,0,6,14,00,02,00,03,00,00,00
1756490193715358,00000213,false,Rx,0,4,08,00,00,00,00,00,00,00
1756490193715464,00000214,false,Rx,0,4,08,00,00,00,00,00,00,00
1756490193715586,00000194,false,Rx,0,6,14,00,00,00,FD,FF,00,00
1756490193716268,00000188,false,Rx,0,6,BD,FF,15,00,D7,03,00,00
1756490193716372,00000288,false,Rx,0,6,00,00,00,00,00,00,00,00
1756490193716472,00000488,false,Rx,0,8,08,27,55,00,53,01,8A,00
1756490193716590,00000181,false,Rx,0,8,04,10,00,E9,02,00,00,00
1756490193723478,00000193,false,Rx,0,6,14,00,FF,FF,00,00,00,00
1756490193725283,00000213,false,Rx,0,4,08,00,00,00,00,00,00,00
1756490193725392,00000194,false,Rx,0,6,14,00,FE,FF,FD,FF,00,00
1756490193725510,00000214,false,Rx,0,4,08,00,00,00,00,00,00,00
1756490193726471,00000188,false,Rx,0,6,C8,FF,12,00,FD,03,00,00
1756490193726579,00000288,false,Rx,0,6,00,00,00,00,00,00,00,00
1756490193726677,00000488,false,Rx,0,8,08,27,55,00,53,01,8A,00
1756490193729721,00000181,false,Rx,0,8,68,10,00,E9,02,00,00,00
1756490193733301,00000193,false,Rx,0,6,14,00,0B,00,04,00,00,00
1756490193735173,00000394,false,Rx,0,6,5B,05,ED,01,16,01,00,00
1756490193735337,00000213,false,Rx,0,4,08,00,00,00,00,00,00,00
1756490193735445,00000214,false,Rx,0,4,08,00,00,00,00,00,00,00
1756490193735527,00000294,false,Rx,0,4,2D,A2,B3,FF,00,00,00,00
1756490193735627,00000714,false,Rx,0,1,05,00,00,00,00,00,00,00
1756490193735744,00000734,false,Rx,0,8,04,66,66,66,3F,A2,B3,05
1756490193735804,00000194,false,Rx,0,6,14,00,00,00,FE,FF,00,00
1756490193736667,00000188,false,Rx,0,6,BE,FF,0D,00,EE,03,00,00
1756490193736776,00000288,false,Rx,0,6,00,00,00,00,00,00,00,00
1756490193736875,00000488,false,Rx,0,8,08,27,55,00,52,01,8A,00
1756490193743169,00000193,false,Rx,0,6,14,00,09,00,06,00,00,00
1756490193745020,00000194,false,Rx,0,6,14,00,FE,FF,FE,FF,00,00
1756490193746205,00000213,false,Rx,0,4,08,00,00,00,00,00,00,00
1756490193746324,00000214,false,Rx,0,4,08,00,00,00,00,00,00,00
1756490193746865,00000188,false,Rx,0,6,B3,FF,1C,00,CB,03,00,00
1756490193746984,00000288,false,Rx,0,6,00,00,00,00,00,00,00,00
1756490193747676,00000488,false,Rx,0,8,08,27,55,00,52,01,8A,00
1756490193752988,00000193,false,Rx,0,6,14,00,FF,FF,08,00,00,00
1756490193754849,00000194,false,Rx,0,6,14,00,FF,FF,FC,FF,00,00
1756490193756116,00000181,false,Rx,0,8,04,10,00,E9,02,00,00,00
1756490193756225,00000213,false,Rx,0,4,08,00,00,00,00,00,00,00
1756490193756342,00000214,false,Rx,0,4,08,00,00,00,00,00,00,00
1756490193757728,00000188,false,Rx,0,6,C1,FF,15,00,F1,03,00,00
1756490193757838,00000288,false,Rx,0,6,00,00,00,00,00,00,00,00
1756490193757937,00000488,false,Rx,0,8,08,27,55,00,52,01,8A,00
1756490193762783,00000193,false,Rx,0,6,14,00,F8,FF,FB,FF,00,00
1756490193764666,00000194,false,Rx,0,6,14,00,FF,FF,FE,FF,00,00
1756490193765979,00000213,false,Rx,0,4,08,00,00,00,00,00,00,00
1756490193766082,00000214,false,Rx,0,4,08,00,00,00,00,00,00,00
1756490193768014,00000188,false,Rx,0,6,B0,FF,16,00,D1,03,00,00
1756490193768124,00000288,false,Rx,0,6,00,00,00,00,00,00,00,00
1756490193768234,00000488,false,Rx,0,8,08,27,55,00,52,01,8A,00
1756490193769376,00000181,false,Rx,0,8,68,10,00,E9,03,00,00,00
1756490193772591,00000393,false,Rx,0,6,09,01,D5,01,07,01,00,00
1756490193772696,00000293,false,Rx,0,4,AD,A2,00,00,00,00,00,00
1756490193772800,00000713,false,Rx,0,1,05,00,00,00,00,00,00,00
1756490193772907,00000733,false,Rx,0,8,01,9A,99,19,40,A2,00,05
1756490193773027,00000193,false,Rx,0,6,14,00,00,00,01,00,00,00
1756490193774931,00000194,false,Rx,0,6,14,00,FE,FF,FB,FF,00,00
1756490193775065,00000710,false,Rx,0,1,7F,00,00,00,00,00,00,00
1756490193775173,00000290,false,Rx,0,7,01,E8,00,00,00,00,00,00
1756490193775236,00000490,false,Rx,0,5,64,00,00,00,00,00,00,00
1756490193776108,00000213,false,Rx,0,4,08,00,00,00,00,00,00,00
1756490193776193,00000214,false,Rx,0,4,08,00,00,00,00,00,00,00
1756490193778382,00000188,false,Rx,0,6,BE,FF,15,00,E4,03,00,00
1756490193778544,00000288,false,Rx,0,6,00,00,00,00,00,00,00,00
1756490193778615,00000488,false,Rx,0,8,08,27,55,00,52,01,8A,00
1756490193782578,00000193,false,Rx,0,6,14,00,07,00,02,00,00,00
1756490193782694,00000181,false,Rx,0,8,04,10,00,E9,03,00,00,00
1756490193783789,00000701,false,Rx,0,1,05,00,00,00,00,00,00,00
1756490193784506,00000194,false,Rx,0,6,14,00,FF,FF,00,00,00,00
1756490193786911,00000213,false,Rx,0,4,08,00,00,00,00,00,00,00
1756490193787036,00000214,false,Rx,0,4,08,00,00,00,00,00,00,00
1756490193788283,00000188,false,Rx,0,6,C9,FF,0B,00,FC,03,00,00
1756490193788414,00000288,false,Rx,0,6,00,00,00,00,00,00,00,00
1756490193788658,00000488,false,Rx,0,8,08,27,55,00,52,01,8A,00
1756490193792290,00000193,false,Rx,0,6,14,00,07,00,00,00,00,00
1756490193794154,00000194,false,Rx,0,6,14,00,FF,FF,FF,FF,00,00
1756490193795743,00000181,false,Rx,0,8,68,10,00,E9,03,00,00,00
1756490193796788,00000213,false,Rx,0,4,08,00,00,00,00,00,00,00
1756490193796892,00000214,false,Rx,0,4,08,00,00,00,00,00,00,00
1756490193798485,00000188,false,Rx,0,6,B9,FF,17,00,D4,03,00,00
1756490193798679,00000288,false,Rx,0,6,00,00,00,00,00,00,00,00
1756490193798748,00000488,false,Rx,0,8,08,27,55,00,52,01,8A,00
1756490193802103,00000193,false,Rx,0,6,14,00,04,00,00,00,00,00
1756490193803975,00000194,false,Rx,0,6,14,00,FE,FF,00,00,00,00
1756490193806701,00000213,false,Rx,0,4,08,00,00,00,00,00,00,00
1756490193806812,00000214,false,Rx,0,4,08,00,00,00,00,00,00,00
1756490193808689,00000188,false,Rx,0,6,BB,FF,16,00,D5,03,00,00
1756490193808820,00000288,false,Rx,0,6,00,00,00,00,00,00,00,00
1756490193808938,00000488,false,Rx,0,8,08,27,55,00,52,01,8A,00
1756490193811926,00000193,false,Rx,0,6,14,00,04,00,FA,FF,00,00
1756490193813810,00000194,false,Rx,0,6,14,00,FF,FF,00,00,00,00
1756490193816609,00000213,false,Rx,0,4,08,00,00,00,00,00,00,00
1756490193816715,00000214,false,Rx,0,4,08,00,00,00,00,00,00,00
1756490193818886,00000188,false,Rx,0,6,C5,FF,0E,00,F7,03,00,00
1756490193819015,00000288,false,Rx,0,6,00,00,00,00,00,00,00,00
1756490193819133,00000488,false,Rx,0,8,08,27,55,00,52,01,8A,00
1756490193821751,00000193,false,Rx,0,6,14,00,FF,FF,FF,FF,00,00
1756490193823626,00000194,false,Rx,0,6,14,00,00,00,FF,FF,00,00
1756490193827708,00000213,false,Rx,0,4,08,00,00,00,00,00,00,00
1756490193827816,00000214,false,Rx,0,4,08,00,00,00,00,00,00,00
1756490193829076,00000188,false,Rx,0,6,C2,FF,0D,00,F7,03,00,00
1756490193829201,00000288,false,Rx,0,6,00,00,00,00,00,00,00,00
1756490193829316,00000488,false,Rx,0,8,08,27,55,00,52,01,8A,00
1756490193831588,00000193,false,Rx,0,6,14,00,F5,FF,FE,FF,00,00
1756490193833435,00000394,false,Rx,0,6,5F,05,ED,01,02,01,00,00
1756490193833552,00000294,false,Rx,0,4,2F,A2,E0,FF,00,00,00,00
1756490193833702,00000714,false,Rx,0,1,05,00,00,00,00,00,00,00
1756490193833826,00000734,false,Rx,0,8,05,00,00,20,3F,A2,E0,05
1756490193833887,00000194,false,Rx,0,6,14,00,00,00,FF,FF,00,00
1756490193836572,00000181,false,Rx,0,8,04,10,00,E9,03,00,00,00
1756490193837613,00000213,false,Rx,0,4,08,00,00,00,00,00,00,00
1756490193837717,00000214,false,Rx,0,4,08,00,00,00,00,00,00,00
1756490193839285,00000188,false,Rx,0,6,AF,FF,15,00,D2,03,00,00
1756490193839419,00000288,false,Rx,0,6,00,00,00,00,00,00,00,00
1756490193839563,00000488,false,Rx,0,8,08,27,55,00,52,01,8A,00
1756490193841411,00000193,false,Rx,0,6,14,00,EF,FF,F8,FF,00,00
1756490193843284,00000194,false,Rx,0,6,14,00,00,00,FF,FF,00,00
1756490193847519,00000213,false,Rx,0,4,08,00,00,00,00,00,00,00
1756490193847633,00000214,false,Rx,0,4,08,00,00,00,00,00,00,00
1756490193849448,00000188,false,Rx,0,6,BF,FF,12,00,EC,03,00,00
1756490193849777,00000181,false,Rx,0,8,68,10,00,E9,03,00,00,00
1756490193850753,00000288,false,Rx,0,6,00,00,00,00,00,00,00,00
1756490193850878,00000488,false,Rx,0,8,08,27,55,00,52,01,8A,00
1756490193851223,00000193,false,Rx,0,6,14,00,07,00,FC,FF,00,00
1756490193853107,00000194,false,Rx,0,6,14,00,00,00,FF,FF,00,00
1756490193857421,00000213,false,Rx,0,4,08,00,00,00,00,00,00,00
1756490193857544,00000214,false,Rx,0,4,08,00,00,00,00,00,00,00
1756490193860787,00000188,false,Rx,0,6,B3,FF,1A,00,CE,03,00,00
1756490193860913,00000288,false,Rx,0,6,00,00,00,00,00,00,00,00
1756490193861011,00000488,false,Rx,0,8,08,27,55,00,53,01,8A,00
1756490193861109,00000193,false,Rx,0,6,14,00,08,00,06,00,00,00
1756490193862938,00000194,false,Rx,0,6,14,00,FF,FF,FF,FF,00,00
1756490193863063,00000181,false,Rx,0,8,68,10,06,E9,03,00,00,00
1756490193868439,00000213,false,Rx,0,4,08,00,FD,FF,00,00,00,00
1756490193868556,00000214,false,Rx,0,4,08,00,03,00,00,00,00,00
1756490193870866,00000393,false,Rx,0,6,09,01,D5,01,07,01,00,00
1756490193870973,00000188,false,Rx,0,6,C1,FF,0E,00,E9,03,00,00
1756490193871073,00000293,false,Rx,0,4,A6,A2,00,00,00,00,00,00
1756490193871171,00000288,false,Rx,0,6,00,00,00,00,00,00,00,00
1756490193871273,00000488,false,Rx,0,8,08,27,55,00,53,01,8A,00
1756490193871371,00000713,false,Rx,0,1,05,00,00,00,00,00,00,00
1756490193871465,00000733,false,Rx,0,8,02,00,00,C0,3F,A2,00,05
1756490193871564,00000193,false,Rx,0,6,14,00,FC,FF,00,00,00,00
1756490193872761,00000194,false,Rx,0,6,14,00,01,00,00,00,00,00
1756490193875001,00000710,false,Rx,0,1,7F,00,00,00,00,00,00,00
1756490193876280,00000181,false,Rx,0,8,04,10,06,E9,03,00,00,00
1756490193878581,00000213,false,Rx,0,4,08,00,F9,FF,00,00,00,00
1756490193878669,00000214,false,Rx,0,4,08,00,07,00,00,00,00,00
1756490193881402,00000193,false,Rx,0,6,14,00,EE,FF,00,00,00,00
1756490193881657,00000188,false,Rx,0,6,C3,FF,12,00,02,04,00,00
1756490193881755,00000288,false,Rx,0,6,00,00,00,00,00,00,00,00
1756490193881844,00000488,false,Rx,0,8,08,27,55,00,53,01,8A,00
1756490193882760,00000194,false,Rx,0,6,14,00,03,00,00,00,00,00
1756490193884299,00000701,false,Rx,0,1,05,00,00,00,00,00,00,00
1756490193888733,00000181,false,Rx,0,8,68,10,06,E9,03,00,00,00
1756490193888865,00000213,false,Rx,0,4,08,00,F5,FF,00,00,00,00
1756490193888947,00000214,false,Rx,0,4,08,00,0B,00,00,00,00,00
1756490193890730,00000193,false,Rx,0,6,14,00,F2,FF,FD,FF,00,00
1756490193891505,00000188,false,Rx,0,6,B7,FF,0F,00,D6,03,00,00
1756490193891644,00000288,false,Rx,0,6,00,00,00,00,00,00,00,00
1756490193891722,00000488,false,Rx,0,8,08,27,55,00,53,01,8A,00
1756490193892514,00000194,false,Rx,0,6,14,00,06,00,05,00,00,00
1756490193898533,00000213,false,Rx,0,4,08,00,F2,FF,00,00,00,00
1756490193898655,00000214,false,Rx,0,4,08,00,0E,00,00,00,00,00
1756490193900352,00000193,false,Rx,0,6,14,00,F2,FF,FE,FF,00,00
1756490193901549,00000188,false,Rx,0,6,B5,FF,1A,00,DD,03,00,00
1756490193901667,00000181,false,Rx,0,8,04,10,06,E9,03,00,00,00
1756490193901781,00000288,false,Rx,0,6,00,00,00,00,00,00,00,00
1756490193901897,00000488,false,Rx,0,8,08,27,55,00,53,01,8A,00
1756490193902219,00000194,false,Rx,0,6,14,00,08,00,04,00,00,00
1756490193909332,00000213,false,Rx,0,4,08,00,EE,FF,00,00,00,00
1756490193909424,00000214,false,Rx,0,4,08,00,12,00,00,00,00,00
1756490193910141,00000193,false,Rx,0,6,14,00,EB,FF,FF,FF,00,00
1756490193911724,00000188,false,Rx,0,6,C5,FF,0C,00,FF,03,00,00
1756490193911837,00000288,false,Rx,0,6,00,00,00,00,00,00,00,00
1756490193911953,00000488,false,Rx,0,8,08,27,55,00,53,01,8A,00
1756490193912069,00000194,false,Rx,0,6,14,00,0B,00,03,00,00,00
1756490193914866,00000181,false,Rx,0,8,68,10,07,E9,03,00,00,00
1756490193919236,00000213,false,Rx,0,4,08,00,EA,FF,00,00,00,00
1756490193919324,00000214,false,Rx,0,4,08,00,16,00,00,00,00,00
1756490193919980,00000193,false,Rx,0,6,14,00,F0,FF,FC,FF,00,00
1756490193921859,00000194,false,Rx,0,6,14,00,10,00,07,00,00,00
1756490193921958,00000188,false,Rx,0,6,BE,FF,11,00,EB,03,00,00
1756490193922875,00000288,false,Rx,0,6,00,00,00,00,00,00,00,00
1756490193922968,00000188,false,Rx,0,6,C6,FF,14,00,EF,03,00,00
1756490193923067,00000488,false,Rx,0,8,08,27,55,00,53,01,8A,00
1756490193923193,00000288,false,Rx,0,6,00,00,00,00,00,00,00,00
1756490193923313,00000488,false,Rx,0,8,08,27,55,00,53,01,8A,00
1756490193928071,00000181,false,Rx,0,8,04,10,07,E9,03,00,00,00
1756490193929118,00000213,false,Rx,0,4,08,00,E6,FF,00,00,00,00
1756490193929222,00000214,false,Rx,0,4,08,00,1A,00,00,00,00,00
1756490193929808,00000193,false,Rx,0,6,14,00,F3,FF,FF,FF,00,00
1756490193931683,00000394,false,Rx,0,6,5F,05,ED,01,16,01,00,00
1756490193931786,00000294,false,Rx,0,4,26,A2,BC,FF,00,00,00,00
1756490193931882,00000714,false,Rx,0,1,05,00,00,00,00,00,00,00
1756490193931980,00000734,false,Rx,0,8,06,00,00,00,00,A2,BC,05
1756490193932078,00000194,false,Rx,0,6,14,00,14,00,07,00,00,00
1756490193933106,00000188,false,Rx,0,6,C6,FF,14,00,EF,03,00,00
1756490193933351,00000288,false,Rx,0,6,00,00,00,00,00,00,00,00
1756490193933467,00000488,false,Rx,0,8,08,27,55,00,53,01,8A,00
1756490193939040,00000213,false,Rx,0,4,08,00,E3,FF,00,00,00,00
1756490193939132,00000214,false,Rx,0,4,08,00,1D,00,00,00,00,00
1756490193939617,00000193,false,Rx,0,6,14,00,F2,FF,02,00,00,00
1756490193941542,00000194,false,Rx,0,6,14,00,17,00,06,00,00,00
1756490193943318,00000188,false,Rx,0,6,BF,FF,11,00,EF,03,00,00
1756490193943572,00000288,false,Rx,0,6,00,00,00,00,00,00,00,00
1756490193943684,00000488,false,Rx,0,8,08,27,55,00,53,01,8A,00
1756490193946780,00000181,false,Rx,0,8,04,10,08,E9,03,00,00,00
1756490193949462,00000193,false,Rx,0,6,14,00,E0,FF,FE,FF,00,00
1756490193950052,00000213,false,Rx,0,4,08,00,DF,FF,00,00,00,00
1756490193950147,00000214,false,Rx,0,4,08,00,21,00,00,00,00,00
1756490193951340,00000194,false,Rx,0,6,14,00,08,00,05,00,00,00
1756490193953518,00000188,false,Rx,0,6,B4,FF,16,00,D1,03,00,00
1756490193953751,00000288,false,Rx,0,6,00,00,00,00,00,00,00,00
1756490193953866,00000488,false,Rx,0,8,08,27,55,00,53,01,8A,00
1756490193959300,00000193,false,Rx,0,6,14,00,DC,FF,FB,FF,00,00
1756490193959999,00000181,false,Rx,0,8,04,10,07,E9,03,00,00,00
1756490193960092,00000213,false,Rx,0,4,08,00,DB,FF,00,00,00,00
1756490193960189,00000214,false,Rx,0,4,08,00,25,00,00,00,00,00
1756490193961164,00000194,false,Rx,0,6,14,00,0A,00,04,00,00,00
1756490193963720,00000188,false,Rx,0,6,C4,FF,12,00,F3,03,00,00
1756490193963952,00000288,false,Rx,0,6,00,00,00,00,00,00,00,00
1756490193964067,00000488,false,Rx,0,8,08,27,55,00,53,01,8A,00
1756490193969121,00000393,false,Rx,0,6,09,01,D5,01,0F,01,00,00
1756490193969223,00000293,false,Rx,0,4,AB,A2,00,00,00,00,00,00
1756490193969320,00000713,false,Rx,0,1,05,00,00,00,00,00,00,00
1756490193969417,00000733,false,Rx,0,8,03,6F,12,03,3B,A2,00,05
1756490193969520,00000193,false,Rx,0,6,14,00,E4,FF,FC,FF,00,00
1756490193969895,00000213,false,Rx,0,4,08,00,D7,FF,00,00,00,00
1756490193969992,00000214,false,Rx,0,4,08,00,29,00,00,00,00,00
1756490193970995,00000194,false,Rx,0,6,14,00,0B,00,02,00,00,00
1756490193973282,00000181,false,Rx,0,8,04,10,08,E9,03,00,00,00
1756490193973909,00000188,false,Rx,0,6,C4,FF,0C,00,FD,03,00,00
1756490193974156,00000288,false,Rx,0,6,00,00,00,00,00,00,00,00
1756490193974274,00000488,false,Rx,0,8,08,27,55,00,52,01,8A,00
1756490193978947,00000193,false,Rx,0,6,14,00,E1,FF,FD,FF,00,00
1756490193979869,00000213,false,Rx,0,4,08,00,D3,FF,00,00,00,00
1756490193979965,00000214,false,Rx,0,4,08,00,2D,00,00,00,00,00
1756490193980808,00000194,false,Rx,0,6,14,00,0C,00,07,00,00,00
1756490193980930,00000290,false,Rx,0,7,01,E8,00,00,00,00,00,00
1756490193981038,00000490,false,Rx,0,5,64,00,00,00,00,00,00,00
1756490193981138,00000710,false,Rx,0,1,7F,00,00,00,00,00,00,00
1756490193984107,00000188,false,Rx,0,6,B5,FF,12,00,E0,03,00,00
1756490193984280,00000701,false,Rx,0,1,05,00,00,00,00,00,00,00
1756490193984398,00000288,false,Rx,0,6,00,00,00,00,00,00,00,00
1756490193984521,00000488,false,Rx,0,8,08,27,55,00,52,01,8A,00
1756490193985563,00000181,false,Rx,0,8,04,10,09,E9,04,00,00,00
1756490193988802,00000193,false,Rx,0,6,14,00,D5,FF,01,00,00,00
1756490193990665,00000194,false,Rx,0,6,14,00,20,00,FF,FF,00,00
1756490193990876,00000213,false,Rx,0,4,08,00,D0,FF,00,00,00,00
1756490193990968,00000214,false,Rx,0,4,08,00,30,00,00,00,00,00
1756490193994324,00000188,false,Rx,0,6,B8,FF,14,00,D5,03,00,00
1756490193995560,00000288,false,Rx,0,6,00,00,00,00,00,00,00,00
1756490193995673,00000488,false,Rx,0,8,08,27,55,00,52,01,8A,00
1756490193998667,00000181,false,Rx,0,8,68,10,09,E9,04,00,00,00
1756490193998771,00000193,false,Rx,0,6,14,00,D4,FF,FA,FF,00,00
1756490194000487,00000194,false,Rx,0,6,14,00,22,00,FF,FF,00,00
1756490194000769,00000213,false,Rx,0,4,08,00,CC,FF,00,00,00,00
1756490194000866,00000214,false,Rx,0,4,08,00,34,00,00,00,00,00
1756490194005567,00000188,false,Rx,0,6,B3,FF,14,00,DC,03,00,00
1756490194005659,00000288,false,Rx,0,6,00,00,00,00,00,00,00,00
1756490194005753,00000488,false,Rx,0,8,08,27,55,00,52,01,8A,00
1756490194008424,00000193,false,Rx,0,6,14,00,DE,FF,FB,FF,00,00
1756490194010309,00000194,false,Rx,0,6,14,00,24,00,00,00,00,00
1756490194010674,00000213,false,Rx,0,4,08,00,C8,FF,00,00,00,00
1756490194010769,00000214,false,Rx,0,4,08,00,38,00,00,00,00,00
1756490194011798,00000181,false,Rx,0,8,04,10,09,E9,04,00,00,00
1756490194015835,00000188,false,Rx,0,6,AE,FF,16,00,D4,03,00,00
1756490194015946,00000288,false,Rx,0,6,00,00,00,00,00,00,00,00
1756490194016043,00000488,false,Rx,0,8,08,27,55,00,53,01,8A,00
1756490194018248,00000193,false,Rx,0,6,14,00,D1,FF,FE,FF,00,00
1756490194020128,00000194,false,Rx,0,6,14,00,25,00,03,00,00,00
1756490194021669,00000213,false,Rx,0,4,08,00,C4,FF,00,00,00,00
1756490194021760,00000214,false,Rx,0,4,08,00,3C,00,00,00,00,00
1756490194025007,00000181,false,Rx,0,8,04,10,0A,E9,04,00,00,00
1756490194026034,00000188,false,Rx,0,6,BD,FF,11,00,F3,03,00,00
1756490194026152,00000288,false,Rx,0,6,00,00,00,00,00,00,00,00
1756490194026259,00000488,false,Rx,0,8,08,27,55,00,53,01,8A,00
1756490194028079,00000193,false,Rx,0,6,14,00,C8,FF,F9,FF,00,00
1756490194029958,00000394,false,Rx,0,6,5F,05,ED,01,1F,01,00,00
1756490194030050,00000294,false,Rx,0,4,2C,A2,10,00,00,00,00,00
1756490194030150,00000714,false,Rx,0,1,05,00,00,00,00,00,00,00
1756490194030247,00000734,false,Rx,0,8,07,00,00,80,3F,A2,10,05
1756490194030344,00000194,false,Rx,0,6,14,00,25,00,03,00,00,00
1756490194031569,00000213,false,Rx,0,4,08,00,C1,FF,00,00,00,00
1756490194031664,00000214,false,Rx,0,4,08,00,3F,00,00,00,00,00
1756490194036254,00000188,false,Rx,0,6,BC,FF,0D,00,F9,03,00,00
1756490194036345,00000288,false,Rx,0,6,00,00,00,00,00,00,00,00
1756490194036441,00000488,false,Rx,0,8,08,27,55,00,53,01,8A,00
1756490194037908,00000193,false,Rx,0,6,14,00,D1,FF,F7,FF,00,00
1756490194039788,00000194,false,Rx,0,6,14,00,24,00,06,00,00,00
1756490194041524,00000213,false,Rx,0,4,08,00,BD,FF,00,00,00,00
1756490194041608,00000214,false,Rx,0,4,08,00,43,00,00,00,00,00
1756490194046452,00000188,false,Rx,0,6,B0,FF,0D,00,D6,03,00,00
1756490194046543,00000288,false,Rx,0,6,00,00,00,00,00,00,00,00
1756490194046638,00000488,false,Rx,0,8,08,27,55,00,53,01,8A,00
1756490194047734,00000193,false,Rx,0,6,14,00,CD,FF,F3,FF,00,00
1756490194049623,00000194,false,Rx,0,6,14,00,21,00,07,00,00,00
1756490194051376,00000213,false,Rx,0,4,08,00,B9,FF,00,00,00,00
1756490194051470,00000214,false,Rx,0,4,08,00,47,00,00,00,00,00
1756490194056650,00000188,false,Rx,0,6,B4,FF,0F,00,E9,03,00,00
1756490194056745,00000288,false,Rx,0,6,00,00,00,00,00,00,00,00
1756490194056849,00000488,false,Rx,0,8,08,27,55,00,53,01,8A,00
1756490194056971,00000181,false,Rx,0,8,68,10,0B,E9,04,00,00,00
1756490194057553,00000193,false,Rx,0,6,14,00,CD,FF,EE,FF,00,00
1756490194059444,00000194,false,Rx,0,6,14,00,1E,00,0C,00,00,00
1756490194062388,00000213,false,Rx,0,4,08,00,B5,FF,00,00,00,00
1756490194062482,00000214,false,Rx,0,4,08,00,4B,00,00,00,00,00
1756490194066834,00000188,false,Rx,0,6,B8,FF,FF,FF,FD,03,00,00
1756490194066947,00000288,false,Rx,0,6,00,00,00,00,00,00,00,00
1756490194067044,00000488,false,Rx,0,8,08,27,55,00,53,01,8A,00
1756490194067371,00000393,false,Rx,0,6,0A,01,D5,01,07,01,00,00
1756490194067477,00000293,false,Rx,0,4,A5,A2,00,00,00,00,00,00
1756490194067584,00000713,false,Rx,0,1,05,00,00,00,00,00,00,00
1756490194067685,00000733,false,Rx,0,8,04,8F,C2,F5,3F,A2,00,05
1756490194067783,00000193,false,Rx,0,6,14,00,CA,FF,E5,FF,00,00
1756490194069132,00000181,false,Rx,0,8,04,10,0B,E9,04,00,00,00
1756490194069247,00000194,false,Rx,0,6,14,00,19,00,13,00,00,00
1756490194072387,00000213,false,Rx,0,4,08,00,B2,FF,00,00,00,00
1756490194072479,00000214,false,Rx,0,4,08,00,4E,00,00,00,00,00
1756490194077219,00000193,false,Rx,0,6,14,00,CD,FF,DB,FF,00,00
1756490194077707,00000188,false,Rx,0,6,AF,FF,13,00,DC,03,00,00
1756490194077824,00000288,false,Rx,0,6,00,00,00,00,00,00,00,00
1756490194077947,00000488,false,Rx,0,8,08,27,55,00,53,01,8A,00
1756490194079093,00000194,false,Rx,0,6,14,00,10,00,14,00,00,00
1756490194082335,00000181,false,Rx,0,8,04,10,0B,E9,04,00,00,00
1756490194082426,00000213,false,Rx,0,4,08,00,AE,FF,00,00,00,00
1756490194082525,00000214,false,Rx,0,4,08,00,52,00,00,00,00,00
1756490194084487,00000701,false,Rx,0,1,05,00,00,00,00,00,00,00
1756490194087038,00000193,false,Rx,0,6,14,00,DC,FF,D5,FF,00,00
1756490194087832,00000188,false,Rx,0,6,C2,FF,0D,00,FA,03,00,00
1756490194087946,00000288,false,Rx,0,6,00,00,00,00,00,00,00,00
1756490194088045,00000488,false,Rx,0,8,08,27,55,00,53,01,8A,00
1756490194088387,00000710,false,Rx,0,1,7F,00,00,00,00,00,00,00
1756490194088918,00000194,false,Rx,0,6,14,00,07,00,18,00,00,00
1756490194092194,00000213,false,Rx,0,4,08,00,AA,FF,00,00,00,00
1756490194092288,00000214,false,Rx,0,4,08,00,56,00,00,00,00,00
1756490194095535,00000181,false,Rx,0,8,04,10,0C,E9,04,00,00,00
1756490194096870,00000193,false,Rx,0,6,14,00,CD,FF,C3,FF,00,00
1756490194098056,00000188,false,Rx,0,6,BE,FF,11,00,D8,03,00,00
1756490194098170,00000288,false,Rx,0,6,00,00,00,00,00,00,00,00
1756490194098268,00000488,false,Rx,0,8,08,27,55,00,53,01,8A,00
1756490194098734,00000194,false,Rx,0,6,14,00,06,00,19,00,00,00
1756490194103208,00000213,false,Rx,0,4,08,00,A6,FF,00,00,00,00
1756490194103299,00000214,false,Rx,0,4,08,00,5A,00,00,00,00,00
1756490194106697,00000193,false,Rx,0,6,14,00,EB,FF,B4,FF,00,00
1756490194108209,00000188,false,Rx,0,6,B5,FF,16,00,CF,03,00,00
1756490194108352,00000288,false,Rx,0,6,00,00,00,00,00,00,00,00
1756490194108478,00000488,false,Rx,0,8,08,27,55,00,53,01,8A,00
1756490194108600,00000194,false,Rx,0,6,14,00,05,00,12,00,00,00
1756490194113110,00000213,false,Rx,0,4,08,00,A3,FF,00,00,00,00
1756490194113212,00000214,false,Rx,0,4,08,00,5D,00,00,00,00,00
1756490194116444,00000181,false,Rx,0,8,04,10,0C,E9,04,00,00,00
1756490194116536,00000193,false,Rx,0,6,14,00,E2,FF,A4,FF,00,00
1756490194118399,00000194,false,Rx,0,6,14,00,09,00,0A,00,00,00
1756490194118493,00000188,false,Rx,0,6,C2,FF,0A,00,ED,03,00,00
1756490194118590,00000288,false,Rx,0,6,00,00,00,00,00,00,00,00
1756490194118706,00000488,false,Rx,0,8,08,27,55,00,53,01,8A,00
1756490194123009,00000213,false,Rx,0,4,08,00,9F,FF,00,00,00,00
1756490194123101,00000214,false,Rx,0,4,08,00,61,00,00,00,00,00
1756490194126346,00000193,false,Rx,0,6,14,00,D9,FF,94,FF,00,00
1756490194128221,00000394,false,Rx,0,6,62,05,ED,01,02,01,00,00
1756490194128322,00000294,false,Rx,0,4,2F,A2,E8,FF,00,00,00,00
1756490194128427,00000714,false,Rx,0,1,05,00,00,00,00,00,00,00
1756490194128532,00000734,false,Rx,0,8,08,00,00,80,3F,A2,E8,05
1756490194128628,00000194,false,Rx,0,6,14,00,06,00,08,00,00,00
1756490194128726,00000188,false,Rx,0,6,BE,FF,17,00,F5,03,00,00
1756490194128824,00000288,false,Rx,0,6,00,00,00,00,00,00,00,00
1756490194128922,00000488,false,Rx,0,8,08,27,55,00,53,01,8A,00
1756490194133014,00000213,false,Rx,0,4,08,00,9B,FF,00,00,00,00
1756490194133122,00000214,false,Rx,0,4,08,00,65,00,00,00,00,00
1756490194136178,00000193,false,Rx,0,6,14,00,F3,FF,7F,FF,00,00
1756490194136354,00000181,false,Rx,0,8,04,10,0D,E9,04,00,00,00
1756490194138054,00000194,false,Rx,0,6,14,00,04,00,05,00,00,00
1756490194138810,00000188,false,Rx,0,6,B2,FF,14,00,DD,03,00,00
1756490194138957,00000288,false,Rx,0,6,00,00,00,00,00,00,00,00
1756490194139079,00000488,false,Rx,0,8,08,27,55,00,53,01,8A,00
1756490194144049,00000213,false,Rx,0,4,08,00,97,FF,00,00,00,00
1756490194144124,00000214,false,Rx,0,4,08,00,69,00,00,00,00,00
1756490194146002,00000193,false,Rx,0,6,14,00,D8,FF,64,FF,00,00
1756490194147883,00000194,false,Rx,0,6,14,00,08,00,07,00,00,00
1756490194149015,00000188,false,Rx,0,6,B6,FF,15,00,E0,03,00,00
1756490194149152,00000288,false,Rx,0,6,00,00,00,00,00,00,00,00
1756490194149267,00000488,false,Rx,0,8,08,27,55,00,53,01,8A,00
1756490194149628,00000181,false,Rx,0,8,04,10,0C,E9,04,00,00,00
1756490194153957,00000213,false,Rx,0,4,08,00,94,FF,00,00,00,00
1756490194154040,00000214,false,Rx,0,4,08,00,6C,00,00,00,00,00
1756490194155829,00000193,false,Rx,0,6,14,00,EE,FF,49,FF,00,00
1756490194157710,00000194,false,Rx,0,6,14,00,06,00,03,00,00,00
1756490194159213,00000188,false,Rx,0,6,BC,FF,04,00,02,04,00,00
1756490194159350,00000288,false,Rx,0,6,00,00,00,00,00,00,00,00
1756490194159467,00000488,false,Rx,0,8,08,27,55,00,53,01,8A,00
1756490194162765,00000181,false,Rx,0,8,68,10,0D,E9,04,00,00,00
1756490194163827,00000213,false,Rx,0,4,08,00,90,FF,00,00,00,00
1756490194163923,00000214,false,Rx,0,4,08,00,70,00,00,00,00,00
1756490194165655,00000393,false,Rx,0,6,0A,01,D5,01,07,01,00,00
1756490194165748,00000293,false,Rx,0,4,A9,A2,00,00,00,00,00,00
1756490194165845,00000713,false,Rx,0,1,05,00,00,00,00,00,00,00
1756490194165949,00000733,false,Rx,0,8,05,00,00,C0,3F,A2,00,05
1756490194166054,00000193,false,Rx,0,6,14,00,D2,FF,3D,FF,00,00
1756490194167538,00000194,false,Rx,0,6,14,00,08,00,02,00,00,00
1756490194169405,00000188,false,Rx,0,6,B8,FF,08,00,EF,03,00,00
1756490194170777,00000288,false,Rx,0,6,00,00,00,00,00,00,00,00
1756490194170905,00000488,false,Rx,0,8,08,27,55,00,53,01,8A,00
1756490194173744,00000213,false,Rx,0,4,08,00,8C,FF,00,00,00,00
1756490194173836,00000214,false,Rx,0,4,08,00,74,00,00,00,00,00
1756490194175497,00000193,false,Rx,0,6,14,00,E0,FF,30,FF,00,00
1756490194175988,00000181,false,Rx,0,8,68,10,0D,E9,04,00,00,00
1756490194177363,00000194,false,Rx,0,6,14,00,09,00,02,00,00,00
1756490194180780,00000188,false,Rx,0,6,BC,FF,1E,00,FA,03,00,00
1756490194180894,00000288,false,Rx,0,6,00,00,00,00,00,00,00,00
1756490194180991,00000488,false,Rx,0,8,08,27,55,00,53,01,8A,00
1756490194181088,00000290,false,Rx,0,7,01,E8,00,00,00,00,00,00
1756490194181204,00000490,false,Rx,0,5,64,00,00,00,00,00,00,00
1756490194184720,00000701,false,Rx,0,1,05,00,00,00,00,00,00,00
1756490194184826,00000213,false,Rx,0,4,08,00,88,FF,00,00,00,00
1756490194184931,00000214,false,Rx,0,4,08,00,78,00,00,00,00,00
1756490194185310,00000193,false,Rx,0,6,14,00,D8,FF,25,FF,00,00
1756490194187188,00000194,false,Rx,0,6,14,00,08,00,01,00,00,00
1756490194189269,00000181,false,Rx,0,8,04,10,0D,E9,04,00,00,00
1756490194190852,00000188,false,Rx,0,6,B5,FF,15,00,E3,03,00,00
1756490194191060,00000288,false,Rx,0,6,00,00,00,00,00,00,00,00
1756490194191173,00000488,false,Rx,0,8,08,27,55,00,53,01,8A,00
1756490194194740,00000213,false,Rx,0,4,08,00,85,FF,00,00,00,00
1756490194194832,00000214,false,Rx,0,4,08,00,7B,00,00,00,00,00
1756490194195123,00000193,false,Rx,0,6,14,00,E5,FF,0B,FF,00,00
1756490194196581,00000710,false,Rx,0,1,7F,00,00,00,00,00,00,00
1756490194197014,00000194,false,Rx,0,6,14,00,0B,00,03,00,00,00
1756490194201017,00000188,false,Rx,0,6,B5,FF,1B,00,DA,03,00,00
1756490194201251,00000288,false,Rx,0,6,00,00,00,00,00,00,00,00
1756490194201376,00000488,false,Rx,0,8,08,27,55,00,53,01,8A,00
1756490194204646,00000213,false,Rx,0,4,08,00,81,FF,00,00,00,00
1756490194204736,00000214,false,Rx,0,4,08,00,7F,00,00,00,00,00
1756490194204961,00000193,false,Rx,0,6,14,00,E8,FF,F3,FE,00,00
1756490194206854,00000194,false,Rx,0,6,14,00,09,00,01,00,00,00
1756490194206964,00000181,false,Rx,0,8,68,10,0D,E9,04,00,00,00
1756490194211237,00000188,false,Rx,0,6,C6,FF,16,00,09,04,00,00
1756490194211452,00000288,false,Rx,0,6,00,00,00,00,00,00,00,00
1756490194211567,00000488,false,Rx,0,8,08,27,55,00,53,01,8A,00
1756490194214818,00000193,false,Rx,0,6,14,00,D1,FF,E8,FE,00,00
1756490194215675,00000213,false,Rx,0,4,08,00,7E,FF,00,00,00,00
1756490194215768,00000214,false,Rx,0,4,08,00,82,00,00,00,00,00
1756490194216660,00000194,false,Rx,0,6,14,00,02,00,03,00,00,00
1756490194220091,00000181,false,Rx,0,8,04,10,0D,E9,04,00,00,00
1756490194221418,00000188,false,Rx,0,6,C6,FF,07,00,F9,03,00,00
1756490194221666,00000288,false,Rx,0,6,00,00,00,00,00,00,00,00
1756490194221776,00000488,false,Rx,0,8,08,27,55,00,53,01,8A,00
1756490194224620,00000193,false,Rx,0,6,14,00,EC,FF,E1,FE,00,00
1756490194225576,00000213,false,Rx,0,4,08,00,7E,FF,00,00,00,00
1756490194225670,00000214,false,Rx,0,4,08,00,82,00,00,00,00,00
1756490194226490,00000394,false,Rx,0,6,62,05,ED,01,16,01,00,00
1756490194226584,00000294,false,Rx,0,4,33,A2,2C,00,00,00,00,00
1756490194226682,00000714,false,Rx,0,1,05,00,00,00,00,00,00,00
1756490194226779,00000734,false,Rx,0,8,09,00,00,00,00,A2,2C,05
1756490194226875,00000194,false,Rx,0,6,14,00,01,00,00,00,00,00
1756490194231619,00000188,false,Rx,0,6,A4,FF,07,00,9F,03,00,00
1756490194231849,00000288,false,Rx,0,6,00,00,00,00,00,00,00,00
1756490194231974,00000488,false,Rx,0,8,08,27,55,00,53,01,8A,00
1756490194232245,00000181,false,Rx,0,8,04,10,0D,E9,04,00,00,00
1756490194234448,00000193,false,Rx,0,6,14,00,DF,FF,C6,FE,00,00
1756490194235515,00000213,false,Rx,0,4,08,00,7E,FF,00,00,00,00
1756490194235592,00000214,false,Rx,0,4,08,00,82,00,00,00,00,00
1756490194236336,00000194,false,Rx,0,6,14,00,09,00,03,00,00,00
1756490194241856,00000188,false,Rx,0,6,BB,FF,0C,00,01,04,00,00
1756490194242052,00000288,false,Rx,0,6,00,00,00,00,00,00,00,00
1756490194242168,00000488,false,Rx,0,8,08,27,55,00,53,01,8A,00
1756490194244277,00000193,false,Rx,0,6,14,00,E1,FF,B2,FE,00,00
1756490194245434,00000181,false,Rx,0,8,04,10,0D,E9,04,00,00,00
1756490194245530,00000213,false,Rx,0,4,08,00,7E,FF,00,00,00,00
1756490194246141,00000194,false,Rx,0,6,14,00,0F,00,01,00,00,00
1756490194246485,00000214,false,Rx,0,4,08,00,82,00,00,00,00,00
1756490194252031,00000188,false,Rx,0,6,DB,FF,11,00,0D,04,00,00
1756490194252813,00000288,false,Rx,0,6,00,00,00,00,00,00,00,00
1756490194252927,00000488,false,Rx,0,8,08,27,55,00,53,01,8A,00
1756490194254099,00000193,false,Rx,0,6,14,00,E4,FF,A7,FE,00,00
1756490194255978,00000194,false,Rx,0,6,14,00,0F,00,02,00,00,00
1756490194256366,00000213,false,Rx,0,4,08,00,7E,FF,00,00,00,00
1756490194256463,00000214,false,Rx,0,4,08,00,82,00,00,00,00,00
1756490194258603,00000181,false,Rx,0,8,04,10,0E,E9,04,00,00,00
1756490194262838,00000188,false,Rx,0,6,BE,FF,23,00,D8,03,00,00
1756490194262949,00000288,false,Rx,0,6,00,00,00,00,00,00,00,00
1756490194263066,00000488,false,Rx,0,8,08,27,55,00,53,01,8A,00
1756490194263921,00000393,false,Rx,0,6,0A,01,D5,01,0F,01,00,00
1756490194264014,00000293,false,Rx,0,4,A2,A2,00,00,00,00,00,00
1756490194264111,00000713,false,Rx,0,1,05,00,00,00,00,00,00,00
1756490194264209,00000733,false,Rx,0,8,06,6F,12,03,3B,A2,00,05
1756490194264305,00000193,false,Rx,0,6,14,00,E4,FF,9D,FE,00,00
1756490194265806,00000194,false,Rx,0,6,14,00,09,00,00,00,00,00
1756490194266287,00000213,false,Rx,0,4,08,00,7B,FF,00,00,00,00
1756490194266380,00000214,false,Rx,0,4,08,00,85,00,00,00,00,00
1756490194271813,00000181,false,Rx,0,8,04,10,0E,E9,04,00,00,00
1756490194273028,00000188,false,Rx,0,6,D4,FF,FC,FF,1F,04,00,00
1756490194273144,00000288,false,Rx,0,6,00,00,00,00,00,00,00,00
1756490194273268,00000488,false,Rx,0,8,08,27,55,00,53,01,8A,00
1756490194273742,00000193,false,Rx,0,6,14,00,CE,FF,89,FE,00,00
1756490194275637,00000194,false,Rx,0,6,14,00,0E,00,03,00,00,00
1756490194276282,00000213,false,Rx,0,4,08,00,77,FF,00,00,00,00
1756490194276380,00000214,false,Rx,0,4,08,00,89,00,00,00,00,00
1756490194283211,00000188,false,Rx,0,6,B3,FF,0E,00,EB,03,00,00
1756490194283349,00000288,false,Rx,0,6,00,00,00,00,00,00,00,00
1756490194283466,00000488,false,Rx,0,8,08,27,55,00,53,01,8A,00
1756490194283583,00000193,false,Rx,0,6,14,00,DF,FF,81,FE,00,00
1756490194284851,00000701,false,Rx,0,1,05,00,00,00,00,00,00,00
1756490194285460,00000194,false,Rx,0,6,14,00,09,00,FF,FF,00,00
1756490194287295,00000213,false,Rx,0,4,08,00,74,FF,00,00,00,00
1756490194287394,00000214,false,Rx,0,4,08,00,8C,00,00,00,00,00
1756490194293409,00000188,false,Rx,0,6,B7,FF,12,00,AD,03,00,00
1756490194293518,00000193,false,Rx,0,6,14,00,FF,FF,7D,FE,00,00
1756490194293607,00000288,false,Rx,0,6,00,00,00,00,00,00,00,00
1756490194293724,00000488,false,Rx,0,8,08,27,55,00,53,01,8A,00
1756490194295289,00000194,false,Rx,0,6,14,00,0E,00,00,00,00,00
1756490194296128,00000181,false,Rx,0,8,68,10,0E,E9,04,00,00,00
1756490194297179,00000213,false,Rx,0,4,08,00,74,FF,00,00,00,00
1756490194297275,00000214,false,Rx,0,4,08,00,8C,00,00,00,00,00
1756490194303238,00000193,false,Rx,0,6,14,00,E1,FF,73,FE,00,00
1756490194303612,00000188,false,Rx,0,6,CF,FF,14,00,F4,03,00,00
1756490194303759,00000288,false,Rx,0,6,00,00,00,00,00,00,00,00
1756490194303875,00000488,false,Rx,0,8,08,27,55,00,53,01,8A,00
1756490194304560,00000710,false,Rx,0,1,7F,00,00,00,00,00,00,00
1756490194305114,00000194,false,Rx,0,6,14,00,0A,00,01,00,00,00
1756490194307084,00000213,false,Rx,0,4,08,00,74,FF,00,00,00,00
1756490194307192,00000214,false,Rx,0,4,08,00,8C,00,00,00,00,00
1756490194309324,00000181,false,Rx,0,8,04,10,0F,E8,04,00,00,00
1756490194313067,00000193,false,Rx,0,6,14,00,DC,FF,64,FE,00,00
1756490194313804,00000188,false,Rx,0,6,BE,FF,01,00,F5,03,00,00
1756490194313950,00000288,false,Rx,0,6,00,00,00,00,00,00,00,00
1756490194314067,00000488,false,Rx,0,8,08,27,55,00,53,01,8A,00
1756490194314943,00000194,false,Rx,0,6,14,00,0E,00,00,00,00,00
1756490194318091,00000213,false,Rx,0,4,08,00,71,FF,00,00,00,00
1756490194318184,00000214,false,Rx,0,4,08,00,8F,00,00,00,00,00
1756490194322534,00000181,false,Rx,0,8,04,10,10,E8,04,00,00,00
1756490194322878,00000193,false,Rx,0,6,14,00,EA,FF,5A,FE,00,00
1756490194324005,00000188,false,Rx,0,6,AF,FF,21,00,D7,03,00,00
1756490194324150,00000288,false,Rx,0,6,00,00,00,00,00,00,00,00
1756490194324267,00000488,false,Rx,0,8,08,27,55,00,53,01,8A,00
1756490194324761,00000394,false,Rx,0,6,65,05,ED,01,0E,01,00,00
1756490194324864,00000294,false,Rx,0,4,1D,A2,51,00,00,00,00,00
1756490194324964,00000714,false,Rx,0,1,05,00,00,00,00,00,00,00
1756490194325061,00000734,false,Rx,0,8,01,00,00,C0,3F,A2,51,05
1756490194325158,00000194,false,Rx,0,6,14,00,0E,00,05,00,00,00
1756490194328184,00000213,false,Rx,0,4,08,00,6D,FF,00,00,00,00
1756490194328293,00000214,false,Rx,0,4,08,00,93,00,00,00,00,00
1756490194332777,00000193,false,Rx,0,6,14,00,DE,FF,4F,FE,00,00
1756490194334226,00000188,false,Rx,0,6,B9,FF,22,00,DD,03,00,00
1756490194334355,00000288,false,Rx,0,6,00,00,00,00,00,00,00,00
1756490194334626,00000488,false,Rx,0,8,08,27,55,00,53,01,8A,00
1756490194334698,00000194,false,Rx,0,6,14,00,10,00,02,00,00,00
1756490194335953,00000181,false,Rx,0,8,04,10,10,E8,04,00,00,00
1756490194338204,00000213,false,Rx,0,4,08,00,69,FF,00,00,00,00
1756490194338287,00000214,false,Rx,0,4,08,00,97,00,00,00,00,00
1756490194343140,00000193,false,Rx,0,6,14,00,D3,FF,48,FE,00,00
1756490194344788,00000188,false,Rx,0,6,B6,FF,24,00,FC,03,00,00
1756490194344960,00000194,false,Rx,0,6,14,00,11,00,00,00,00,00
1756490194345034,00000288,false,Rx,0,6,00,00,00,00,00,00,00,00
1756490194345100,00000488,false,Rx,0,8,08,27,55,00,53,01,8A,00
1756490194348508,00000213,false,Rx,0,4,08,00,65,FF,00,00,00,00
1756490194348664,00000214,false,Rx,0,4,08,00,9B,00,00,00,00,00
1756490194349340,00000181,false,Rx,0,8,68,10,10,E8,04,00,00,00
1756490194352692,00000193,false,Rx,0,6,14,00,EE,FF,42,FE,00,00
1756490194354564,00000194,false,Rx,0,6,14,00,0B,00,FE,FF,00,00
1756490194354797,00000188,false,Rx,0,6,B1,FF,27,00,F2,03,00,00
1756490194355855,00000288,false,Rx,0,6,00,00,00,00,00,00,00,00
1756490194355947,00000488,false,Rx,0,8,08,27,55,00,53,01,8A,00
1756490194358040,00000213,false,Rx,0,4,08,00,62,FF,00,00,00,00
1756490194358139,00000214,false,Rx,0,4,08,00,9E,00,00,00,00,00
1756490194362334,00000393,false,Rx,0,6,0A,01,D5,01,07,01,00,00
1756490194362457,00000293,false,Rx,0,4,A9,A2,00,00,00,00,00,00
1756490194362601,00000181,false,Rx,0,8,04,10,10,E8,04,00,00,00
1756490194362705,00000713,false,Rx,0,1,05,00,00,00,00,00,00,00
1756490194362766,00000733,false,Rx,0,8,07,00,00,80,3F,A2,00,05
1756490194362826,00000193,false,Rx,0,6,14,00,DE,FF,2D,FE,00,00
1756490194364209,00000194,false,Rx,0,6,14,00,12,00,01,00,00,00
1756490194365848,00000188,false,Rx,0,6,C2,FF,0E,00,F7,03,00,00
1756490194366002,00000288,false,Rx,0,6,00,00,00,00,00,00,00,00
1756490194366063,00000488,false,Rx,0,8,08,27,55,00,53,01,8A,00
1756490194369055,00000213,false,Rx,0,4,08,00,60,FF,00,00,00,00
1756490194369177,00000214,false,Rx,0,4,08,00,A0,00,00,00,00,00
1756490194372133,00000193,false,Rx,0,6,14,00,D9,FF,26,FE,00,00
1756490194373990,00000194,false,Rx,0,6,14,00,0C,00,FD,FF,00,00
1756490194375706,00000181,false,Rx,0,8,68,10,11,E8,05,00,00,00
1756490194376070,00000188,false,Rx,0,6,C1,FF,19,00,F4,03,00,00
1756490194376221,00000288,false,Rx,0,6,00,00,00,00,00,00,00,00
1756490194376288,00000488,false,Rx,0,8,08,27,55,00,53,01,8A,00
1756490194379046,00000213,false,Rx,0,4,08,00,5D,FF,00,00,00,00
1756490194379160,00000214,false,Rx,0,4,08,00,A3,00,00,00,00,00
1756490194381144,00000290,false,Rx,0,7,01,E8,00,00,00,00,00,00
1756490194381256,00000490,false,Rx,0,5,64,00,00,00,00,00,00,00
1756490194381960,00000193,false,Rx,0,6,14,00,E9,FF,20,FE,00,00
1756490194383794,00000194,false,Rx,0,6,14,00,0D,00,FF,FF,00,00
1756490194385060,00000701,false,Rx,0,1,05,00,00,00,00,00,00,00
1756490194386278,00000188,false,Rx,0,6,BB,FF,15,00,D5,03,00,00
1756490194386453,00000288,false,Rx,0,6,00,00,00,00,00,00,00,00
1756490194386523,00000488,false,Rx,0,8,08,27,55,00,53,01,8A,00
1756490194388819,00000181,false,Rx,0,8,04,10,11,E8,05,00,00,00
1756490194389002,00000213,false,Rx,0,4,08,00,59,FF,00,00,00,00
1756490194389065,00000214,false,Rx,0,4,08,00,A7,00,00,00,00,00
1756490194391819,00000193,false,Rx,0,6,14,00,DE,FF,10,FE,00,00
1756490194393657,00000194,false,Rx,0,6,14,00,0E,00,FE,FF,00,00
1756490194396367,00000188,false,Rx,0,6,C5,FF,11,00,DB,03,00,00
1756490194396499,00000288,false,Rx,0,6,00,00,00,00,00,00,00,00
1756490194396618,00000488,false,Rx,0,8,08,27,55,00,53,01,8A,00
1756490194399758,00000213,false,Rx,0,4,08,00,56,FF,00,00,00,00
1756490194399870,00000214,false,Rx,0,4,08,00,AA,00,00,00,00,00
1756490194401589,00000193,false,Rx,0,6,14,00,D3,FF,03,FE,00,00
1756490194403438,00000194,false,Rx,0,6,14,00,10,00,00,00,00,00
1756490194406449,00000181,false,Rx,0,8,68,10,12,E8,05,00,00,00
1756490194406684,00000188,false,Rx,0,6,BD,FF,01,00,F3,03,00,00
1756490194406807,00000288,false,Rx,0,6,00,00,00,00,00,00,00,00
1756490194406865,00000488,false,Rx,0,8,08,27,55,00,53,01,8A,00
1756490194409675,00000213,false,Rx,0,4,08,00,53,FF,00,00,00,00
1756490194409792,00000214,false,Rx,0,4,08,00,AD,00,00,00,00,00
1756490194411382,00000193,false,Rx,0,6,14,00,F8,FF,FA,FD,00,00
1756490194412622,00000710,false,Rx,0,1,7F,00,00,00,00,00,00,00
1756490194413258,00000194,false,Rx,0,6,14,00,14,00,FF,FF,00,00
1756490194416767,00000188,false,Rx,0,6,B2,FF,17,00,D4,03,00,00
1756490194416896,00000288,false,Rx,0,6,00,00,00,00,00,00,00,00
1756490194417012,00000488,false,Rx,0,8,08,27,55,00,53,01,8A,00
1756490194419602,00000181,false,Rx,0,8,04,10,12,E8,05,00,00,00
1756490194419711,00000213,false,Rx,0,4,08,00,4F,FF,00,00,00,00
1756490194419837,00000214,false,Rx,0,4,08,00,B1,00,00,00,00,00
1756490194421208,00000193,false,Rx,0,6,14,00,C9,FF,E8,FD,00,00
1756490194423066,00000394,false,Rx,0,6,65,05,ED,01,02,01,00,00
1756490194423173,00000294,false,Rx,0,4,28,A2,59,00,00,00,00,00
1756490194423271,00000714,false,Rx,0,1,05,00,00,00,00,00,00,00
1756490194423367,00000734,false,Rx,0,8,02,00,00,20,3F,A2,59,05
1756490194423483,00000194,false,Rx,0,6,14,00,14,00,00,00,00,00
1756490194426985,00000188,false,Rx,0,6,C1,FF,12,00,E1,03,00,00
1756490194427115,00000288,false,Rx,0,6,00,00,00,00,00,00,00,00
1756490194427242,00000488,false,Rx,0,8,08,27,55,00,53,01,8A,00
1756490194430574,00000213,false,Rx,0,4,08,00,4C,FF,00,00,00,00
1756490194430684,00000214,false,Rx,0,4,08,00,B4,00,00,00,00,00
1756490194431029,00000193,false,Rx,0,6,14,00,DF,FF,E4,FD,00,00
1756490194432814,00000181,false,Rx,0,8,68,10,12,E8,05,00,00,00
1756490194432918,00000194,false,Rx,0,6,14,00,10,00,01,00,00,00
1756490194437163,00000188,false,Rx,0,6,BD,FF,FA,FF,F4,03,00,00
1756490194437985,00000288,false,Rx,0,6,00,00,00,00,00,00,00,00
1756490194438105,00000488,false,Rx,0,8,08,27,55,00,53,01,8A,00
1756490194440468,00000213,false,Rx,0,4,08,00,4C,FF,00,00,00,00
1756490194440571,00000214,false,Rx,0,4,08,00,B4,00,00,00,00,00
1756490194440865,00000193,false,Rx,0,6,14,00,F1,FF,CF,FD,00,00
1756490194442761,00000194,false,Rx,0,6,14,00,11,00,FF,FF,00,00
1756490194446035,00000181,false,Rx,0,8,68,10,12,E8,05,00,00,00
1756490194448012,00000188,false,Rx,0,6,B8,FF,11,00,DE,03,00,00
1756490194448120,00000288,false,Rx,0,6,00,00,00,00,00,00,00,00
1756490194448228,00000488,false,Rx,0,8,08,27,55,00,53,01,8A,00
1756490194450381,00000213,false,Rx,0,4,08,00,4C,FF,00,00,00,00
1756490194450523,00000214,false,Rx,0,4,08,00,B4,00,00,00,00,00
1756490194450687,00000193,false,Rx,0,6,14,00,C9,FF,C4,FD,00,00
1756490194452565,00000194,false,Rx,0,6,14,00,15,00,FF,FF,00,00
1756490194458189,00000188,false,Rx,0,6,CA,FF,1C,00,0D,04,00,00
1756490194458314,00000288,false,Rx,0,6,00,00,00,00,00,00,00,00
1756490194458436,00000488,false,Rx,0,8,08,27,55,00,53,01,8A,00
1756490194460282,00000213,false,Rx,0,4,08,00,4C,FF,00,00,00,00
1756490194460389,00000214,false,Rx,0,4,08,00,B4,00,00,00,00,00
1756490194460487,00000393,false,Rx,0,6,0A,01,D5,01,0F,01,00,00
1756490194460586,00000293,false,Rx,0,4,AF,A2,00,00,00,00,00,00
1756490194460682,00000713,false,Rx,0,1,05,00,00,00,00,00,00,00
1756490194460778,00000733,false,Rx,0,8,08,00,00,80,3F,A2,00,05
1756490194460900,00000193,false,Rx,0,6,14,00,FC,FF,BD,FD,00,00
1756490194462400,00000194,false,Rx,0,6,14,00,0E,00,00,00,00,00
1756490194466949,00000181,false,Rx,0,8,04,10,12,E8,05,00,00,00
1756490194468384,00000188,false,Rx,0,6,BA,FF,09,00,C5,03,00,00
1756490194468509,00000288,false,Rx,0,6,00,00,00,00,00,00,00,00
1756490194468626,00000488,false,Rx,0,8,08,27,55,00,53,01,8A,00
1756490194470344,00000193,false,Rx,0,6,14,00,C5,FF,AB,FD,00,00
1756490194471299,00000213,false,Rx,0,4,08,00,4C,FF,00,00,00,00
1756490194471402,00000214,false,Rx,0,4,08,00,B4,00,00,00,00,00
1756490194472217,00000194,false,Rx,0,6,14,00,04,00,FD,FF,00,00
1756490194478569,00000188,false,Rx,0,6,B1,FF,1A,00,C2,03,00,00
1756490194478700,00000288,false,Rx,0,6,00,00,00,00,00,00,00,00
1756490194478931,00000488,false,Rx,0,8,08,27,55,00,53,01,8A,00
1756490194480183,00000193,false,Rx,0,6,14,00,F5,FF,A3,FD,00,00
1756490194481213,00000213,false,Rx,0,4,08,00,4C,FF,00,00,00,00
1756490194481317,00000214,false,Rx,0,4,08,00,B4,00,00,00,00,00
1756490194482047,00000194,false,Rx,0,6,14,00,05,00,FE,FF,00,00
1756490194485306,00000701,false,Rx,0,1,05,00,00,00,00,00,00,00
1756490194486757,00000181,false,Rx,0,8,04,10,13,E8,05,00,00,00
1756490194488786,00000188,false,Rx,0,6,C4,FF,0B,00,F1,03,00,00
1756490194488924,00000288,false,Rx,0,6,00,00,00,00,00,00,00,00
1756490194489070,00000488,false,Rx,0,8,08,27,55,00,53,01,8A,00
1756490194490140,00000193,false,Rx,0,6,14,00,CA,FF,99,FD,00,00
1756490194490365,00000100,false,Rx,0,6,39,A2,D9,03,70,3B,00,00
1756490194491231,00000213,false,Rx,0,4,08,00,49,FF,00,00,00,00
1756490194491324,00000214,false,Rx,0,4,08,00,B7,00,00,00,00,00
1756490194492269,00000194,false,Rx,0,6,14,00,11,00,01,00,00,00
1756490194499110,00000188,false,Rx,0,6,CC,FF,00,00,01,04,00,00
1756490194499270,00000288,false,Rx,0,6,00,00,00,00,00,00,00,00
1756490194499332,00000488,false,Rx,0,8,08,27,55,00,53,01,8A,00
1756490194499998,00000181,false,Rx,0,8,04,10,12,E8,05,00,00,00
1756490194500115,00000193,false,Rx,0,6,14,00,ED,FF,89,FD,00,00
1756490194501021,00000213,false,Rx,0,4,08,00,4C,FF,00,00,00,00
1756490194501128,00000214,false,Rx,0,4,08,00,B4,00,00,00,00,00
1756490194501939,00000194,false,Rx,0,6,14,00,04,00,03,00,00,00
1756490194509186,00000188,false,Rx,0,6,B4,FF,15,00,C1,03,00,00
1756490194509390,00000288,false,Rx,0,6,00,00,00,00,00,00,00,00
1756490194509452,00000488,false,Rx,0,8,08,27,55,00,53,01,8A,00
1756490194509879,00000193,false,Rx,0,6,14,00,ED,FF,84,FD,00,00
1756490194512250,00000194,false,Rx,0,6,14,00,10,00,02,00,00,00
1756490194512446,00000213,false,Rx,0,4,08,00,4C,FF,00,00,00,00
1756490194512538,00000214,false,Rx,0,4,08,00,B4,00,00,00,00,00
1756490194516638,00000181,false,Rx,0,8,04,10,12,E8,05,00,00,00
1756490194519875,00000188,false,Rx,0,6,C0,FF,0B,00,EE,03,00,00
1756490194520313,00000288,false,Rx,0,6,00,00,00,00,00,00,00,00
1756490194520417,00000488,false,Rx,0,8,08,27,55,00,53,01,8A,00
1756490194520485,00000193,false,Rx,0,6,14,00,D3,FF,78,FD,00,00
1756490194521491,00000190,false,Rx,0,8,00,C9,C9,C9,C9,C9,C9,C9
1756490194521788,00000190,false,Rx,0,8,07,C9,C9,C9,C9,C9,C9,C9
1756490194521918,00000190,false,Rx,0,8,0E,C9,C9,C9,C9,C9,C9,C9
1756490194522023,00000394,false,Rx,0,6,65,05,ED,01,16,01,00,00
1756490194522172,00000294,false,Rx,0,4,13,A2,20,00,00,00,00,00
1756490194522231,00000714,false,Rx,0,1,05,00,00,00,00,00,00,00
1756490194522289,00000734,false,Rx,0,8,03,00,00,00,00,A2,20,05
1756490194522349,00000194,false,Rx,0,6,14,00,0F,00,FD,FF,00,00
1756490194522408,00000214,false,Rx,0,4,08,00,B4,00,00,00,00,00
1756490194522466,00000004,false,Rx,0,8,00,01,00,00,00,00,00,00
1756490194529920,00000193,false,Rx,0,6,14,00,01,00,72,FD,00,00
1756490194530178,00000188,false,Rx,0,6,C9,FF,16,00,07,04,00,00
1756490194530256,00000181,false,Rx,0,8,04,10,12,E8,05,00,00,00
1756490194530324,00000288,false,Rx,0,6,00,00,00,00,00,00,00,00
1756490194530392,00000488,false,Rx,0,8,08,27,55,00,53,01,8A,00
1756490194531570,00000194,false,Rx,0,6,14,00,10,00,03,00,00,00
1756490194531909,00000213,false,Rx,0,4,08,00,4C,FF,00,00,00,00
1756490194532002,00000214,false,Rx,0,4,08,00,B4,00,00,00,00,00
1756490194533280,00000190,false,Rx,0,8,15,C9,C9,C9,C9,C9,C9,C9
1756490194533636,00000190,false,Rx,0,8,1C,C9,C9,C9,C9,C9,C9,C9
1756490194533894,00000190,false,Rx,0,8,2A,C9,C9,C9,C9,C9,C9,C9
1756490194534890,00000190,false,Rx,0,8,31,C9,C9,C9,C9,C9,C9,C9
1756490194535801,00000190,false,Rx,0,8,38,C9,C9,C9,C9,C9,C9,C7
1756490194536135,00000190,false,Rx,0,8,23,C9,C9,C9,C9,C9,C9,C9
1756490194536315,00000190,false,Rx,0,8,3F,C9,C9,C9,C9,C9,C9,C9
1756490194536585,00000190,false,Rx,0,8,46,C9,C9,C9,C9,C9,C9,CA
1756490194536699,00000190,false,Rx,0,8,54,C9,C9,CA,C9,C9,C9,C9
1756490194537001,00000190,false,Rx,0,8,4D,C9,C9,C9,C9,C9,C9,C9
1756490194537126,00000190,false,Rx,0,8,5B,C9,C9,C9,C9,C9,C9,C9
1756490194537340,00000190,false,Rx,0,8,62,C9,C7,C9,C9,C9,C9,C9
1756490194537690,00000390,false,Rx,0,8,00,3D,3D,3D,3D,3D,3D,3D
1756490194537905,00000390,false,Rx,0,8,07,3D,3D,3D,3D,3D,3D,3D
1756490194537973,00000390,false,Rx,0,8,0E,3D,3D,3D,3D,3D,3D,3D
1756490194538034,00000390,false,Rx,0,8,15,3D,3D,3D,3D,3D,3D,3D
1756490194538094,00000390,false,Rx,0,8,1C,3D,3D,3D,3D,3D,3D,3D
1756490194538153,00000390,false,Rx,0,8,2A,3D,3D,3D,3D,3D,3D,3D
1756490194538213,00000390,false,Rx,0,8,23,3D,3D,3D,3D,3D,3D,3D
1756490194538272,00000390,false,Rx,0,8,31,3D,3D,3D,3D,3D,3D,3D
1756490194538331,00000390,false,Rx,0,8,38,3D,3D,3D,3D,3D,3D,3D
1756490194538390,00000390,false,Rx,0,8,46,3D,3D,3D,3D,3D,3D,3D
1756490194538448,00000390,false,Rx,0,8,4D,3D,3D,3D,3D,3D,3D,3D
1756490194538506,00000390,false,Rx,0,8,3F,3D,3D,3D,3D,3D,3D,3D
1756490194538572,00000390,false,Rx,0,8,54,3D,3D,3D,3D,3D,3D,3D
1756490194538630,00000390,false,Rx,0,8,5B,3D,3D,3D,3D,3D,13,13
1756490194538689,00000390,false,Rx,0,8,69,3D,3D,3D,3D,3D,3D,3D
1756490194538751,00000390,false,Rx,0,8,70,3D,3D,3D,3D,3D,3D,3D
1756490194538813,00000390,false,Rx,0,8,62,13,13,13,13,13,13,3D
1756490194538878,00000390,false,Rx,0,8,77,3D,3D,3D,3D,3D,3D,3D
1756490194538941,00000390,false,Rx,0,8,7E,3D,3D,3D,3D,3D,3D,3D
1756490194539006,00000390,false,Rx,0,8,8C,13,13,13,13,3C,3C,3C
1756490194539078,00000390,false,Rx,0,8,85,3D,3D,3D,13,13,13,13
1756490194539142,00000390,false,Rx,0,8,93,3C,3C,3C,3C,3C,3C,3C
1756490194539274,00000390,false,Rx,0,8,9A,3C,3C,3C,3C,3C,3C,13
1756490194539439,00000390,false,Rx,0,8,A8,13,13,13,13,13,13,13
1756490194539509,00000390,false,Rx,0,8,AF,13,3D,3D,3D,3D,3D,3D
1756490194539570,00000390,false,Rx,0,8,A1,13,13,13,13,13,13,13
1756490194539635,00000390,false,Rx,0,8,B6,3D,3D,3C,3C,3C,3C,3C
1756490194539706,00000390,false,Rx,0,8,BD,3C,3C,3C,3D,3D,3D,3D
1756490194539776,00000390,false,Rx,0,8,CB,3D,3D,3D,3D,3D,3D,3D
1756490194539844,00000390,false,Rx,0,8,C4,3D,3D,3D,3D,3D,3D,3D
1756490194539916,00000390,false,Rx,0,8,D2,3D,3D,3D,3D,3D,3D,3D
1756490194540001,00000390,false,Rx,0,8,D9,3D,3D,3D,3D,3D,3D,3D
1756490194540087,00000710,false,Rx,0,1,7F,00,00,00,00,00,00,00
1756490194540165,00000193,false,Rx,0,6,14,00,BD,FF,68,FD,00,00
1756490194541607,00000188,false,Rx,0,6,B4,FF,13,00,D0,03,00,00
1756490194541900,00000288,false,Rx,0,6,00,00,00,00,00,00,00,00
1756490194542099,00000488,false,Rx,0,8,08,27,55,00,53,01,8A,00
1756490194542211,00000194,false,Rx,0,6,14,00,10,00,04,00,00,00
1756490194543196,00000181,false,Rx,0,8,68,10,12,E8,05,00,00,00
1756490194543341,00000213,false,Rx,0,4,08,00,4C,FF,00,00,00,00
1756490194543416,00000214,false,Rx,0,4,08,00,B4,00,00,00,00,00
1756490194549507,00000193,false,Rx,0,6,14,00,01,00,62,FD,00,00
1756490194551455,00000188,false,Rx,0,6,C6,FF,19,00,10,04,00,00
1756490194551593,00000194,false,Rx,0,6,14,00,0F,00,FF,FF,00,00
1756490194551666,00000288,false,Rx,0,6,00,00,00,00,00,00,00,00
1756490194551727,00000488,false,Rx,0,8,08,27,55,00,53,01,8A,00
1756490194553656,00000213,false,Rx,0,4,08,00,4C,FF,00,00,00,00
1756490194553779,00000214,false,Rx,0,4,08,00,B4,00,00,00,00,00
1756490194556274,00000181,false,Rx,0,8,04,10,12,E8,05,00,00,00
1756490194559112,00000393,false,Rx,0,6,0A,01,D5,01,07,01,00,00
1756490194559298,00000293,false,Rx,0,4,A4,A2,00,00,00,00,00,00
1756490194559600,00000713,false,Rx,0,1,05,00,00,00,00,00,00,00
1756490194559675,00000733,false,Rx,0,8,09,00,00,00,00,A2,00,05
1756490194559738,00000193,false,Rx,0,6,14,00,C1,FF,56,FD,00,00
1756490194561003,00000194,false,Rx,0,6,14,00,10,00,01,00,00,00
1756490194561340,00000188,false,Rx,0,6,B6,FF,12,00,D7,03,00,00
1756490194561442,00000288,false,Rx,0,6,00,00,00,00,00,00,00,00
1756490194561676,00000488,false,Rx,0,8,08,27,55,00,53,01,8A,00
1756490194562738,00000213,false,Rx,0,4,08,00,4C,FF,00,00,00,00
1756490194562825,00000214,false,Rx,0,4,08,00,B4,00,00,00,00,00
1756490194568816,00000193,false,Rx,0,6,14,00,05,00,52,FD,00,00
1756490194569363,00000181,false,Rx,0,8,04,10,12,E8,05,00,00,00
1756490194570696,00000194,false,Rx,0,6,14,00,11,00,FF,FF,00,00
1756490194571618,00000188,false,Rx,0,6,B9,FF,21,00,BB,03,00,00
1756490194571726,00000288,false,Rx,0,6,00,00,00,00,00,00,00,00
1756490194571959,00000488,false,Rx,0,8,08,27,55,00,53,01,8A,00
1756490194572647,00000213,false,Rx,0,4,08,00,4C,FF,00,00,00,00
1756490194572740,00000214,false,Rx,0,4,08,00,B4,00,00,00,00,00
1756490194578667,00000193,false,Rx,0,6,14,00,CD,FF,4C,FD,00,00
1756490194580513,00000194,false,Rx,0,6,14,00,0F,00,FF,FF,00,00
1756490194581002,00000290,false,Rx,0,7,01,E8,00,00,00,00,00,00
1756490194581096,00000490,false,Rx,0,5,64,00,00,00,00,00,00,00
1756490194581936,00000188,false,Rx,0,6,C8,FF,0E,00,FC,03,00,00
1756490194582038,00000288,false,Rx,0,6,00,00,00,00,00,00,00,00
1756490194582929,00000488,false,Rx,0,8,08,27,55,00,53,01,8A,00
1756490194583020,00000188,false,Rx,0,6,B1,FF,18,00,C3,03,00,00
1756490194583116,00000288,false,Rx,0,6,00,00,00,00,00,00,00,00
1756490194583231,00000488,false,Rx,0,8,08,27,55,00,53,01,8A,00
1756490194583644,00000213,false,Rx,0,4,08,00,4C,FF,00,00,00,00
1756490194583750,00000214,false,Rx,0,4,08,00,B4,00,00,00,00,00
1756490194585501,00000701,false,Rx,0,1,05,00,00,00,00,00,00,00
1756490194588477,00000193,false,Rx,0,6,14,00,00,00,4A,FD,00,00
1756490194590353,00000194,false,Rx,0,6,14,00,11,00,FC,FF,00,00
1756490194593255,00000188,false,Rx,0,6,B1,FF,18,00,C3,03,00,00
1756490194593357,00000288,false,Rx,0,6,00,00,00,00,00,00,00,00
1756490194593451,00000488,false,Rx,0,8,08,27,55,00,53,01,8A,00
1756490194593562,00000213,false,Rx,0,4,08,00,4C,FF,00,00,00,00
1756490194593656,00000214,false,Rx,0,4,08,00,B4,00,00,00,00,00
1756490194598326,00000193,false,Rx,0,6,14,00,D3,FF,41,FD,00,00
1756490194600179,00000194,false,Rx,0,6,14,00,11,00,FD,FF,00,00
1756490194603334,00000188,false,Rx,0,6,C0,FF,19,00,E9,03,00,00
1756490194603442,00000288,false,Rx,0,6,00,00,00,00,00,00,00,00
1756490194603537,00000213,false,Rx,0,4,08,00,4C,FF,00,00,00,00
1756490194603635,00000214,false,Rx,0,4,08,00,B4,00,00,00,00,00
1756490194603733,00000488,false,Rx,0,8,08,27,55,00,53,01,8A,00
1756490194608120,00000193,false,Rx,0,6,14,00,01,00,3D,FD,00,00
1756490194609998,00000194,false,Rx,0,6,14,00,15,00,FD,FF,00,00
1756490194613541,00000188,false,Rx,0,6,C8,FF,0C,00,02,04,00,00
1756490194613661,00000288,false,Rx,0,6,00,00,00,00,00,00,00,00
1756490194613758,00000488,false,Rx,0,8,08,27,55,00,53,01,8A,00
1756490194614479,00000213,false,Rx,0,4,08,00,4C,FF,00,00,00,00
1756490194614570,00000214,false,Rx,0,4,08,00,B4,00,00,00,00,00
1756490194616777,00000181,false,Rx,0,8,04,10,12,E8,05,00,00,00
1756490194617946,00000193,false,Rx,0,6,14,00,CC,FF,36,FD,00,00
1756490194619819,00000394,false,Rx,0,6,65,05,ED,01,1F,01,00,00
1756490194619912,00000294,false,Rx,0,4,32,A2,44,00,00,00,00,00
1756490194620009,00000714,false,Rx,0,1,05,00,00,00,00,00,00,00
1756490194620108,00000734,false,Rx,0,8,04,66,66,66,3F,A2,44,05
1756490194620206,00000194,false,Rx,0,6,14,00,13,00,00,00,00,00
1756490194623730,00000188,false,Rx,0,6,B9,FF,18,00,CE,03,00,00
1756490194623843,00000288,false,Rx,0,6,00,00,00,00,00,00,00,00
1756490194623949,00000488,false,Rx,0,8,08,27,55,00,53,01,8A,00
1756490194624470,00000213,false,Rx,0,4,08,00,4C,FF,00,00,00,00
1756490194624564,00000214,false,Rx,0,4,08,00,B4,00,00,00,00,00
1756490194627769,00000193,false,Rx,0,6,14,00,FF,FF,34,FD,00,00
1756490194629643,00000194,false,Rx,0,6,14,00,11,00,01,00,00,00
1756490194629981,00000181,false,Rx,0,8,04,10,12,E8,05,00,00,00
1756490194633947,00000188,false,Rx,0,6,B7,FF,1D,00,E1,03,00,00
1756490194634022,00000288,false,Rx,0,6,00,00,00,00,00,00,00,00
1756490194634126,00000488,false,Rx,0,8,08,27,55,00,53,01,8A,00
1756490194634373,00000213,false,Rx,0,4,08,00,4C,FF,00,00,00,00
1756490194634488,00000214,false,Rx,0,4,08,00,B4,00,00,00,00,00
1756490194637604,00000193,false,Rx,0,6,14,00,D0,FF,27,FD,00,00
1756490194639475,00000194,false,Rx,0,6,14,00,10,00,FD,FF,00,00
1756490194640391,00000710,false,Rx,0,1,7F,00,00,00,00,00,00,00
1756490194643212,00000181,false,Rx,0,8,68,10,12,E8,05,00,00,00
1756490194644136,00000188,false,Rx,0,6,CA,FF,10,00,03,04,00,00
1756490194644245,00000288,false,Rx,0,6,00,00,00,00,00,00,00,00
1756490194644342,00000213,false,Rx,0,4,08,00,4C,FF,00,00,00,00
1756490194644439,00000214,false,Rx,0,4,08,00,B4,00,00,00,00,00
1756490194644538,00000488,false,Rx,0,8,08,27,55,00,53,01,8A,00
1756490194647424,00000193,false,Rx,0,6,14,00,FB,FF,2E,FD,00,00
1756490194649298,00000194,false,Rx,0,6,14,00,11,00,FE,FF,00,00
1756490194654324,00000188,false,Rx,0,6,C5,FF,0B,00,EE,03,00,00
1756490194654438,00000288,false,Rx,0,6,00,00,00,00,00,00,00,00
1756490194654547,00000488,false,Rx,0,8,08,27,55,00,53,01,8A,00
1756490194655291,00000213,false,Rx,0,4,08,00,4C,FF,00,00,00,00
1756490194655383,00000214,false,Rx,0,4,08,00,B4,00,00,00,00,00
1756490194656372,00000181,false,Rx,0,8,04,10,13,E8,05,00,00,00
1756490194657245,00000393,false,Rx,0,6,0A,01,D5,01,07,01,00,00
1756490194657341,00000293,false,Rx,0,4,96,A2,00,00,00,00,00,00
1756490194657438,00000713,false,Rx,0,1,05,00,00,00,00,00,00,00
1756490194657537,00000733,false,Rx,0,8,01,9A,99,19,40,A2,00,05
1756490194657635,00000193,false,Rx,0,6,14,00,D1,FF,24,FD,00,00
1756490194659126,00000194,false,Rx,0,6,14,00,14,00,02,00,00,00
1756490194664531,00000188,false,Rx,0,6,BC,FF,10,00,C7,03,00,00
1756490194664639,00000288,false,Rx,0,6,00,00,00,00,00,00,00,00
1756490194664735,00000488,false,Rx,0,8,08,27,55,00,53,01,8A,00
1756490194665196,00000213,false,Rx,0,4,08,00,49,FF,00,00,00,00
1756490194665289,00000214,false,Rx,0,4,08,00,B7,00,00,00,00,00
1756490194667070,00000193,false,Rx,0,6,14,00,FD,FF,25,FD,00,00
1756490194668950,00000194,false,Rx,0,6,14,00,15,00,01,00,00,00
1756490194669597,00000181,false,Rx,0,8,04,10,12,E8,05,00,00,00
1756490194674736,00000188,false,Rx,0,6,C0,FF,0E,00,02,04,00,00
1756490194674826,00000288,false,Rx,0,6,00,00,00,00,00,00,00,00
1756490194675054,00000213,false,Rx,0,4,08,00,4C,FF,00,00,00,00
1756490194675151,00000214,false,Rx,0,4,08,00,B4,00,00,00,00,00
1756490194675817,00000488,false,Rx,0,8,08,27,55,00,53,01,8A,00
1756490194676899,00000193,false,Rx,0,6,14,00,C9,FF,1D,FD,00,00
1756490194678777,00000194,false,Rx,0,6,14,00,11,00,02,00,00,00
1756490194684965,00000213,false,Rx,0,4,08,00,4C,FF,00,00,00,00
1756490194685053,00000214,false,Rx,0,4,08,00,B4,00,00,00,00,00
1756490194685727,00000701,false,Rx,0,1,05,00,00,00,00,00,00,00
1756490194685843,00000188,false,Rx,0,6,C0,FF,1D,00,D9,03,00,00
1756490194685948,00000288,false,Rx,0,6,00,00,00,00,00,00,00,00
1756490194686053,00000488,false,Rx,0,8,08,27,55,00,53,01,8A,00
1756490194686725,00000193,false,Rx,0,6,14,00,EF,FF,1F,FD,00,00
1756490194687218,00000181,false,Rx,0,8,04,10,11,E8,05,00,00,00
1756490194688615,00000194,false,Rx,0,6,14,00,15,00,01,00,00,00
1756490194695957,00000213,false,Rx,0,4,08,00,50,FF,00,00,00,00
1756490194696050,00000188,false,Rx,0,6,C4,FF,07,00,EB,03,00,00
1756490194696147,00000214,false,Rx,0,4,08,00,B0,00,00,00,00,00
1756490194696245,00000288,false,Rx,0,6,00,00,00,00,00,00,00,00
1756490194696342,00000488,false,Rx,0,8,08,27,55,00,53,01,8A,00
1756490194696542,00000193,false,Rx,0,6,14,00,CE,FF,10,FD,00,00
1756490194698439,00000194,false,Rx,0,6,14,00,10,00,03,00,00,00
1756490194700390,00000181,false,Rx,0,8,68,10,10,E8,04,00,00,00
1756490194705880,00000213,false,Rx,0,4,08,00,54,FF,00,00,00,00
1756490194705975,00000214,false,Rx,0,4,08,00,AC,00,00,00,00,00
1756490194706210,00000188,false,Rx,0,6,C7,FF,0E,00,F0,03,00,00
1756490194706350,00000288,false,Rx,0,6,00,00,00,00,00,00,00,00
1756490194706465,00000193,false,Rx,0,6,14,00,F9,FF,11,FD,00,00
1756490194706582,00000488,false,Rx,0,8,08,27,55,00,53,01,8A,00
1756490194708262,00000194,false,Rx,0,6,14,00,10,00,02,00,00,00
1756490194712608,00000181,false,Rx,0,8,04,10,0D,E8,04,00,00,00
1756490194715862,00000213,false,Rx,0,4,08,00,58,FF,00,00,00,00
1756490194715956,00000214,false,Rx,0,4,08,00,A8,00,00,00,00,00
1756490194716197,00000193,false,Rx,0,6,14,00,E2,FF,04,FD,00,00
1756490194716398,00000188,false,Rx,0,6,B0,FF,17,00,CF,03,00,00
1756490194716558,00000288,false,Rx,0,6,00,00,00,00,00,00,00,00
1756490194716683,00000488,false,Rx,0,8,08,27,55,00,53,01,8A,00
1756490194718107,00000394,false,Rx,0,6,69,05,ED,01,16,01,00,00
1756490194718180,00000294,false,Rx,0,4,3C,A2,51,00,00,00,00,00
1756490194718287,00000714,false,Rx,0,1,05,00,00,00,00,00,00,00
1756490194718384,00000734,false,Rx,0,8,05,00,00,20,3F,A2,51,05
1756490194718480,00000194,false,Rx,0,6,14,00,0C,00,FE,FF,00,00
1756490194725924,00000181,false,Rx,0,8,04,10,00,E9,03,00,00,00
1756490194726027,00000213,false,Rx,0,4,08,00,5C,FF,00,00,00,00
1756490194726126,00000193,false,Rx,0,6,14,00,FC,FF,0B,FD,00,00
1756490194726228,00000214,false,Rx,0,4,08,00,A4,00,00,00,00,00
1756490194726599,00000188,false,Rx,0,6,BE,FF,11,00,ED,03,00,00
1756490194726747,00000288,false,Rx,0,6,00,00,00,00,00,00,00,00
1756490194726863,00000488,false,Rx,0,8,08,27,55,00,53,01,8A,00
1756490194727920,00000194,false,Rx,0,6,14,00,06,00,00,00,00,00
1756490194735928,00000193,false,Rx,0,6,14,00,E1,FF,04,FD,00,00
1756490194736809,00000188,false,Rx,0,6,B9,FF,0C,00,01,04,00,00
1756490194736964,00000288,false,Rx,0,6,00,00,00,00,00,00,00,00
1756490194737065,00000213,false,Rx,0,4,08,00,5F,FF,00,00,00,00
1756490194737163,00000214,false,Rx,0,4,08,00,A1,00,00,00,00,00
1756490194737259,00000488,false,Rx,0,8,08,27,55,00,53,01,8A,00
1756490194737736,00000194,false,Rx,0,6,14,00,03,00,FE,FF,00,00
1756490194745741,00000193,false,Rx,0,6,14,00,F9,FF,0C,FD,00,00
1756490194746904,00000213,false,Rx,0,4,08,00,63,FF,00,00,00,00
1756490194746992,00000214,false,Rx,0,4,08,00,9D,00,00,00,00,00
1756490194747087,00000188,false,Rx,0,6,AE,FF,13,00,E1,03,00,00
1756490194747182,00000288,false,Rx,0,6,00,00,00,00,00,00,00,00
1756490194747278,00000488,false,Rx,0,8,08,27,55,00,53,01,8A,00
1756490194747568,00000194,false,Rx,0,6,14,00,03,00,FF,FF,00,00
1756490194748577,00000710,false,Rx,0,1,7F,00,00,00,00,00,00,00
1756490194755543,00000393,false,Rx,0,6,0A,01,D5,01,07,01,00,00
1756490194755618,00000293,false,Rx,0,4,A7,A2,00,00,00,00,00,00
1756490194755723,00000713,false,Rx,0,1,05,00,00,00,00,00,00,00
1756490194755832,00000733,false,Rx,0,8,02,00,00,C0,3F,A2,00,05
1756490194755935,00000193,false,Rx,0,6,14,00,D9,FF,04,FD,00,00
1756490194756806,00000213,false,Rx,0,4,08,00,67,FF,00,00,00,00
1756490194756901,00000214,false,Rx,0,4,08,00,99,00,00,00,00,00
1756490194757220,00000188,false,Rx,0,6,AE,FF,16,00,DB,03,00,00
1756490194757385,00000194,false,Rx,0,6,14,00,05,00,02,00,00,00
1756490194758069,00000288,false,Rx,0,6,00,00,00,00,00,00,00,00
1756490194758185,00000488,false,Rx,0,8,08,27,55,00,54,01,8A,00
1756490194765358,00000193,false,Rx,0,6,14,00,F1,FF,0F,FD,00,00
1756490194766690,00000213,false,Rx,0,4,08,00,6A,FF,00,00,00,00
1756490194766782,00000214,false,Rx,0,4,08,00,96,00,00,00,00,00
1756490194767213,00000194,false,Rx,0,6,14,00,06,00,02,00,00,00
1756490194768087,00000188,false,Rx,0,6,B0,FF,14,00,DB,03,00,00
1756490194768247,00000288,false,Rx,0,6,00,00,00,00,00,00,00,00
1756490194768364,00000488,false,Rx,0,8,08,27,55,00,54,01,8A,00
1756490194775182,00000193,false,Rx,0,6,14,00,C8,FF,06,FD,00,00
1756490194777055,00000194,false,Rx,0,6,14,00,0D,00,00,00,00,00
1756490194777705,00000213,false,Rx,0,4,08,00,6E,FF,00,00,00,00
1756490194777796,00000214,false,Rx,0,4,08,00,92,00,00,00,00,00
1756490194778309,00000188,false,Rx,0,6,B3,FF,07,00,C6,03,00,00
1756490194778462,00000288,false,Rx,0,6,00,00,00,00,00,00,00,00
1756490194778574,00000488,false,Rx,0,8,08,27,55,00,54,01,8A,00
1756490194781033,00000290,false,Rx,0,7,01,E8,00,00,00,00,00,00
1756490194781125,00000490,false,Rx,0,5,64,00,00,00,00,00,00,00
1756490194785001,00000193,false,Rx,0,6,14,00,FD,FF,0E,FD,00,00
1756490194786103,00000701,false,Rx,0,1,05,00,00,00,00,00,00,00
1756490194786522,00000181,false,Rx,0,8,04,10,00,EA,02,00,00,00
1756490194786874,00000194,false,Rx,0,6,14,00,0C,00,FE,FF,00,00
1756490194787595,00000213,false,Rx,0,4,08,00,72,FF,00,00,00,00
1756490194787697,00000214,false,Rx,0,4,08,00,8E,00,00,00,00,00
1756490194788513,00000188,false,Rx,0,6,C4,FF,17,00,F5,03,00,00
1756490194788745,00000288,false,Rx,0,6,00,00,00,00,00,00,00,00
1756490194788813,00000488,false,Rx,0,8,08,27,55,00,54,01,8A,00
1756490194794847,00000193,false,Rx,0,6,14,00,E0,FF,07,FD,00,00
1756490194796715,00000194,false,Rx,0,6,14,00,0B,00,03,00,00,00
1756490194797520,00000213,false,Rx,0,4,08,00,76,FF,00,00,00,00
1756490194797618,00000214,false,Rx,0,4,08,00,8A,00,00,00,00,00
1756490194798715,00000188,false,Rx,0,6,CB,FF,04,00,01,04,00,00
1756490194798853,00000288,false,Rx,0,6,00,00,00,00,00,00,00,00
1756490194798969,00000488,false,Rx,0,8,08,27,55,00,54,01,8A,00
1756490194799789,00000181,false,Rx,0,8,04,10,00,EA,02,00,00,00
1756490194804672,00000193,false,Rx,0,6,14,00,0A,00,12,FD,00,00
1756490194806539,00000194,false,Rx,0,6,14,00,0B,00,02,00,00,00
1756490194807413,00000213,false,Rx,0,4,08,00,7A,FF,00,00,00,00
1756490194807507,00000214,false,Rx,0,4,08,00,86,00,00,00,00,00
1756490194808930,00000188,false,Rx,0,6,C6,FF,13,00,C7,03,00,00
1756490194809049,00000288,false,Rx,0,6,00,00,00,00,00,00,00,00
1756490194809169,00000488,false,Rx,0,8,08,27,55,00,54,01,8A,00
1756490194814485,00000193,false,Rx,0,6,14,00,DD,FF,0E,FD,00,00
1756490194816357,00000394,false,Rx,0,6,69,05,ED,01,0E,01,00,00
1756490194816450,00000294,false,Rx,0,4,35,A2,59,00,00,00,00,00
1756490194816546,00000714,false,Rx,0,1,05,00,00,00,00,00,00,00
1756490194816644,00000734,false,Rx,0,8,06,00,00,00,00,A2,59,05
1756490194816741,00000194,false,Rx,0,6,14,00,0B,00,03,00,00,00
1756490194818407,00000213,false,Rx,0,4,08,00,7D,FF,00,00,00,00
1756490194818511,00000214,false,Rx,0,4,08,00,83,00,00,00,00,00
1756490194819108,00000188,false,Rx,0,6,C6,FF,0B,00,DA,03,00,00
1756490194819252,00000288,false,Rx,0,6,00,00,00,00,00,00,00,00
1756490194819368,00000488,false,Rx,0,8,08,27,55,00,53,01,8A,00
1756490194824311,00000193,false,Rx,0,6,14,00,F6,FF,1F,FD,00,00
1756490194826190,00000194,false,Rx,0,6,14,00,0B,00,FD,FF,00,00
1756490194828307,00000213,false,Rx,0,4,08,00,81,FF,00,00,00,00
1756490194828401,00000214,false,Rx,0,4,08,00,7F,00,00,00,00,00
1756490194829308,00000188,false,Rx,0,6,CC,FF,0A,00,EE,03,00,00
1756490194829447,00000288,false,Rx,0,6,00,00,00,00,00,00,00,00
1756490194829570,00000488,false,Rx,0,8,08,27,55,00,53,01,8A,00
1756490194834142,00000193,false,Rx,0,6,14,00,D9,FF,1D,FD,00,00
1756490194836020,00000194,false,Rx,0,6,14,00,0C,00,FF,FF,00,00
1756490194837166,00000181,false,Rx,0,8,68,10,00,EA,02,00,00,00
1756490194838214,00000213,false,Rx,0,4,08,00,85,FF,00,00,00,00
1756490194838307,00000214,false,Rx,0,4,08,00,7B,00,00,00,00,00
1756490194839519,00000188,false,Rx,0,6,C2,FF,12,00,D4,03,00,00
1756490194839641,00000288,false,Rx,0,6,00,00,00,00,00,00,00,00
1756490194839763,00000488,false,Rx,0,8,08,27,55,00,53,01,8A,00
1756490194843999,00000193,false,Rx,0,6,14,00,0E,00,2C,FD,00,00
1756490194845852,00000194,false,Rx,0,6,14,00,0A,00,02,00,00,00
1756490194849229,00000213,false,Rx,0,4,08,00,89,FF,00,00,00,00
1756490194849321,00000214,false,Rx,0,4,08,00,77,00,00,00,00,00
1756490194849695,00000188,false,Rx,0,6,BD,FF,1D,00,E9,03,00,00
1756490194850368,00000181,false,Rx,0,8,04,10,00,EA,02,00,00,00
1756490194851076,00000288,false,Rx,0,6,00,00,00,00,00,00,00,00
1756490194851193,00000488,false,Rx,0,8,08,27,55,00,53,01,8A,00
1756490194853793,00000393,false,Rx,0,6,0C,01,D5,01,0F,01,00,00
1756490194853886,00000293,false,Rx,0,4,A0,A2,00,00,00,00,00,00
1756490194853983,00000713,false,Rx,0,1,05,00,00,00,00,00,00,00
1756490194854082,00000733,false,Rx,0,8,03,6F,12,03,3B,A2,00,05
1756490194854179,00000193,false,Rx,0,6,14,00,E1,FF,2F,FD,00,00
1756490194855665,00000194,false,Rx,0,6,14,00,09,00,00,00,00,00
1756490194856572,00000710,false,Rx,0,1,7F,00,00,00,00,00,00,00
1756490194859130,00000213,false,Rx,0,4,08,00,8C,FF,00,00,00,00
1756490194859222,00000214,false,Rx,0,4,08,00,74,00,00,00,00,00
1756490194861072,00000188,false,Rx,0,6,B5,FF,16,00,D7,03,00,00
1756490194861248,00000288,false,Rx,0,6,00,00,00,00,00,00,00,00
1756490194861364,00000488,false,Rx,0,8,08,27,55,00,53,01,8A,00
1756490194863615,00000193,false,Rx,0,6,14,00,15,00,39,FD,00,00
1756490194865513,00000194,false,Rx,0,6,14,00,0A,00,FC,FF,00,00
1756490194869027,00000213,false,Rx,0,4,08,00,90,FF,00,00,00,00
1756490194869202,00000214,false,Rx,0,4,08,00,70,00,00,00,00,00
1756490194871324,00000188,false,Rx,0,6,B0,FF,13,00,E3,03,00,00
1756490194871457,00000288,false,Rx,0,6,00,00,00,00,00,00,00,00
1756490194871573,00000488,false,Rx,0,8,08,27,55,00,53,01,8A,00
1756490194873445,00000193,false,Rx,0,6,14,00,EA,FF,44,FD,00,00
1756490194875331,00000194,false,Rx,0,6,14,00,09,00,01,00,00,00
1756490194878931,00000213,false,Rx,0,4,08,00,94,FF,00,00,00,00
1756490194879022,00000214,false,Rx,0,4,08,00,6C,00,00,00,00,00
1756490194881519,00000188,false,Rx,0,6,BC,FF,19,00,F4,03,00,00
1756490194881663,00000288,false,Rx,0,6,00,00,00,00,00,00,00,00
1756490194881785,00000488,false,Rx,0,8,08,27,55,00,53,01,8A,00
1756490194883272,00000193,false,Rx,0,6,14,00,F2,FF,49,FD,00,00
1756490194885149,00000194,false,Rx,0,6,14,00,09,00,00,00,00,00
1756490194886299,00000701,false,Rx,0,1,05,00,00,00,00,00,00,00
1756490194889940,00000213,false,Rx,0,4,08,00,98,FF,00,00,00,00
1756490194890045,00000214,false,Rx,0,4,08,00,68,00,00,00,00,00
1756490194891711,00000188,false,Rx,0,6,B7,FF,0E,00,EB,03,00,00
1756490194891850,00000288,false,Rx,0,6,00,00,00,00,00,00,00,00
1756490194891969,00000488,false,Rx,0,8,08,27,55,00,53,01,8A,00
1756490194893098,00000193,false,Rx,0,6,14,00,04,00,58,FD,00,00
1756490194894977,00000194,false,Rx,0,6,14,00,08,00,FF,FF,00,00
1756490194896568,00000181,false,Rx,0,8,68,10,00,EA,02,00,00,00
1756490194899843,00000213,false,Rx,0,4,08,00,9B,FF,00,00,00,00
1756490194899934,00000214,false,Rx,0,4,08,00,65,00,00,00,00,00
1756490194901915,00000188,false,Rx,0,6,B1,FF,17,00,CE,03,00,00
1756490194902053,00000288,false,Rx,0,6,00,00,00,00,00,00,00,00
1756490194902168,00000488,false,Rx,0,8,08,27,55,00,53,01,8A,00
