Time Stamp,ID,Extended,Dir,Bus,LEN,D1,D2,D3,D4,D5,D6,D7,D8,D9,D10,D11,D12
1756488013222848,00000420,false,Rx,0,1,01,00,00,00,00,00,00,00
1756488013222989,00000188,false,Rx,0,6,BB,FF,12,00,E1,03,00,00
1756488013223062,00000288,false,Rx,0,6,00,00,00,00,00,00,00,00
1756488013223353,00000181,false,Rx,0,8,A0,0F,00,E9,03,0D,09,08
1756488013224089,00000488,false,Rx,0,8,0A,27,51,00,4C,01,0C,00
1756488013225216,00000194,false,Rx,0,6,12,00,00,00,00,00,00,00
1756488013227687,00000213,false,Rx,0,4,08,00,00,00,00,00,00,00
1756488013228279,00000193,false,Rx,0,6,14,00,EF,FF,FD,FF,00,00
1756488013228798,00000214,false,Rx,0,4,08,00,00,00,00,00,00,00
1756488013233022,00000188,false,Rx,0,6,B8,FF,12,00,E0,03,00,00
1756488013234171,00000288,false,Rx,0,6,00,00,00,00,00,00,00,00
1756488013234979,00000488,false,Rx,0,8,0A,27,51,00,4C,01,0C,00
1756488013235100,00000194,false,Rx,0,6,14,00,FE,FF,FE,FF,00,00
1756488013235458,00000181,false,Rx,0,8,04,10,00,E9,02,0D,09,08
1756488013238124,00000193,false,Rx,0,6,14,00,03,00,01,00,00,00
1756488013238710,00000213,false,Rx,0,4,08,00,00,00,00,00,00,00
1756488013239855,00000214,false,Rx,0,4,08,00,00,00,00,00,00,00
1756488013244976,00000188,false,Rx,0,6,BB,FF,12,00,E0,03,00,00
1756488013245376,00000288,false,Rx,0,6,00,00,00,00,00,00,00,00
1756488013245451,00000194,false,Rx,0,6,14,00,06,00,03,00,00,00
1756488013245561,00000488,false,Rx,0,8,0A,27,52,00,4C,01,0C,00
1756488013246636,00000710,false,Rx,0,1,7F,00,00,00,00,00,00,00
1756488013248113,00000193,false,Rx,0,6,14,00,FF,FF,06,00,00,00
1756488013248768,00000290,false,Rx,0,7,01,E8,00,0D,A7,06,00,00
1756488013249153,00000490,false,Rx,0,5,5B,00,00,00,00,00,00,00
1756488013249291,00000181,false,Rx,0,8,04,10,00,E9,02,0D,09,08
1756488013249362,00000400,false,Rx,0,8,CB,C9,E8,0E,0A,B4,6F,48
1756488013249425,00000401,false,Rx,0,2,00,00,00,00,00,00,00,00
1756488013249890,00000410,false,Rx,0,8,00,00,00,00,00,00,00,00
1756488013250014,00000213,false,Rx,0,4,08,00,00,00,00,00,00,00
1756488013250266,00000411,false,Rx,0,8,00,00,00,00,00,00,00,00
1756488013250650,00000412,false,Rx,0,8,00,00,00,00,00,00,00,00
1756488013251179,00000413,false,Rx,0,8,00,00,00,00,00,00,00,00
1756488013252560,00000214,false,Rx,0,4,08,00,00,00,00,00,00,00
1756488013253573,00000414,false,Rx,0,8,00,00,00,00,00,00,00,00
1756488013253897,00000701,false,Rx,0,1,05,00,00,00,00,00,00,00
1756488013253983,00000415,false,Rx,0,8,00,00,00,00,00,00,00,00
1756488013254049,00000416,false,Rx,0,8,00,00,00,00,00,00,00,00
1756488013254111,00000417,false,Rx,0,8,00,00,00,00,00,00,00,00
1756488013254171,00000418,false,Rx,0,8,00,00,00,00,00,00,00,00
1756488013254234,00000419,false,Rx,0,8,00,00,00,00,00,00,00,00
1756488013254452,00000402,false,Rx,0,8,FA,FF,FF,FF,00,00,00,00
1756488013254654,00000188,false,Rx,0,6,C2,FF,0D,00,F0,03,00,00
1756488013254916,00000288,false,Rx,0,6,00,00,00,00,00,00,00,00
1756488013255040,00000403,false,Rx,0,8,00,00,00,00,00,00,00,00
1756488013255262,00000194,false,Rx,0,6,14,00,01,00,03,00,00,00
1756488013255693,00000404,false,Rx,0,8,00,00,00,00,00,00,00,00
1756488013256080,00000405,false,Rx,0,8,00,00,00,00,00,00,00,00
1756488013256934,00000488,false,Rx,0,8,0A,27,52,00,4C,01,0C,00
1756488013257157,00000406,false,Rx,0,8,00,00,00,00,00,00,00,00
1756488013257269,00000407,false,Rx,0,8,00,00,00,00,00,00,00,00
1756488013257350,00000408,false,Rx,0,8,06,00,00,00,00,00,00,00
1756488013257882,00000193,false,Rx,0,6,14,00,FC,FF,00,00,00,00
1756488013260891,00000213,false,Rx,0,4,08,00,00,00,00,00,00,00
1756488013261992,00000181,false,Rx,0,8,04,10,00,E9,02,0D,09,08
1756488013263113,00000214,false,Rx,0,4,08,00,00,00,00,00,00,00
1756488013264720,00000194,false,Rx,0,6,14,00,03,00,00,00,00,00
1756488013264913,00000188,false,Rx,0,6,BD,FF,0C,00,EA,03,00,00
1756488013265006,00000288,false,Rx,0,6,00,00,00,00,00,00,00,00
1756488013266359,00000488,false,Rx,0,8,0A,27,51,00,4C,01,0C,00
1756488013267619,00000193,false,Rx,0,6,14,00,0B,00,03,00,00,00
1756488013271873,00000213,false,Rx,0,4,08,00,00,00,00,00,00,00
1756488013274085,00000214,false,Rx,0,4,08,00,00,00,00,00,00,00
1756488013274423,00000194,false,Rx,0,6,14,00,05,00,04,00,00,00
1756488013274614,00000188,false,Rx,0,6,C2,FF,09,00,F2,03,00,00
1756488013274678,00000288,false,Rx,0,6,00,00,00,00,00,00,00,00
1756488013276623,00000488,false,Rx,0,8,0A,27,51,00,4C,01,0C,00
1756488013277386,00000393,false,Rx,0,6,05,01,D5,01,0F,01,00,00
1756488013277490,00000293,false,Rx,0,4,86,A3,00,00,00,00,00,00
1756488013277627,00000713,false,Rx,0,1,05,00,00,00,00,00,00,00
1756488013277799,00000733,false,Rx,0,8,03,6F,12,03,3B,A3,00,05
1756488013277864,00000193,false,Rx,0,6,14,00,F3,FF,FD,FF,00,00
1756488013282868,00000213,false,Rx,0,4,08,00,00,00,00,00,00,00
1756488013284191,00000394,false,Rx,0,6,55,05,CD,01,1F,01,00,00
1756488013284373,00000294,false,Rx,0,4,44,A3,71,00,00,00,00,00
1756488013284491,00000714,false,Rx,0,1,05,00,00,00,00,00,00,00
1756488013284623,00000734,false,Rx,0,8,08,00,00,80,3F,A3,71,05
1756488013284725,00000194,false,Rx,0,6,14,00,17,00,01,00,00,00
1756488013284992,00000188,false,Rx,0,6,BE,FF,12,00,E8,03,00,00
1756488013285145,00000288,false,Rx,0,6,00,00,00,00,00,00,00,00
1756488013285207,00000214,false,Rx,0,4,08,00,00,00,00,00,00,00
1756488013286931,00000488,false,Rx,0,8,0A,27,51,00,4C,01,0C,00
1756488013287233,00000193,false,Rx,0,6,14,00,FA,FF,02,00,00,00
1756488013292906,00000181,false,Rx,0,8,A0,0F,00,E9,02,0D,09,08
1756488013293924,00000213,false,Rx,0,4,08,00,00,00,00,00,00,00
1756488013294058,00000194,false,Rx,0,6,14,00,00,00,00,00,00,00
1756488013295159,00000188,false,Rx,0,6,B7,FF,10,00,DD,03,00,00
1756488013295302,00000288,false,Rx,0,6,00,00,00,00,00,00,00,00
1756488013296214,00000214,false,Rx,0,4,08,00,00,00,00,00,00,00
1756488013297097,00000193,false,Rx,0,6,14,00,F3,FF,FF,FF,00,00
1756488013297232,00000488,false,Rx,0,8,0A,27,51,00,4C,01,0C,00
1756488013303914,00000194,false,Rx,0,6,14,00,07,00,FF,FF,00,00
1756488013305449,00000188,false,Rx,0,6,BE,FF,13,00,ED,03,00,00
1756488013305607,00000288,false,Rx,0,6,00,00,00,00,00,00,00,00
1756488013306082,00000181,false,Rx,0,8,04,10,00,E9,02,0D,09,08
1756488013306193,00000213,false,Rx,0,4,08,00,00,00,00,00,00,00
1756488013306914,00000193,false,Rx,0,6,14,00,03,00,03,00,00,00
1756488013307172,00000214,false,Rx,0,4,08,00,00,00,00,00,00,00
1756488013307540,00000488,false,Rx,0,8,0A,27,51,00,4C,01,0C,00
1756488013313761,00000194,false,Rx,0,6,14,00,09,00,02,00,00,00
1756488013316382,00000188,false,Rx,0,6,BC,FF,09,00,EF,03,00,00
1756488013316512,00000288,false,Rx,0,6,00,00,00,00,00,00,00,00
1756488013316719,00000193,false,Rx,0,6,14,00,10,00,01,00,00,00
1756488013317069,00000488,false,Rx,0,8,0A,27,51,00,4D,01,0C,00
1756488013317193,00000213,false,Rx,0,4,08,00,00,00,00,00,00,00
1756488013318227,00000214,false,Rx,0,4,08,00,00,00,00,00,00,00
1756488013323610,00000194,false,Rx,0,6,14,00,0F,00,01,00,00,00
1756488013326551,00000188,false,Rx,0,6,BD,FF,18,00,D4,03,00,00
1756488013326738,00000193,false,Rx,0,6,14,00,02,00,04,00,00,00
1756488013326805,00000288,false,Rx,0,6,00,00,00,00,00,00,00,00
1756488013327388,00000488,false,Rx,0,8,0A,27,52,00,4D,01,0C,00
1756488013328069,00000213,false,Rx,0,4,08,00,00,00,00,00,00,00
1756488013329211,00000214,false,Rx,0,4,08,00,00,00,00,00,00,00
1756488013333372,00000194,false,Rx,0,6,14,00,0D,00,04,00,00,00
1756488013336449,00000193,false,Rx,0,6,14,00,0E,00,FD,FF,00,00
1756488013336848,00000188,false,Rx,0,6,C2,FF,0F,00,E6,03,00,00
1756488013336971,00000288,false,Rx,0,6,00,00,00,00,00,00,00,00
1756488013337685,00000488,false,Rx,0,8,0A,27,51,00,4D,01,0C,00
1756488013339052,00000213,false,Rx,0,4,08,00,00,00,00,00,00,00
1756488013340176,00000214,false,Rx,0,4,08,00,00,00,00,00,00,00
1756488013343209,00000194,false,Rx,0,6,14,00,01,00,FF,FF,00,00
1756488013343483,00000181,false,Rx,0,8,A0,0F,00,E9,02,0D,09,08
1756488013346284,00000193,false,Rx,0,6,14,00,07,00,FF,FF,00,00
1756488013346525,00000710,false,Rx,0,1,7F,00,00,00,00,00,00,00
1756488013347149,00000188,false,Rx,0,6,BF,FF,10,00,F4,03,00,00
1756488013347280,00000288,false,Rx,0,6,00,00,00,00,00,00,00,00
1756488013347983,00000488,false,Rx,0,8,0A,27,52,00,4D,01,0C,00
1756488013350065,00000213,false,Rx,0,4,08,00,00,00,00,00,00,00
1756488013351217,00000214,false,Rx,0,4,08,00,00,00,00,00,00,00
1756488013351849,00000701,false,Rx,0,1,05,00,00,00,00,00,00,00
1756488013353003,00000194,false,Rx,0,6,14,00,0E,00,01,00,00,00
1756488013355584,00000181,false,Rx,0,8,04,10,00,E9,02,0D,09,08
1756488013356061,00000193,false,Rx,0,6,14,00,FF,FF,02,00,00,00
1756488013357602,00000188,false,Rx,0,6,BC,FF,12,00,DB,03,00,00
1756488013357712,00000288,false,Rx,0,6,00,00,00,00,00,00,00,00
1756488013359404,00000488,false,Rx,0,8,0A,27,52,00,4D,01,0C,00
1756488013361050,00000213,false,Rx,0,4,08,00,00,00,00,00,00,00
1756488013362195,00000214,false,Rx,0,4,08,00,00,00,00,00,00,00
1756488013362867,00000194,false,Rx,0,6,14,00,12,00,FD,FF,00,00
1756488013365886,00000193,false,Rx,0,6,14,00,F8,FF,00,00,00,00
1756488013369397,00000188,false,Rx,0,6,C0,FF,0E,00,F2,03,00,00
1756488013369501,00000288,false,Rx,0,6,00,00,00,00,00,00,00,00
1756488013371417,00000488,false,Rx,0,8,0A,27,52,00,4D,01,0C,00
1756488013372080,00000213,false,Rx,0,4,08,00,00,00,00,00,00,00
1756488013372642,00000194,false,Rx,0,6,14,00,0A,00,FF,FF,00,00
1756488013373179,00000181,false,Rx,0,8,A0,0F,00,E9,02,0D,09,08
1756488013373281,00000214,false,Rx,0,4,08,00,00,00,00,00,00,00
1756488013375869,00000393,false,Rx,0,6,05,01,C5,01,0F,01,00,00
1756488013376069,00000293,false,Rx,0,4,8F,A3,00,00,00,00,00,00
1756488013376160,00000713,false,Rx,0,1,05,00,00,00,00,00,00,00
1756488013376219,00000733,false,Rx,0,8,04,8F,C2,F5,3F,A3,00,05
1756488013376371,00000193,false,Rx,0,6,14,00,01,00,04,00,00,00
1756488013379421,00000188,false,Rx,0,6,BF,FF,11,00,E6,03,00,00
1756488013379561,00000288,false,Rx,0,6,00,00,00,00,00,00,00,00
1756488013381585,00000488,false,Rx,0,8,0A,27,52,00,4D,01,0C,00
1756488013382447,00000394,false,Rx,0,6,55,05,CD,01,28,01,00,00
1756488013382556,00000294,false,Rx,0,4,FC,A2,24,00,00,00,00,00
1756488013382657,00000714,false,Rx,0,1,05,00,00,00,00,00,00,00
1756488013382754,00000734,false,Rx,0,8,09,00,00,00,00,A2,24,05
1756488013382872,00000194,false,Rx,0,6,14,00,09,00,00,00,00,00
1756488013383114,00000213,false,Rx,0,4,08,00,00,00,00,00,00,00
1756488013384159,00000214,false,Rx,0,4,08,00,00,00,00,00,00,00
1756488013385532,00000193,false,Rx,0,6,14,00,01,00,FE,FF,00,00
1756488013386404,00000181,false,Rx,0,8,04,10,00,E9,02,0D,09,08
1756488013389418,00000188,false,Rx,0,6,C3,FF,08,00,ED,03,00,00
1756488013389562,00000288,false,Rx,0,6,00,00,00,00,00,00,00,00
1756488013391460,00000488,false,Rx,0,8,0A,27,52,00,4C,01,0C,00
1756488013392292,00000194,false,Rx,0,6,14,00,13,00,FE,FF,00,00
1756488013394080,00000213,false,Rx,0,4,08,00,00,00,00,00,00,00
1756488013395347,00000193,false,Rx,0,6,14,00,FF,FF,02,00,00,00
1756488013396347,00000214,false,Rx,0,4,08,00,00,00,00,00,00,00
1756488013399595,00000181,false,Rx,0,8,A0,0F,00,E9,02,0D,09,08
1756488013399767,00000188,false,Rx,0,6,C0,FF,0A,00,E0,03,00,00
1756488013399831,00000288,false,Rx,0,6,00,00,00,00,00,00,00,00
1756488013401616,00000488,false,Rx,0,8,0A,27,52,00,4C,01,0C,00
1756488013402118,00000194,false,Rx,0,6,14,00,13,00,FF,FF,00,00
1756488013405067,00000213,false,Rx,0,4,08,00,00,00,00,00,00,00
1756488013405192,00000193,false,Rx,0,6,14,00,FD,FF,FE,FF,00,00
1756488013407271,00000214,false,Rx,0,4,08,00,00,00,00,00,00,00
1756488013409860,00000188,false,Rx,0,6,B9,FF,12,00,DE,03,00,00
1756488013409987,00000288,false,Rx,0,6,00,00,00,00,00,00,00,00
1756488013411713,00000181,false,Rx,0,8,04,10,00,E9,02,0D,09,08
1756488013411838,00000488,false,Rx,0,8,0A,27,52,00,4C,01,0C,00
1756488013411956,00000194,false,Rx,0,6,14,00,11,00,00,00,00,00
1756488013415000,00000193,false,Rx,0,6,14,00,FE,FF,FF,FF,00,00
1756488013416088,00000213,false,Rx,0,4,08,00,00,00,00,00,00,00
1756488013418277,00000214,false,Rx,0,4,08,00,00,00,00,00,00,00
1756488013420157,00000188,false,Rx,0,6,C2,FF,0D,00,F2,03,00,00
1756488013420279,00000288,false,Rx,0,6,00,00,00,00,00,00,00,00
1756488013421775,00000194,false,Rx,0,6,14,00,0E,00,05,00,00,00
1756488013421900,00000488,false,Rx,0,8,0A,27,52,00,4C,01,0C,00
1756488013424847,00000193,false,Rx,0,6,14,00,01,00,01,00,00,00
1756488013428183,00000213,false,Rx,0,4,08,00,00,00,00,00,00,00
1756488013429281,00000214,false,Rx,0,4,08,00,00,00,00,00,00,00
1756488013430367,00000188,false,Rx,0,6,C2,FF,08,00,E3,03,00,00
1756488013430506,00000288,false,Rx,0,6,00,00,00,00,00,00,00,00
1756488013431603,00000194,false,Rx,0,6,14,00,0C,00,02,00,00,00
1756488013432210,00000488,false,Rx,0,8,0A,27,51,00,4C,01,0C,00
1756488013434654,00000193,false,Rx,0,6,14,00,FE,FF,01,00,00,00
1756488013439191,00000213,false,Rx,0,4,08,00,00,00,00,00,00,00
1756488013440289,00000214,false,Rx,0,4,08,00,00,00,00,00,00,00
1756488013441310,00000188,false,Rx,0,6,B0,FF,1A,00,DA,03,00,00
1756488013441415,00000288,false,Rx,0,6,00,00,00,00,00,00,00,00
1756488013441546,00000194,false,Rx,0,6,14,00,14,00,07,00,00,00
1756488013442781,00000488,false,Rx,0,8,0A,27,51,00,4C,01,0C,00
1756488013443641,00000181,false,Rx,0,8,04,10,00,E9,02,0D,09,08
1756488013444479,00000193,false,Rx,0,6,14,00,04,00,01,00,00,00
1756488013446540,00000710,false,Rx,0,1,7F,00,00,00,00,00,00,00
1756488013448542,00000290,false,Rx,0,7,01,E8,00,0D,A7,06,00,00
1756488013448646,00000490,false,Rx,0,5,5B,00,00,00,00,00,00,00
1756488013450189,00000213,false,Rx,0,4,08,00,00,00,00,00,00,00
1756488013451234,00000194,false,Rx,0,6,14,00,0A,00,02,00,00,00
1756488013451338,00000214,false,Rx,0,4,08,00,00,00,00,00,00,00
1756488013451457,00000188,false,Rx,0,6,B9,FF,13,00,E9,03,00,00
1756488013451573,00000288,false,Rx,0,6,00,00,00,00,00,00,00,00
1756488013452086,00000701,false,Rx,0,1,05,00,00,00,00,00,00,00
1756488013452975,00000488,false,Rx,0,8,0A,27,52,00,4C,01,0C,00
1756488013454309,00000193,false,Rx,0,6,14,00,07,00,01,00,00,00
1756488013456824,00000181,false,Rx,0,8,04,10,00,E9,02,0D,09,08
1756488013461084,00000194,false,Rx,0,6,14,00,00,00,03,00,00,00
1756488013461210,00000213,false,Rx,0,4,08,00,00,00,00,00,00,00
1756488013461730,00000188,false,Rx,0,6,BF,FF,11,00,EE,03,00,00
1756488013461846,00000288,false,Rx,0,6,00,00,00,00,00,00,00,00
1756488013462319,00000214,false,Rx,0,4,08,00,00,00,00,00,00,00
1756488013464132,00000193,false,Rx,0,6,14,00,0D,00,02,00,00,00
1756488013464254,00000488,false,Rx,0,8,0A,27,52,00,4D,01,0C,00
1756488013470938,00000194,false,Rx,0,6,14,00,17,00,04,00,00,00
1756488013471406,00000188,false,Rx,0,6,C1,FF,0E,00,E0,03,00,00
1756488013471524,00000288,false,Rx,0,6,00,00,00,00,00,00,00,00
1756488013472245,00000213,false,Rx,0,4,08,00,00,00,00,00,00,00
1756488013473317,00000181,false,Rx,0,8,A0,0F,00,E9,03,0D,09,08
1756488013473421,00000214,false,Rx,0,4,08,00,00,00,00,00,00,00
1756488013473939,00000393,false,Rx,0,6,05,01,C5,01,0F,01,00,00
1756488013474048,00000293,false,Rx,0,4,81,A3,00,00,00,00,00,00
1756488013474146,00000713,false,Rx,0,1,05,00,00,00,00,00,00,00
1756488013474247,00000733,false,Rx,0,8,05,00,00,C0,3F,A3,00,05
1756488013474348,00000193,false,Rx,0,6,14,00,0D,00,00,00,00,00
1756488013474446,00000488,false,Rx,0,8,0A,27,52,00,4D,01,0C,00
1756488013480743,00000394,false,Rx,0,6,55,05,CD,01,1F,01,00,00
1756488013480907,00000294,false,Rx,0,4,30,A3,49,00,00,00,00,00
1756488013481015,00000714,false,Rx,0,1,05,00,00,00,00,00,00,00
1756488013481139,00000734,false,Rx,0,8,01,9A,99,19,40,A3,49,05
1756488013481200,00000194,false,Rx,0,6,14,00,FF,FF,03,00,00,00
1756488013481629,00000188,false,Rx,0,6,C1,FF,06,00,F1,03,00,00
1756488013481746,00000288,false,Rx,0,6,00,00,00,00,00,00,00,00
1756488013483206,00000213,false,Rx,0,4,08,00,00,00,00,00,00,00
1756488013483786,00000193,false,Rx,0,6,14,00,09,00,02,00,00,00
1756488013484322,00000214,false,Rx,0,4,08,00,00,00,00,00,00,00
1756488013484441,00000488,false,Rx,0,8,0A,27,52,00,4D,01,0C,00
1756488013486540,00000181,false,Rx,0,8,04,10,00,E9,03,0D,09,08
1756488013490567,00000194,false,Rx,0,6,14,00,FF,FF,03,00,00,00
1756488013491827,00000188,false,Rx,0,6,B6,FF,1A,00,E1,03,00,00
1756488013491951,00000288,false,Rx,0,6,00,00,00,00,00,00,00,00
1756488013493621,00000193,false,Rx,0,6,14,00,F4,FF,FD,FF,00,00
1756488013494251,00000213,false,Rx,0,4,08,00,00,00,00,00,00,00
1756488013494637,00000488,false,Rx,0,8,0A,27,52,00,4D,01,0C,00
1756488013495402,00000214,false,Rx,0,4,08,00,00,00,00,00,00,00
1756488013500407,00000194,false,Rx,0,6,14,00,0B,00,04,00,00,00
1756488013502039,00000188,false,Rx,0,6,C0,FF,10,00,E5,03,00,00
1756488013502169,00000288,false,Rx,0,6,00,00,00,00,00,00,00,00
1756488013503443,00000193,false,Rx,0,6,14,00,F8,FF,07,00,00,00
1756488013504843,00000488,false,Rx,0,8,0A,27,52,00,4D,01,0C,00
1756488013505241,00000213,false,Rx,0,4,08,00,00,00,00,00,00,00
1756488013506322,00000214,false,Rx,0,4,08,00,00,00,00,00,00,00
1756488013510234,00000194,false,Rx,0,6,14,00,0D,00,FF,FF,00,00
1756488013512229,00000188,false,Rx,0,6,C6,FF,0D,00,EE,03,00,00
1756488013512354,00000288,false,Rx,0,6,00,00,00,00,00,00,00,00
1756488013512995,00000181,false,Rx,0,8,A0,0F,00,E9,02,0C,09,07
1756488013513263,00000193,false,Rx,0,6,14,00,FD,FF,02,00,00,00
1756488013515044,00000488,false,Rx,0,8,0A,27,52,00,4D,01,0C,00
1756488013516251,00000213,false,Rx,0,4,08,00,00,00,00,00,00,00
1756488013518422,00000214,false,Rx,0,4,08,00,00,00,00,00,00,00
1756488013520047,00000194,false,Rx,0,6,14,00,05,00,F9,FF,00,00
1756488013522433,00000188,false,Rx,0,6,BC,FF,0F,00,E1,03,00,00
1756488013522556,00000288,false,Rx,0,6,00,00,00,00,00,00,00,00
1756488013523094,00000193,false,Rx,0,6,14,00,0A,00,01,00,00,00
1756488013525258,00000488,false,Rx,0,8,0A,27,52,00,4D,01,0C,00
1756488013526203,00000181,false,Rx,0,8,04,10,00,E9,02,0C,09,07
1756488013527230,00000213,false,Rx,0,4,08,00,00,00,00,00,00,00
1756488013529432,00000214,false,Rx,0,4,08,00,00,00,00,00,00,00
1756488013529870,00000194,false,Rx,0,6,14,00,03,00,FD,FF,00,00
1756488013532628,00000188,false,Rx,0,6,C0,FF,17,00,E1,03,00,00
1756488013532785,00000288,false,Rx,0,6,00,00,00,00,00,00,00,00
1756488013532921,00000193,false,Rx,0,6,14,00,F5,FF,FF,FF,00,00
1756488013535442,00000488,false,Rx,0,8,0A,27,52,00,4C,01,0C,00
1756488013538233,00000213,false,Rx,0,4,08,00,00,00,00,00,00,00
1756488013539698,00000194,false,Rx,0,6,14,00,14,00,FE,FF,00,00
1756488013540452,00000214,false,Rx,0,4,08,00,00,00,00,00,00,00
1756488013542741,00000193,false,Rx,0,6,14,00,F7,FF,FC,FF,00,00
1756488013542851,00000188,false,Rx,0,6,C3,FF,05,00,F0,03,00,00
1756488013542969,00000288,false,Rx,0,6,00,00,00,00,00,00,00,00
1756488013545643,00000488,false,Rx,0,8,0A,27,52,00,4C,01,0C,00
1756488013549556,00000194,false,Rx,0,6,14,00,0E,00,FF,FF,00,00
1756488013550355,00000213,false,Rx,0,4,08,00,00,00,00,00,00,00
1756488013551438,00000214,false,Rx,0,4,08,00,00,00,00,00,00,00
1756488013552307,00000701,false,Rx,0,1,05,00,00,00,00,00,00,00
1756488013552453,00000710,false,Rx,0,1,7F,00,00,00,00,00,00,00
1756488013552566,00000193,false,Rx,0,6,14,00,FF,FF,03,00,00,00
1756488013553025,00000188,false,Rx,0,6,BE,FF,14,00,DA,03,00,00
1756488013553146,00000288,false,Rx,0,6,00,00,00,00,00,00,00,00
1756488013556458,00000488,false,Rx,0,8,0A,27,52,00,4C,01,0C,00
1756488013559373,00000194,false,Rx,0,6,14,00,FF,FF,FF,FF,00,00
1756488013561343,00000213,false,Rx,0,4,08,00,00,00,00,00,00,00
1756488013562389,00000193,false,Rx,0,6,14,00,F2,FF,FC,FF,00,00
1756488013562499,00000214,false,Rx,0,4,08,00,00,00,00,00,00,00
1756488013562619,00000188,false,Rx,0,6,C9,FF,0C,00,EE,03,00,00
1756488013562735,00000288,false,Rx,0,6,00,00,00,00,00,00,00,00
1756488013566645,00000488,false,Rx,0,8,0A,27,52,00,4C,01,0C,00
1756488013569185,00000194,false,Rx,0,6,14,00,14,00,01,00,00,00
1756488013572214,00000393,false,Rx,0,6,05,01,C5,01,0F,01,00,00
1756488013572319,00000293,false,Rx,0,4,A9,A3,00,00,00,00,00,00
1756488013572396,00000213,false,Rx,0,4,08,00,00,00,00,00,00,00
1756488013572492,00000713,false,Rx,0,1,05,00,00,00,00,00,00,00
1756488013572588,00000733,false,Rx,0,8,06,6F,12,03,3B,A3,00,05
1756488013572688,00000193,false,Rx,0,6,14,00,F3,FF,00,00,00,00
1756488013572810,00000188,false,Rx,0,6,C0,FF,16,00,E6,03,00,00
1756488013572935,00000288,false,Rx,0,6,00,00,00,00,00,00,00,00
1756488013573532,00000214,false,Rx,0,4,08,00,00,00,00,00,00,00
1756488013576851,00000488,false,Rx,0,8,0A,27,52,00,4C,01,0C,00
1756488013578992,00000394,false,Rx,0,6,55,05,CD,01,16,01,00,00
1756488013579097,00000294,false,Rx,0,4,1B,A3,E0,FF,00,00,00,00
1756488013579205,00000714,false,Rx,0,1,05,00,00,00,00,00,00,00
1756488013579303,00000734,false,Rx,0,8,02,00,00,C0,3F,A3,E0,05
1756488013579420,00000194,false,Rx,0,6,14,00,02,00,FF,FF,00,00
1756488013580686,00000190,false,Rx,0,8,00,CA,CA,CA,CA,CA,CA,CA
1756488013580810,00000190,false,Rx,0,8,07,CA,CA,CA,CB,CA,CA,CB
1756488013580914,00000190,false,Rx,0,8,15,CA,CA,CA,CA,CA,CA,CA
1756488013581022,00000190,false,Rx,0,8,1C,CA,CA,CA,CA,CA,CA,CA
1756488013581141,00000190,false,Rx,0,8,23,CA,CA,CA,CA,CA,CA,CA
1756488013581259,00000190,false,Rx,0,8,0E,CA,CA,CA,CA,CA,CA,CA
1756488013581376,00000190,false,Rx,0,8,2A,CA,CA,CA,CA,CA,CA,CA
1756488013581566,00000190,false,Rx,0,8,31,CA,CA,CA,CA,CA,CA,CA
1756488013581669,00000190,false,Rx,0,8,3F,CA,CA,CA,CA,CB,CA,CA
1756488013581771,00000190,false,Rx,0,8,46,CA,CA,CB,CA,CA,CA,CB
1756488013581890,00000190,false,Rx,0,8,38,CA,CA,CA,CA,CA,CA,C9
1756488013582008,00000190,false,Rx,0,8,4D,CA,CB,CB,CB,CB,CA,CA
1756488013582130,00000190,false,Rx,0,8,54,CB,CA,CB,CA,CB,CA,CA
1756488013582236,00000190,false,Rx,0,8,62,CA,C9,CA,CA,CA,CA,CA
1756488013582334,00000190,false,Rx,0,8,5B,CA,CA,CA,CA,CA,CA,CB
1756488013582393,00000193,false,Rx,0,6,14,00,F6,FF,00,00,00,00
1756488013583024,00000188,false,Rx,0,6,BA,FF,0E,00,D4,03,00,00
1756488013583141,00000288,false,Rx,0,6,00,00,00,00,00,00,00,00
1756488013583513,00000213,false,Rx,0,4,08,00,00,00,00,00,00,00
1756488013584555,00000214,false,Rx,0,4,08,00,00,00,00,00,00,00
1756488013587044,00000488,false,Rx,0,8,0A,27,52,00,4C,01,0C,00
1756488013588844,00000194,false,Rx,0,6,14,00,09,00,03,00,00,00
1756488013591889,00000193,false,Rx,0,6,14,00,06,00,00,00,00,00
1756488013594222,00000188,false,Rx,0,6,C0,FF,1B,00,F4,03,00,00
1756488013594373,00000288,false,Rx,0,6,00,00,00,00,00,00,00,00
1756488013594489,00000213,false,Rx,0,4,08,00,00,00,00,00,00,00
1756488013595561,00000214,false,Rx,0,4,08,00,00,00,00,00,00,00
1756488013597221,00000488,false,Rx,0,8,0A,27,52,00,4C,01,0C,00
1756488013598642,00000390,false,Rx,0,8,00,3D,3D,3D,3D,3D,3D,3D
1756488013598746,00000194,false,Rx,0,6,14,00,07,00,00,00,00,00
1756488013598845,00000390,false,Rx,0,8,15,3D,3D,3D,3D,3D,3D,3D
1756488013598963,00000390,false,Rx,0,8,1C,3D,3D,3D,3D,3D,3D,3D
1756488013599081,00000390,false,Rx,0,8,23,3D,3D,3D,3D,3D,3D,3D
1756488013599199,00000390,false,Rx,0,8,0E,3D,3D,3D,3D,3D,3D,3D
1756488013599317,00000390,false,Rx,0,8,2A,3D,3D,3D,3D,3D,3D,3D
1756488013599434,00000390,false,Rx,0,8,31,3D,3D,3D,3D,3D,3D,3D
1756488013599537,00000390,false,Rx,0,8,3F,3D,3D,3D,3D,3D,3D,3D
1756488013599639,00000390,false,Rx,0,8,38,3D,3D,3D,3D,3D,3D,3D
1756488013599756,00000390,false,Rx,0,8,46,3D,3D,3D,3D,3D,3D,3D
1756488013599877,00000390,false,Rx,0,8,4D,3D,3D,3D,3D,3D,3D,3D
1756488013599995,00000390,false,Rx,0,8,5B,3D,3D,3D,3D,3D,3D,3D
1756488013600113,00000390,false,Rx,0,8,62,3D,3D,3D,3D,3D,3D,3D
1756488013600230,00000390,false,Rx,0,8,54,3D,3D,3D,3D,3D,3D,3D
1756488013600349,00000390,false,Rx,0,8,69,3D,3D,3D,3D,3D,3D,3D
1756488013600446,00000390,false,Rx,0,8,70,3D,3D,3D,3D,3D,3D,3D
1756488013600544,00000390,false,Rx,0,8,7E,3C,3C,3D,3D,3D,3D,3D
1756488013600665,00000390,false,Rx,0,8,77,3D,3C,3C,3C,3C,3C,3C
1756488013600791,00000390,false,Rx,0,8,85,3D,3D,3D,13,13,13,13
1756488013600909,00000390,false,Rx,0,8,8C,13,13,13,13,3D,3D,3D
1756488013601026,00000390,false,Rx,0,8,9A,3D,3D,3D,3D,3D,3D,13
1756488013601124,00000390,false,Rx,0,8,A1,13,13,13,13,13,13,13
1756488013601223,00000390,false,Rx,0,8,93,3D,3D,3D,3D,3D,3D,3D
1756488013601341,00000390,false,Rx,0,8,A8,13,13,13,13,13,13,13
1756488013601459,00000390,false,Rx,0,8,AF,13,13,13,13,13,13,13
1756488013601597,00000390,false,Rx,0,8,BD,3D,3D,3D,13,13,13,13
1756488013601736,00000390,false,Rx,0,8,B6,13,13,3D,3D,3D,3D,3D
1756488013601857,00000193,false,Rx,0,6,14,00,09,00,FA,FF,00,00
1756488013601983,00000390,false,Rx,0,8,CB,3D,3D,3D,3D,3D,13,13
1756488013602211,00000390,false,Rx,0,8,D2,13,13,13,13,13,13,3C
1756488013602273,00000390,false,Rx,0,8,D9,3C,3C,3C,3C,3C,3C,3C
1756488013604317,00000188,false,Rx,0,6,B9,FF,0B,00,FB,03,00,00
1756488013604468,00000288,false,Rx,0,6,00,00,00,00,00,00,00,00
1756488013605494,00000213,false,Rx,0,4,08,00,00,00,00,00,00,00
1756488013606565,00000214,false,Rx,0,4,08,00,00,00,00,00,00,00
1756488013607518,00000488,false,Rx,0,8,0A,27,52,00,4C,01,0C,00
1756488013608490,00000194,false,Rx,0,6,14,00,13,00,01,00,00,00
1756488013611543,00000193,false,Rx,0,6,14,00,FD,FF,FC,FF,00,00
1756488013614539,00000188,false,Rx,0,6,B8,FF,16,00,D5,03,00,00
1756488013614771,00000288,false,Rx,0,6,00,00,00,00,00,00,00,00
1756488013616467,00000213,false,Rx,0,4,08,00,00,00,00,00,00,00
1756488013617576,00000214,false,Rx,0,4,08,00,00,00,00,00,00,00
1756488013617814,00000488,false,Rx,0,8,0A,27,52,00,4C,01,0C,00
1756488013618317,00000194,false,Rx,0,6,14,00,FD,FF,03,00,00,00
1756488013621367,00000193,false,Rx,0,6,14,00,FE,FF,FA,FF,00,00
1756488013624860,00000188,false,Rx,0,6,B9,FF,0E,00,D7,03,00,00
1756488013625068,00000288,false,Rx,0,6,00,00,00,00,00,00,00,00
1756488013627476,00000213,false,Rx,0,4,08,00,00,00,00,00,00,00
1756488013628122,00000488,false,Rx,0,8,0A,27,52,00,4C,01,0C,00
1756488013628242,00000194,false,Rx,0,6,14,00,18,00,03,00,00,00
1756488013628613,00000214,false,Rx,0,4,08,00,00,00,00,00,00,00
1756488013631200,00000193,false,Rx,0,6,14,00,05,00,FE,FF,00,00
1756488013635130,00000188,false,Rx,0,6,BC,FF,09,00,F1,03,00,00
1756488013635362,00000288,false,Rx,0,6,00,00,00,00,00,00,00,00
1756488013637977,00000194,false,Rx,0,6,14,00,FD,FF,01,00,00,00
1756488013638488,00000213,false,Rx,0,4,08,00,00,00,00,00,00,00
1756488013639475,00000488,false,Rx,0,8,0A,27,52,00,4D,01,0C,00
1756488013639578,00000214,false,Rx,0,4,08,00,00,00,00,00,00,00
1756488013641021,00000193,false,Rx,0,6,14,00,FD,FF,03,00,00,00
1756488013642911,00000181,false,Rx,0,8,A0,0F,00,E9,02,0C,09,07
1756488013644421,00000188,false,Rx,0,6,BD,FF,0F,00,E4,03,00,00
1756488013644663,00000288,false,Rx,0,6,00,00,00,00,00,00,00,00
1756488013647803,00000194,false,Rx,0,6,14,00,00,00,FD,FF,00,00
1756488013648507,00000290,false,Rx,0,7,01,E8,00,0D,A7,06,00,00
1756488013648613,00000490,false,Rx,0,5,5B,00,00,00,00,00,00,00
1756488013649552,00000213,false,Rx,0,4,08,00,00,00,00,00,00,00
1756488013649842,00000488,false,Rx,0,8,0A,27,52,00,4D,01,0C,00
1756488013650855,00000193,false,Rx,0,6,14,00,FF,FF,01,00,00,00
1756488013651699,00000214,false,Rx,0,4,08,00,00,00,00,00,00,00
1756488013652551,00000701,false,Rx,0,1,05,00,00,00,00,00,00,00
1756488013654724,00000188,false,Rx,0,6,C0,FF,02,00,F2,03,00,00
1756488013654963,00000288,false,Rx,0,6,00,00,00,00,00,00,00,00
1756488013656144,00000181,false,Rx,0,8,04,10,00,E9,02,0C,09,07
1756488013657628,00000194,false,Rx,0,6,14,00,05,00,FE,FF,00,00
1756488013660016,00000710,false,Rx,0,1,7F,00,00,00,00,00,00,00
1756488013660139,00000488,false,Rx,0,8,0A,27,51,00,4D,01,0C,00
1756488013660545,00000213,false,Rx,0,4,08,00,00,00,00,00,00,00
1756488013660671,00000193,false,Rx,0,6,14,00,FC,FF,01,00,00,00
1756488013662697,00000214,false,Rx,0,4,08,00,00,00,00,00,00,00
1756488013665020,00000188,false,Rx,0,6,BE,FF,0B,00,DB,03,00,00
1756488013665264,00000288,false,Rx,0,6,00,00,00,00,00,00,00,00
1756488013667457,00000194,false,Rx,0,6,14,00,FF,FF,FC,FF,00,00
1756488013670519,00000488,false,Rx,0,8,0A,27,51,00,4D,01,0C,00
1756488013670634,00000393,false,Rx,0,6,05,01,C5,01,0F,01,00,00
1756488013670736,00000293,false,Rx,0,4,B6,A3,00,00,00,00,00,00
1756488013670836,00000713,false,Rx,0,1,05,00,00,00,00,00,00,00
1756488013670931,00000733,false,Rx,0,8,07,00,00,80,3F,A3,00,05
1756488013670991,00000193,false,Rx,0,6,14,00,0C,00,F7,FF,00,00
1756488013671586,00000213,false,Rx,0,4,08,00,00,00,00,00,00,00
1756488013672734,00000181,false,Rx,0,8,04,10,00,E9,02,0C,08,07
1756488013673801,00000214,false,Rx,0,4,08,00,00,00,00,00,00,00
1756488013675336,00000188,false,Rx,0,6,BA,FF,11,00,E8,03,00,00
1756488013675563,00000288,false,Rx,0,6,00,00,00,00,00,00,00,00
1756488013677261,00000394,false,Rx,0,6,58,05,CD,01,0E,01,00,00
1756488013677372,00000294,false,Rx,0,4,0E,A3,38,00,00,00,00,00
1756488013677477,00000714,false,Rx,0,1,05,00,00,00,00,00,00,00
1756488013677597,00000734,false,Rx,0,8,03,6F,12,03,3B,A3,38,05
1756488013677717,00000194,false,Rx,0,6,14,00,01,00,FC,FF,00,00
1756488013680342,00000193,false,Rx,0,6,14,00,00,00,00,00,00,00
1756488013680736,00000488,false,Rx,0,8,0A,27,51,00,4D,01,0C,00
1756488013682600,00000213,false,Rx,0,4,08,00,00,00,00,00,00,00
1756488013684803,00000214,false,Rx,0,4,08,00,00,00,00,00,00,00
1756488013685628,00000188,false,Rx,0,6,BC,FF,0D,00,F0,03,00,00
1756488013686488,00000288,false,Rx,0,6,00,00,00,00,00,00,00,00
1756488013687130,00000194,false,Rx,0,6,14,00,FE,FF,FC,FF,00,00
1756488013690173,00000193,false,Rx,0,6,14,00,FF,FF,00,00,00,00
1756488013691636,00000488,false,Rx,0,8,0A,27,51,00,4D,01,0C,00
1756488013693651,00000181,false,Rx,0,8,04,10,00,E9,02,0C,08,07
1756488013694705,00000213,false,Rx,0,4,08,00,00,00,00,00,00,00
1756488013695809,00000214,false,Rx,0,4,08,00,00,00,00,00,00,00
1756488013696523,00000188,false,Rx,0,6,BD,FF,1A,00,E0,03,00,00
1756488013696798,00000288,false,Rx,0,6,00,00,00,00,00,00,00,00
1756488013696932,00000194,false,Rx,0,6,14,00,10,00,FD,FF,00,00
1756488013699990,00000193,false,Rx,0,6,14,00,05,00,04,00,00,00
1756488013701933,00000488,false,Rx,0,8,0A,27,51,00,4D,01,0C,00
1756488013705722,00000213,false,Rx,0,4,08,00,00,00,00,00,00,00
1756488013706766,00000194,false,Rx,0,6,14,00,FE,FF,FC,FF,00,00
1756488013706874,00000181,false,Rx,0,8,A0,0F,00,E9,02,0C,08,07
1756488013706974,00000188,false,Rx,0,6,C1,FF,13,00,EE,03,00,00
1756488013707072,00000214,false,Rx,0,4,08,00,00,00,00,00,00,00
1756488013707170,00000288,false,Rx,0,6,00,00,00,00,00,00,00,00
1756488013709822,00000193,false,Rx,0,6,14,00,0B,00,02,00,00,00
1756488013712236,00000488,false,Rx,0,8,0A,27,52,00,4D,01,0C,00
1756488013716599,00000194,false,Rx,0,6,14,00,04,00,00,00,00,00
1756488013716724,00000213,false,Rx,0,4,08,00,00,00,00,00,00,00
1756488013717121,00000188,false,Rx,0,6,BC,FF,16,00,E6,03,00,00
1756488013717362,00000288,false,Rx,0,6,00,00,00,00,00,00,00,00
1756488013717849,00000214,false,Rx,0,4,08,00,00,00,00,00,00,00
1756488013718954,00000181,false,Rx,0,8,04,10,00,E9,02,0C,08,07
1756488013719643,00000193,false,Rx,0,6,14,00,06,00,03,00,00,00
1756488013722540,00000488,false,Rx,0,8,0A,27,52,00,4D,01,0C,00
1756488013726442,00000194,false,Rx,0,6,14,00,00,00,FD,FF,00,00
1756488013727426,00000188,false,Rx,0,6,BD,FF,1B,00,E1,03,00,00
1756488013727649,00000288,false,Rx,0,6,00,00,00,00,00,00,00,00
1756488013727748,00000213,false,Rx,0,4,08,00,00,00,00,00,00,00
1756488013728846,00000214,false,Rx,0,4,08,00,00,00,00,00,00,00
1756488013729483,00000193,false,Rx,0,6,14,00,05,00,FE,FF,00,00
1756488013732168,00000181,false,Rx,0,8,04,10,00,E9,02,0B,08,06
1756488013732838,00000488,false,Rx,0,8,0A,27,52,00,4D,01,0C,00
1756488013736248,00000194,false,Rx,0,6,14,00,15,00,FF,FF,00,00
1756488013737729,00000188,false,Rx,0,6,C1,FF,0E,00,EE,03,00,00
1756488013737971,00000288,false,Rx,0,6,00,00,00,00,00,00,00,00
1756488013738765,00000213,false,Rx,0,4,08,00,00,00,00,00,00,00
1756488013739297,00000193,false,Rx,0,6,14,00,FF,FF,FC,FF,00,00
1756488013739845,00000214,false,Rx,0,4,08,00,00,00,00,00,00,00
1756488013743138,00000488,false,Rx,0,8,0A,27,52,00,4D,01,0C,00
1756488013745366,00000181,false,Rx,0,8,04,10,00,E9,02,0B,07,06
1756488013746076,00000194,false,Rx,0,6,14,00,00,00,02,00,00,00
1756488013748027,00000188,false,Rx,0,6,BB,FF,12,00,E5,03,00,00
1756488013749123,00000193,false,Rx,0,6,14,00,05,00,00,00,00,00
1756488013749440,00000288,false,Rx,0,6,00,00,00,00,00,00,00,00
1756488013749765,00000213,false,Rx,0,4,08,00,00,00,00,00,00,00
1756488013750832,00000214,false,Rx,0,4,08,00,00,00,00,00,00,00
1756488013752801,00000701,false,Rx,0,1,05,00,00,00,00,00,00,00
1756488013754344,00000488,false,Rx,0,8,0A,27,52,00,4D,01,0C,00
1756488013755896,00000194,false,Rx,0,6,14,00,0D,00,03,00,00,00
1756488013757402,00000188,false,Rx,0,6,BB,FF,0F,00,EC,03,00,00
1756488013757714,00000288,false,Rx,0,6,00,00,00,00,00,00,00,00
1756488013758618,00000181,false,Rx,0,8,04,10,00,E9,02,0A,07,06
1756488013758958,00000193,false,Rx,0,6,14,00,FF,FF,02,00,00,00
1756488013760736,00000213,false,Rx,0,4,08,00,00,00,00,00,00,00
1756488013761840,00000214,false,Rx,0,4,08,00,00,00,00,00,00,00
1756488013764663,00000488,false,Rx,0,8,0A,27,52,00,4D,01,0C,00
1756488013765732,00000194,false,Rx,0,6,14,00,FD,FF,FF,FF,00,00
1756488013767702,00000188,false,Rx,0,6,C0,FF,0A,00,EC,03,00,00
1756488013767952,00000288,false,Rx,0,6,00,00,00,00,00,00,00,00
1756488013768061,00000710,false,Rx,0,1,7F,00,00,00,00,00,00,00
1756488013768754,00000393,false,Rx,0,6,05,01,D5,01,0F,01,00,00
1756488013768853,00000293,false,Rx,0,4,A0,A3,00,00,00,00,00,00
1756488013768953,00000713,false,Rx,0,1,05,00,00,00,00,00,00,00
1756488013769058,00000733,false,Rx,0,8,08,00,00,80,3F,A3,00,05
1756488013769182,00000193,false,Rx,0,6,14,00,FC,FF,04,00,00,00
1756488013771760,00000181,false,Rx,0,8,A0,0F,00,E9,02,0A,07,06
1756488013771863,00000213,false,Rx,0,4,08,00,00,00,00,00,00,00
1756488013772845,00000214,false,Rx,0,4,08,00,00,00,00,00,00,00
1756488013774963,00000488,false,Rx,0,8,0A,27,52,00,4D,01,0C,00
1756488013775536,00000394,false,Rx,0,6,58,05,CD,01,16,01,00,00
1756488013775636,00000294,false,Rx,0,4,23,A3,04,00,00,00,00,00
1756488013775732,00000714,false,Rx,0,1,05,00,00,00,00,00,00,00
1756488013775835,00000734,false,Rx,0,8,04,8F,C2,F5,3F,A3,04,05
1756488013775952,00000194,false,Rx,0,6,14,00,0F,00,03,00,00,00
1756488013778000,00000188,false,Rx,0,6,B8,FF,12,00,E8,03,00,00
1756488013778267,00000288,false,Rx,0,6,00,00,00,00,00,00,00,00
1756488013778608,00000193,false,Rx,0,6,14,00,FC,FF,01,00,00,00
1756488013782850,00000213,false,Rx,0,4,08,00,00,00,00,00,00,00
1756488013783951,00000214,false,Rx,0,4,08,00,00,00,00,00,00,00
1756488013785117,00000181,false,Rx,0,8,04,10,00,E9,02,09,06,05
1756488013785252,00000488,false,Rx,0,8,0A,27,52,00,4D,01,0C,00
1756488013785373,00000194,false,Rx,0,6,14,00,FD,FF,FD,FF,00,00
1756488013788437,00000193,false,Rx,0,6,14,00,0D,00,FF,FF,00,00
1756488013789476,00000188,false,Rx,0,6,C5,FF,10,00,E5,03,00,00
1756488013789601,00000288,false,Rx,0,6,00,00,00,00,00,00,00,00
1756488013793864,00000213,false,Rx,0,4,08,00,00,00,00,00,00,00
1756488013795210,00000194,false,Rx,0,6,14,00,0F,00,FF,FF,00,00
1756488013796074,00000214,false,Rx,0,4,08,00,00,00,00,00,00,00
1756488013796555,00000488,false,Rx,0,8,0A,27,52,00,4D,01,0C,00
1756488013798266,00000193,false,Rx,0,6,14,00,03,00,FE,FF,00,00
1756488013798387,00000181,false,Rx,0,8,04,10,00,E9,02,09,06,05
1756488013799537,00000188,false,Rx,0,6,BD,FF,08,00,DD,03,00,00
1756488013799659,00000288,false,Rx,0,6,00,00,00,00,00,00,00,00
1756488013804895,00000213,false,Rx,0,4,08,00,00,00,00,00,00,00
1756488013805038,00000194,false,Rx,0,6,14,00,FF,FF,03,00,00,00
1756488013806751,00000488,false,Rx,0,8,0A,27,52,00,4D,01,0C,00
1756488013807088,00000214,false,Rx,0,4,08,00,00,00,00,00,00,00
1756488013808089,00000193,false,Rx,0,6,14,00,FE,FF,FF,FF,00,00
1756488013809841,00000188,false,Rx,0,6,BC,FF,12,00,E9,03,00,00
1756488013809963,00000288,false,Rx,0,6,00,00,00,00,00,00,00,00
