Time Stamp,ID,Extended,Dir,Bus,LEN,D1,D2,D3,D4,D5,D6,D7,D8,D9,D10,D11,D12
1756490859886520,00000281,false,Rx,0,1,60,00,00,00,00,00,00,00
1756490859891538,00000188,false,Rx,0,6,B7,FF,12,00,E6,03,00,00
1756490859891644,00000194,false,Rx,0,6,14,00,FB,FF,00,00,00,00
1756490859892436,00000288,false,Rx,0,6,00,00,00,00,00,00,00,00
1756490859892566,00000488,false,Rx,0,8,08,27,55,00,52,01,88,00
1756490859893816,00000213,false,Rx,0,4,08,00,00,00,00,00,00,00
1756490859893947,00000193,false,Rx,0,6,14,00,06,00,00,00,00,00
1756490859894905,00000214,false,Rx,0,4,08,00,00,00,00,00,00,00
1756490859901438,00000194,false,Rx,0,6,14,00,F8,FF,03,00,00,00
1756490859901553,00000213,false,Rx,0,4,08,00,00,00,00,00,00,00
1756490859902525,00000188,false,Rx,0,6,C5,FF,0E,00,F8,03,00,00
1756490859902651,00000288,false,Rx,0,6,00,00,00,00,00,00,00,00
1756490859902865,00000488,false,Rx,0,8,08,27,55,00,52,01,88,00
1756490859903780,00000193,false,Rx,0,6,14,00,00,00,00,00,00,00
1756490859904808,00000214,false,Rx,0,4,08,00,00,00,00,00,00,00
1756490859910287,00000213,false,Rx,0,4,08,00,00,00,00,00,00,00
1756490859911453,00000194,false,Rx,0,6,14,00,04,00,01,00,00,00
1756490859912836,00000188,false,Rx,0,6,B6,FF,1B,00,D4,03,00,00
1756490859912976,00000288,false,Rx,0,6,00,00,00,00,00,00,00,00
1756490859913173,00000488,false,Rx,0,8,08,27,55,00,52,01,88,00
1756490859913589,00000193,false,Rx,0,6,14,00,0A,00,00,00,00,00
1756490859914742,00000214,false,Rx,0,4,08,00,00,00,00,00,00,00
1756490859918001,00000213,false,Rx,0,4,08,00,00,00,00,00,00,00
1756490859921429,00000394,false,Rx,0,6,5F,05,DD,01,1F,01,00,00
1756490859921540,00000294,false,Rx,0,4,BB,A1,9D,00,00,00,00,00
1756490859921639,00000714,false,Rx,0,1,05,00,00,00,00,00,00,00
1756490859921735,00000734,false,Rx,0,8,01,9A,99,19,40,A1,9D,05
1756490859921854,00000194,false,Rx,0,6,14,00,04,00,01,00,00,00
1756490859923278,00000188,false,Rx,0,6,BE,FF,0A,00,E7,03,00,00
1756490859923428,00000288,false,Rx,0,6,00,00,00,00,00,00,00,00
1756490859923577,00000393,false,Rx,0,6,15,01,D5,01,17,01,00,00
1756490859923696,00000293,false,Rx,0,4,2E,A2,00,00,00,00,00,00
1756490859923811,00000488,false,Rx,0,8,08,27,55,00,52,01,88,00
1756490859923920,00000713,false,Rx,0,1,05,00,00,00,00,00,00,00
1756490859923978,00000733,false,Rx,0,8,01,9A,99,19,40,A2,00,05
1756490859924039,00000193,false,Rx,0,6,14,00,0D,00,FD,FF,00,00
1756490859925917,00000213,false,Rx,0,4,08,00,00,00,00,00,00,00
1756490859926031,00000214,false,Rx,0,4,08,00,00,00,00,00,00,00
1756490859931539,00000194,false,Rx,0,6,14,00,EF,FF,02,00,00,00
1756490859933416,00000193,false,Rx,0,6,14,00,F2,FF,03,00,00,00
1756490859933678,00000188,false,Rx,0,6,C9,FF,0F,00,FA,03,00,00
1756490859933841,00000288,false,Rx,0,6,00,00,00,00,00,00,00,00
1756490859933906,00000488,false,Rx,0,8,08,27,55,00,52,01,88,00
1756490859935922,00000213,false,Rx,0,4,08,00,00,00,00,00,00,00
1756490859936030,00000214,false,Rx,0,4,08,00,00,00,00,00,00,00
1756490859941461,00000194,false,Rx,0,6,14,00,FF,FF,02,00,00,00
1756490859943090,00000193,false,Rx,0,6,14,00,ED,FF,03,00,00,00
1756490859943743,00000188,false,Rx,0,6,BD,FF,0F,00,E0,03,00,00
1756490859943870,00000288,false,Rx,0,6,00,00,00,00,00,00,00,00
1756490859944069,00000488,false,Rx,0,8,08,27,55,00,52,01,88,00
1756490859945187,00000190,false,Rx,0,8,00,C9,C9,C9,C9,C9,C9,C9
1756490859945297,00000190,false,Rx,0,8,07,C9,C9,C9,C9,C9,C9,C9
1756490859945469,00000190,false,Rx,0,8,15,C9,C9,C9,C9,C9,C9,C9
1756490859945602,00000190,false,Rx,0,8,1C,C9,C8,C8,C9,C9,C9,C9
1756490859945722,00000190,false,Rx,0,8,23,C9,C9,C8,C9,C9,C9,C9
1756490859945840,00000190,false,Rx,0,8,0E,C9,C8,C9,C9,C9,C9,C9
1756490859945939,00000190,false,Rx,0,8,2A,C9,C9,C8,C9,C9,C9,C9
1756490859946038,00000190,false,Rx,0,8,31,C9,C9,C9,C9,C9,C9,C9
1756490859946156,00000190,false,Rx,0,8,3F,C9,C9,C9,C9,C9,C9,C9
1756490859946273,00000190,false,Rx,0,8,46,C9,C9,C9,C9,C9,C9,C9
1756490859946391,00000190,false,Rx,0,8,38,C9,C9,C9,C8,C9,C9,C7
1756490859946508,00000190,false,Rx,0,8,4D,C9,C9,C9,C9,C9,C9,C9
1756490859946634,00000190,false,Rx,0,8,54,C9,C9,C9,C9,C9,C9,C9
1756490859946743,00000190,false,Rx,0,8,62,C9,C7,C9,C9,C9,C9,C9
1756490859946844,00000190,false,Rx,0,8,5B,C9,C9,C9,C9,C9,C9,C9
1756490859946960,00000213,false,Rx,0,4,08,00,00,00,00,00,00,00
1756490859947017,00000214,false,Rx,0,4,08,00,00,00,00,00,00,00
1756490859950145,00000390,false,Rx,0,8,00,3D,3D,3D,3D,3D,3D,3D
1756490859950313,00000390,false,Rx,0,8,07,3D,3D,3D,3D,3D,3D,3D
1756490859950435,00000390,false,Rx,0,8,15,3D,3D,3D,3D,3D,3D,3D
1756490859950536,00000390,false,Rx,0,8,1C,3D,3D,3D,3D,3D,3D,3D
1756490859950636,00000390,false,Rx,0,8,23,3D,3D,3D,3D,3D,3D,3D
1756490859950754,00000390,false,Rx,0,8,0E,3D,3D,3D,3D,3D,3D,3D
1756490859950873,00000390,false,Rx,0,8,2A,3D,3D,3D,3D,3D,3D,3D
1756490859950991,00000390,false,Rx,0,8,31,3D,3D,3D,3D,3D,3D,3D
1756490859951113,00000390,false,Rx,0,8,3F,3D,3D,3D,3D,3D,3D,3D
1756490859951268,00000390,false,Rx,0,8,46,3D,3D,3D,3D,3D,3D,3D
1756490859951461,00000390,false,Rx,0,8,38,3D,3D,3D,3D,3D,3D,3D
1756490859951568,00000390,false,Rx,0,8,4D,3D,3D,3D,3D,3D,3D,3D
1756490859951668,00000194,false,Rx,0,6,14,00,F8,FF,01,00,00,00
1756490859951787,00000390,false,Rx,0,8,62,13,13,13,13,13,13,3D
1756490859951904,00000390,false,Rx,0,8,69,3D,3D,3D,3D,3D,3D,3D
1756490859952022,00000390,false,Rx,0,8,70,3D,3D,3D,3D,3D,3D,3D
1756490859952140,00000390,false,Rx,0,8,77,3D,3D,3D,3D,3D,3D,3D
1756490859952257,00000390,false,Rx,0,8,7E,3D,3D,3D,3D,3D,3D,3D
1756490859952356,00000390,false,Rx,0,8,5B,3D,3D,3D,3D,3D,13,13
1756490859952457,00000390,false,Rx,0,8,85,3D,3D,3D,13,13,13,13
1756490859952589,00000390,false,Rx,0,8,8C,13,13,13,13,3C,3C,3C
1756490859952723,00000390,false,Rx,0,8,9A,3D,3D,3D,3D,3D,3D,13
1756490859952822,00000390,false,Rx,0,8,A1,13,13,13,13,13,13,13
1756490859952922,00000390,false,Rx,0,8,93,3C,3C,3C,3C,3C,3D,3D
1756490859953040,00000390,false,Rx,0,8,A8,13,13,13,13,13,13,13
1756490859953160,00000193,false,Rx,0,6,14,00,02,00,00,00,00,00
1756490859953278,00000390,false,Rx,0,8,BD,3C,3C,3C,3D,3D,3D,3D
1756490859953377,00000390,false,Rx,0,8,C4,3D,3D,3D,3D,3D,3D,3D
1756490859953476,00000390,false,Rx,0,8,CB,3D,3D,3D,3D,3D,3D,3D
1756490859953593,00000390,false,Rx,0,8,D2,3D,3D,3D,3D,3D,3D,3D
1756490859953652,00000390,false,Rx,0,8,D9,3D,3D,3D,3D,3D,3D,3D
1756490859953714,00000390,false,Rx,0,8,B6,3D,3D,3C,3C,3C,3C,3C
1756490859954039,00000188,false,Rx,0,6,B7,FF,19,00,CE,03,00,00
1756490859954980,00000710,false,Rx,0,1,7F,00,00,00,00,00,00,00
1756490859955147,00000288,false,Rx,0,6,00,00,00,00,00,00,00,00
1756490859955284,00000488,false,Rx,0,8,08,27,55,00,52,01,88,00
1756490859955613,00000213,false,Rx,0,4,08,00,00,00,00,00,00,00
1756490859955709,00000214,false,Rx,0,4,08,00,00,00,00,00,00,00
1756490859959902,00000701,false,Rx,0,1,05,00,00,00,00,00,00,00
1756490859961444,00000194,false,Rx,0,6,14,00,F7,FF,FD,FF,00,00
1756490859962735,00000193,false,Rx,0,6,14,00,FB,FF,01,00,00,00
1756490859965144,00000188,false,Rx,0,6,C0,FF,17,00,ED,03,00,00
1756490859965271,00000288,false,Rx,0,6,00,00,00,00,00,00,00,00
1756490859965393,00000488,false,Rx,0,8,08,27,55,00,52,01,88,00
1756490859966592,00000213,false,Rx,0,4,08,00,00,00,00,00,00,00
1756490859966700,00000214,false,Rx,0,4,08,00,00,00,00,00,00,00
1756490859971446,00000194,false,Rx,0,6,14,00,03,00,FF,FF,00,00
1756490859972567,00000193,false,Rx,0,6,14,00,F7,FF,04,00,00,00
1756490859975352,00000188,false,Rx,0,6,B7,FF,13,00,C3,03,00,00
1756490859975484,00000288,false,Rx,0,6,00,00,00,00,00,00,00,00
1756490859975602,00000488,false,Rx,0,8,08,27,55,00,52,01,88,00
1756490859976546,00000213,false,Rx,0,4,08,00,00,00,00,00,00,00
1756490859976650,00000214,false,Rx,0,4,08,00,00,00,00,00,00,00
1756490859979884,00000181,false,Rx,0,8,68,10,00,E9,02,00,00,00
1756490859981447,00000194,false,Rx,0,6,14,00,04,00,FF,FF,00,00
1756490859982390,00000193,false,Rx,0,6,14,00,FC,FF,03,00,00,00
1756490859985568,00000188,false,Rx,0,6,C6,FF,15,00,EA,03,00,00
1756490859985700,00000288,false,Rx,0,6,00,00,00,00,00,00,00,00
1756490859985821,00000488,false,Rx,0,8,08,27,55,00,52,01,88,00
1756490859986458,00000213,false,Rx,0,4,08,00,00,00,00,00,00,00
1756490859986702,00000214,false,Rx,0,4,08,00,00,00,00,00,00,00
1756490859991485,00000194,false,Rx,0,6,14,00,F7,FF,FE,FF,00,00
1756490859992222,00000193,false,Rx,0,6,14,00,05,00,FE,FF,00,00
1756490859993085,00000181,false,Rx,0,8,04,10,00,EA,02,00,00,00
1756490859995755,00000188,false,Rx,0,6,C7,FF,08,00,FD,03,00,00
1756490859995963,00000288,false,Rx,0,6,00,00,00,00,00,00,00,00
1756490859996028,00000488,false,Rx,0,8,08,27,55,00,52,01,88,00
1756490859996357,00000213,false,Rx,0,4,08,00,00,00,00,00,00,00
1756490859996457,00000214,false,Rx,0,4,08,00,00,00,00,00,00,00
1756490860001447,00000194,false,Rx,0,6,14,00,F8,FF,FF,FF,00,00
1756490860002046,00000193,false,Rx,0,6,14,00,EB,FF,02,00,00,00
1756490860005083,00000290,false,Rx,0,7,01,E8,00,00,00,00,00,00
1756490860005194,00000490,false,Rx,0,5,64,00,00,00,00,00,00,00
1756490860005958,00000188,false,Rx,0,6,B9,FF,12,00,D3,03,00,00
1756490860006078,00000288,false,Rx,0,6,00,00,00,00,00,00,00,00
1756490860006193,00000488,false,Rx,0,8,08,27,55,00,52,01,88,00
1756490860007346,00000213,false,Rx,0,4,08,00,00,00,00,00,00,00
1756490860007456,00000214,false,Rx,0,4,08,00,00,00,00,00,00,00
1756490860009570,00000181,false,Rx,0,8,04,10,00,E9,02,00,00,00
1756490860011448,00000194,false,Rx,0,6,14,00,F5,FF,FF,FF,00,00
1756490860011861,00000193,false,Rx,0,6,14,00,E8,FF,01,00,00,00
1756490860016166,00000188,false,Rx,0,6,B7,FF,12,00,D8,03,00,00
1756490860016293,00000288,false,Rx,0,6,00,00,00,00,00,00,00,00
1756490860016410,00000488,false,Rx,0,8,08,27,55,00,52,01,88,00
1756490860017277,00000213,false,Rx,0,4,08,00,00,00,00,00,00,00
1756490860017381,00000214,false,Rx,0,4,08,00,00,00,00,00,00,00
1756490860021427,00000394,false,Rx,0,6,62,05,DD,01,1F,01,00,00
1756490860021616,00000294,false,Rx,0,4,18,A2,5D,00,00,00,00,00
1756490860021741,00000714,false,Rx,0,1,05,00,00,00,00,00,00,00
1756490860021856,00000734,false,Rx,0,8,02,00,00,C0,3F,A2,5D,05
1756490860022016,00000194,false,Rx,0,6,14,00,F4,FF,00,00,00,00
1756490860022176,00000393,false,Rx,0,6,15,01,D5,01,17,01,00,00
1756490860022302,00000293,false,Rx,0,4,30,A2,00,00,00,00,00,00
1756490860022363,00000733,false,Rx,0,8,02,00,00,C0,3F,A2,00,05
1756490860022423,00000004,false,Rx,0,8,00,01,00,00,00,00,00,00
1756490860022484,00000193,false,Rx,0,6,14,00,E2,FF,02,00,00,00
1756490860023019,00000181,false,Rx,0,8,04,10,00,EA,02,00,00,00
1756490860026496,00000188,false,Rx,0,6,C4,FF,0C,00,01,04,00,00
1756490860026660,00000288,false,Rx,0,6,00,00,00,00,00,00,00,00
1756490860026726,00000488,false,Rx,0,8,08,27,55,00,52,01,88,00
1756490860027467,00000213,false,Rx,0,4,08,00,00,00,00,00,00,00
1756490860027552,00000214,false,Rx,0,4,08,00,00,00,00,00,00,00
1756490860031596,00000194,false,Rx,0,6,14,00,FF,FF,00,00,00,00
1756490860031722,00000193,false,Rx,0,6,14,00,FC,FF,FA,FF,00,00
1756490860036280,00000181,false,Rx,0,8,68,10,00,E9,02,00,00,00
1756490860036551,00000188,false,Rx,0,6,BB,FF,15,00,E6,03,00,00
1756490860037472,00000288,false,Rx,0,6,00,00,00,00,00,00,00,00
1756490860037553,00000488,false,Rx,0,8,08,27,55,00,52,01,88,00
1756490860038378,00000213,false,Rx,0,4,08,00,00,00,00,00,00,00
1756490860038492,00000214,false,Rx,0,4,08,00,00,00,00,00,00,00
1756490860041474,00000193,false,Rx,0,6,14,00,01,00,FD,FF,00,00
1756490860041607,00000194,false,Rx,0,6,14,00,F7,FF,01,00,00,00
1756490860047662,00000188,false,Rx,0,6,C7,FF,0E,00,FF,03,00,00
1756490860047801,00000288,false,Rx,0,6,00,00,00,00,00,00,00,00
1756490860047867,00000488,false,Rx,0,8,08,27,55,00,52,01,88,00
1756490860048415,00000213,false,Rx,0,4,08,00,00,00,00,00,00,00
1756490860048513,00000214,false,Rx,0,4,08,00,00,00,00,00,00,00
1756490860049556,00000181,false,Rx,0,8,68,10,00,E9,02,00,00,00
1756490860051431,00000193,false,Rx,0,6,14,00,F5,FF,00,00,00,00
1756490860051550,00000194,false,Rx,0,6,14,00,F9,FF,01,00,00,00
1756490860055113,00000710,false,Rx,0,1,7F,00,00,00,00,00,00,00
1756490860057743,00000188,false,Rx,0,6,BE,FF,0E,00,DF,03,00,00
1756490860057940,00000288,false,Rx,0,6,00,00,00,00,00,00,00,00
1756490860058005,00000488,false,Rx,0,8,08,27,55,00,52,01,88,00
1756490860058887,00000213,false,Rx,0,4,08,00,00,00,00,00,00,00
1756490860059597,00000214,false,Rx,0,4,08,00,00,00,00,00,00,00
1756490860060438,00000701,false,Rx,0,1,05,00,00,00,00,00,00,00
1756490860061111,00000193,false,Rx,0,6,14,00,F3,FF,FB,FF,00,00
1756490860061675,00000194,false,Rx,0,6,14,00,FC,FF,FF,FF,00,00
1756490860061780,00000181,false,Rx,0,8,04,10,00,EA,02,00,00,00
1756490860068303,00000188,false,Rx,0,6,B1,FF,1C,00,CC,03,00,00
1756490860068501,00000288,false,Rx,0,6,00,00,00,00,00,00,00,00
1756490860068570,00000213,false,Rx,0,4,08,00,00,00,00,00,00,00
1756490860068629,00000214,false,Rx,0,4,08,00,00,00,00,00,00,00
1756490860068688,00000488,false,Rx,0,8,08,27,55,00,52,01,88,00
1756490860071079,00000193,false,Rx,0,6,14,00,FA,FF,FA,FF,00,00
1756490860071492,00000194,false,Rx,0,6,14,00,F2,FF,02,00,00,00
1756490860074977,00000181,false,Rx,0,8,68,10,00,EA,02,00,00,00
1756490860078439,00000188,false,Rx,0,6,C6,FF,11,00,F1,03,00,00
1756490860078621,00000288,false,Rx,0,6,00,00,00,00,00,00,00,00
1756490860078709,00000488,false,Rx,0,8,08,27,55,00,52,01,88,00
1756490860079389,00000213,false,Rx,0,4,08,00,00,00,00,00,00,00
1756490860079524,00000214,false,Rx,0,4,08,00,00,00,00,00,00,00
1756490860080856,00000193,false,Rx,0,6,14,00,F8,FF,FE,FF,00,00
1756490860081527,00000194,false,Rx,0,6,14,00,F7,FF,FF,FF,00,00
1756490860088782,00000181,false,Rx,0,8,04,10,00,E9,02,00,00,00
1756490860089408,00000188,false,Rx,0,6,C4,FF,11,00,F9,03,00,00
1756490860089589,00000288,false,Rx,0,6,00,00,00,00,00,00,00,00
1756490860089678,00000488,false,Rx,0,8,08,27,55,00,52,01,88,00
1756490860089754,00000213,false,Rx,0,4,08,00,00,00,00,00,00,00
1756490860089839,00000214,false,Rx,0,4,08,00,00,00,00,00,00,00
1756490860090907,00000193,false,Rx,0,6,14,00,F7,FF,FF,FF,00,00
1756490860091680,00000194,false,Rx,0,6,14,00,F9,FF,01,00,00,00
1756490860095488,00000400,false,Rx,0,8,FB,C8,E8,0E,D3,B0,6F,48
1756490860096412,00000401,false,Rx,0,2,23,00,00,00,00,00,00,00
1756490860096692,00000410,false,Rx,0,8,59,A8,35,CD,3B,4E,31,40
1756490860096815,00000411,false,Rx,0,8,00,00,00,00,00,00,00,00
1756490860096902,00000412,false,Rx,0,8,00,00,00,00,00,00,00,00
1756490860096974,00000413,false,Rx,0,8,00,00,00,00,00,00,00,00
1756490860097045,00000414,false,Rx,0,8,59,A8,35,CD,3B,4E,31,40
1756490860099108,00000188,false,Rx,0,6,B6,FF,13,00,D0,03,00,00
1756490860099415,00000288,false,Rx,0,6,00,00,00,00,00,00,00,00
1756490860099561,00000213,false,Rx,0,4,08,00,00,00,00,00,00,00
1756490860099656,00000214,false,Rx,0,4,08,00,00,00,00,00,00,00
1756490860099740,00000415,false,Rx,0,8,00,00,00,00,00,00,00,00
1756490860099828,00000416,false,Rx,0,8,00,00,00,00,00,00,00,00
1756490860102274,00000417,false,Rx,0,8,00,00,00,00,00,00,00,00
1756490860102515,00000193,false,Rx,0,6,14,00,08,00,FD,FF,00,00
1756490860102670,00000488,false,Rx,0,8,08,27,55,00,52,01,88,00
1756490860102783,00000418,false,Rx,0,8,59,A8,35,CD,3B,4E,71,40
1756490860102898,00000419,false,Rx,0,8,01,00,00,00,00,00,00,00
1756490860103000,00000181,false,Rx,0,8,68,10,00,E9,02,00,00,00
1756490860103089,00000194,false,Rx,0,6,14,00,FC,FF,01,00,00,00
1756490860103601,00000400,false,Rx,0,8,FB,C8,E8,0E,D3,B0,6F,48
1756490860103833,00000401,false,Rx,0,2,00,00,00,00,00,00,00,00
1756490860103976,00000410,false,Rx,0,8,00,00,00,00,00,00,00,00
1756490860104102,00000411,false,Rx,0,8,00,00,00,00,00,00,00,00
1756490860104212,00000412,false,Rx,0,8,00,00,00,00,00,00,00,00
1756490860104330,00000413,false,Rx,0,8,00,00,00,00,00,00,00,00
1756490860104960,00000414,false,Rx,0,8,00,00,00,00,00,00,00,00
1756490860105189,00000415,false,Rx,0,8,00,00,00,00,00,00,00,00
1756490860106474,00000416,false,Rx,0,8,00,00,00,00,00,00,00,00
1756490860106783,00000417,false,Rx,0,8,00,00,00,00,00,00,00,00
1756490860106951,00000418,false,Rx,0,8,00,00,00,00,00,00,00,00
1756490860107063,00000419,false,Rx,0,8,00,00,00,00,00,00,00,00
1756490860110683,00000213,false,Rx,0,4,08,00,00,00,00,00,00,00
1756490860110934,00000214,false,Rx,0,4,08,00,00,00,00,00,00,00
1756490860111821,00000193,false,Rx,0,6,14,00,03,00,FD,FF,00,00
1756490860112004,00000188,false,Rx,0,6,C4,FF,11,00,FE,03,00,00
1756490860112096,00000288,false,Rx,0,6,00,00,00,00,00,00,00,00
1756490860112172,00000488,false,Rx,0,8,08,27,55,00,52,01,88,00
1756490860112249,00000402,false,Rx,0,8,FE,FF,FF,FF,00,00,00,00
1756490860112323,00000194,false,Rx,0,6,14,00,F3,FF,01,00,00,00
1756490860112388,00000403,false,Rx,0,8,01,00,00,00,00,00,00,00
1756490860112461,00000404,false,Rx,0,8,00,00,00,00,00,00,00,00
1756490860113368,00000405,false,Rx,0,8,00,00,00,00,00,00,00,00
1756490860113551,00000406,false,Rx,0,8,00,00,00,00,00,00,00,00
1756490860114445,00000407,false,Rx,0,8,00,00,00,00,00,00,00,00
1756490860114583,00000408,false,Rx,0,8,02,00,00,00,00,00,00,00
1756490860120060,00000393,false,Rx,0,6,15,01,D5,01,0F,01,00,00
1756490860120196,00000181,false,Rx,0,8,04,10,00,EA,02,00,00,00
1756490860120267,00000213,false,Rx,0,4,08,00,00,00,00,00,00,00
1756490860120330,00000214,false,Rx,0,4,08,00,00,00,00,00,00,00
1756490860120393,00000293,false,Rx,0,4,2F,A2,00,00,00,00,00,00
1756490860120455,00000004,false,Rx,0,8,00,01,00,00,00,00,00,00
1756490860120519,00000733,false,Rx,0,8,03,6F,12,03,3B,A2,00,05
1756490860120650,00000193,false,Rx,0,6,14,00,0C,00,FC,FF,00,00
1756490860120713,00000188,false,Rx,0,6,B4,FF,19,00,D9,03,00,00
1756490860120818,00000288,false,Rx,0,6,00,00,00,00,00,00,00,00
1756490860120910,00000488,false,Rx,0,8,08,27,55,00,52,01,88,00
1756490860121514,00000394,false,Rx,0,6,62,05,DD,01,16,01,00,00
1756490860121601,00000294,false,Rx,0,4,3D,A2,B7,FF,00,00,00,00
1756490860121676,00000714,false,Rx,0,1,05,00,00,00,00,00,00,00
1756490860121742,00000734,false,Rx,0,8,03,6F,12,03,3B,A2,B7,05
1756490860121828,00000194,false,Rx,0,6,14,00,F7,FF,00,00,00,00
1756490860129872,00000193,false,Rx,0,6,14,00,02,00,06,00,00,00
1756490860129990,00000213,false,Rx,0,4,08,00,00,00,00,00,00,00
1756490860130050,00000214,false,Rx,0,4,08,00,00,00,00,00,00,00
1756490860130846,00000188,false,Rx,0,6,B8,FF,15,00,DA,03,00,00
1756490860130952,00000288,false,Rx,0,6,00,00,00,00,00,00,00,00
1756490860131047,00000488,false,Rx,0,8,08,27,55,00,52,01,88,00
1756490860131393,00000194,false,Rx,0,6,14,00,F6,FF,01,00,00,00
1756490860139692,00000193,false,Rx,0,6,14,00,F3,FF,06,00,00,00
1756490860139858,00000213,false,Rx,0,4,08,00,00,00,00,00,00,00
1756490860139950,00000214,false,Rx,0,4,08,00,00,00,00,00,00,00
1756490860141010,00000188,false,Rx,0,6,C5,FF,0A,00,FB,03,00,00
1756490860141120,00000288,false,Rx,0,6,00,00,00,00,00,00,00,00
1756490860141236,00000488,false,Rx,0,8,08,27,55,00,52,01,88,00
1756490860141388,00000194,false,Rx,0,6,14,00,F3,FF,01,00,00,00
1756490860149533,00000193,false,Rx,0,6,14,00,FD,FF,00,00,00,00
1756490860149935,00000181,false,Rx,0,8,68,10,00,E9,02,00,00,00
1756490860150036,00000213,false,Rx,0,4,08,00,00,00,00,00,00,00
1756490860150135,00000214,false,Rx,0,4,08,00,00,00,00,00,00,00
1756490860151226,00000188,false,Rx,0,6,BD,FF,0D,00,EC,03,00,00
1756490860151357,00000288,false,Rx,0,6,00,00,00,00,00,00,00,00
1756490860151456,00000194,false,Rx,0,6,14,00,F5,FF,FE,FF,00,00
1756490860151558,00000488,false,Rx,0,8,08,27,55,00,52,01,88,00
1756490860154999,00000710,false,Rx,0,1,7F,00,00,00,00,00,00,00
1756490860159275,00000193,false,Rx,0,6,14,00,FE,FF,04,00,00,00
1756490860160257,00000701,false,Rx,0,1,05,00,00,00,00,00,00,00
1756490860160847,00000213,false,Rx,0,4,08,00,00,00,00,00,00,00
1756490860160953,00000214,false,Rx,0,4,08,00,00,00,00,00,00,00
1756490860161394,00000194,false,Rx,0,6,14,00,FE,FF,FF,FF,00,00
1756490860161508,00000188,false,Rx,0,6,B3,FF,10,00,CD,03,00,00
1756490860161605,00000288,false,Rx,0,6,00,00,00,00,00,00,00,00
1756490860161706,00000488,false,Rx,0,8,08,27,55,00,52,01,88,00
1756490860163204,00000181,false,Rx,0,8,04,10,00,E9,02,00,00,00
1756490860169076,00000193,false,Rx,0,6,14,00,FE,FF,03,00,00,00
1756490860170863,00000213,false,Rx,0,4,08,00,00,00,00,00,00,00
1756490860170955,00000214,false,Rx,0,4,08,00,00,00,00,00,00,00
1756490860171382,00000194,false,Rx,0,6,14,00,02,00,00,00,00,00
1756490860171620,00000188,false,Rx,0,6,C8,FF,11,00,F5,03,00,00
1756490860172360,00000288,false,Rx,0,6,00,00,00,00,00,00,00,00
1756490860172471,00000488,false,Rx,0,8,08,27,55,00,52,01,88,00
1756490860178986,00000193,false,Rx,0,6,14,00,01,00,02,00,00,00
1756490860180782,00000213,false,Rx,0,4,08,00,00,00,00,00,00,00
1756490860180868,00000214,false,Rx,0,4,08,00,00,00,00,00,00,00
1756490860181396,00000194,false,Rx,0,6,14,00,F5,FF,00,00,00,00
1756490860182385,00000188,false,Rx,0,6,B7,FF,10,00,D5,03,00,00
1756490860182544,00000288,false,Rx,0,6,00,00,00,00,00,00,00,00
1756490860182662,00000488,false,Rx,0,8,08,27,55,00,52,01,88,00
1756490860188742,00000193,false,Rx,0,6,14,00,00,00,02,00,00,00
1756490860190679,00000213,false,Rx,0,4,08,00,00,00,00,00,00,00
1756490860190779,00000214,false,Rx,0,4,08,00,00,00,00,00,00,00
1756490860191401,00000194,false,Rx,0,6,14,00,02,00,00,00,00,00
1756490860192627,00000188,false,Rx,0,6,B9,FF,15,00,EC,03,00,00
1756490860192725,00000288,false,Rx,0,6,00,00,00,00,00,00,00,00
1756490860192841,00000488,false,Rx,0,8,08,27,55,00,52,01,88,00
1756490860198584,00000193,false,Rx,0,6,14,00,F7,FF,02,00,00,00
1756490860199544,00000181,false,Rx,0,8,04,10,00,EA,02,00,00,00
1756490860201398,00000194,false,Rx,0,6,14,00,04,00,FF,FF,00,00
1756490860201695,00000213,false,Rx,0,4,08,00,00,00,00,00,00,00
1756490860201787,00000214,false,Rx,0,4,08,00,00,00,00,00,00,00
1756490860202798,00000188,false,Rx,0,6,C4,FF,0F,00,FA,03,00,00
1756490860202939,00000288,false,Rx,0,6,00,00,00,00,00,00,00,00
1756490860203056,00000488,false,Rx,0,8,08,27,55,00,52,01,88,00
1756490860206956,00000290,false,Rx,0,7,01,E8,00,00,00,00,00,00
1756490860207051,00000490,false,Rx,0,5,64,00,00,00,00,00,00,00
1756490860208385,00000193,false,Rx,0,6,14,00,EF,FF,04,00,00,00
1756490860211402,00000194,false,Rx,0,6,14,00,00,00,FE,FF,00,00
1756490860211589,00000213,false,Rx,0,4,08,00,00,00,00,00,00,00
1756490860211685,00000214,false,Rx,0,4,08,00,00,00,00,00,00,00
1756490860212717,00000181,false,Rx,0,8,04,10,00,EA,02,00,00,00
1756490860212982,00000188,false,Rx,0,6,B6,FF,10,00,CC,03,00,00
1756490860213137,00000288,false,Rx,0,6,00,00,00,00,00,00,00,00
1756490860213265,00000488,false,Rx,0,8,08,27,55,00,52,01,88,00
1756490860218210,00000393,false,Rx,0,6,15,01,D5,01,0F,01,00,00
1756490860218302,00000293,false,Rx,0,4,69,A2,00,00,00,00,00,00
1756490860218399,00000713,false,Rx,0,1,05,00,00,00,00,00,00,00
1756490860218497,00000733,false,Rx,0,8,04,8F,C2,F5,3F,A2,00,05
1756490860218596,00000193,false,Rx,0,6,14,00,EE,FF,05,00,00,00
1756490860221393,00000394,false,Rx,0,6,62,05,DD,01,16,01,00,00
1756490860221501,00000294,false,Rx,0,4,1A,A2,81,00,00,00,00,00
1756490860221607,00000213,false,Rx,0,4,08,00,00,00,00,00,00,00
1756490860221705,00000214,false,Rx,0,4,08,00,00,00,00,00,00,00
1756490860221763,00000004,false,Rx,0,8,00,01,00,00,00,00,00,00
1756490860221845,00000734,false,Rx,0,8,04,8F,C2,F5,3F,A2,81,05
1756490860221944,00000194,false,Rx,0,6,14,00,FD,FF,00,00,00,00
1756490860223220,00000188,false,Rx,0,6,B9,FF,15,00,DD,03,00,00
1756490860223336,00000288,false,Rx,0,6,00,00,00,00,00,00,00,00
1756490860223451,00000488,false,Rx,0,8,08,27,55,00,52,01,88,00
1756490860228067,00000193,false,Rx,0,6,14,00,FA,FF,FE,FF,00,00
1756490860231403,00000194,false,Rx,0,6,14,00,FC,FF,FF,FF,00,00
1756490860232508,00000213,false,Rx,0,4,08,00,00,00,00,00,00,00
1756490860232600,00000214,false,Rx,0,4,08,00,00,00,00,00,00,00
1756490860233398,00000188,false,Rx,0,6,CA,FF,07,00,F9,03,00,00
1756490860233548,00000288,false,Rx,0,6,00,00,00,00,00,00,00,00
1756490860233665,00000488,false,Rx,0,8,08,27,55,00,52,01,88,00
1756490860237869,00000193,false,Rx,0,6,14,00,04,00,FD,FF,00,00
1756490860241406,00000194,false,Rx,0,6,14,00,F6,FF,FF,FF,00,00
1756490860242405,00000213,false,Rx,0,4,08,00,00,00,00,00,00,00
1756490860242497,00000214,false,Rx,0,4,08,00,00,00,00,00,00,00
1756490860243596,00000188,false,Rx,0,6,BC,FF,15,00,E8,03,00,00
1756490860243738,00000288,false,Rx,0,6,00,00,00,00,00,00,00,00
1756490860243861,00000488,false,Rx,0,8,08,27,55,00,52,01,88,00
1756490860247713,00000193,false,Rx,0,6,14,00,03,00,00,00,00,00
1756490860251462,00000194,false,Rx,0,6,14,00,F5,FF,FF,FF,00,00
1756490860252319,00000213,false,Rx,0,4,08,00,00,00,00,00,00,00
1756490860252418,00000214,false,Rx,0,4,08,00,00,00,00,00,00,00
1756490860253804,00000188,false,Rx,0,6,B7,FF,14,00,C2,03,00,00
1756490860253942,00000288,false,Rx,0,6,00,00,00,00,00,00,00,00
1756490860254058,00000488,false,Rx,0,8,08,27,55,00,52,01,88,00
1756490860257522,00000193,false,Rx,0,6,14,00,FE,FF,FD,FF,00,00
1756490860260471,00000701,false,Rx,0,1,05,00,00,00,00,00,00,00
1756490860260902,00000710,false,Rx,0,1,7F,00,00,00,00,00,00,00
1756490860261381,00000194,false,Rx,0,6,14,00,03,00,00,00,00,00
1756490860262216,00000213,false,Rx,0,4,08,00,00,00,00,00,00,00
1756490860262311,00000214,false,Rx,0,4,08,00,00,00,00,00,00,00
1756490860264011,00000188,false,Rx,0,6,C0,FF,18,00,EA,03,00,00
1756490860264135,00000288,false,Rx,0,6,00,00,00,00,00,00,00,00
1756490860264260,00000488,false,Rx,0,8,08,27,55,00,52,01,88,00
1756490860267348,00000193,false,Rx,0,6,14,00,06,00,FE,FF,00,00
1756490860271403,00000194,false,Rx,0,6,14,00,F9,FF,02,00,00,00
1756490860273204,00000213,false,Rx,0,4,08,00,00,00,00,00,00,00
1756490860273300,00000214,false,Rx,0,4,08,00,00,00,00,00,00,00
1756490860275178,00000188,false,Rx,0,6,C0,FF,12,00,F7,03,00,00
1756490860275296,00000288,false,Rx,0,6,00,00,00,00,00,00,00,00
1756490860275392,00000488,false,Rx,0,8,08,27,55,00,52,01,88,00
1756490860277178,00000193,false,Rx,0,6,14,00,FF,FF,FE,FF,00,00
1756490860281406,00000194,false,Rx,0,6,14,00,FA,FF,01,00,00,00
1756490860283111,00000213,false,Rx,0,4,08,00,00,00,00,00,00,00
1756490860283227,00000214,false,Rx,0,4,08,00,00,00,00,00,00,00
1756490860285234,00000188,false,Rx,0,6,BF,FF,11,00,EC,03,00,00
1756490860285357,00000288,false,Rx,0,6,00,00,00,00,00,00,00,00
1756490860285539,00000488,false,Rx,0,8,08,27,55,00,52,01,88,00
1756490860287003,00000193,false,Rx,0,6,14,00,02,00,00,00,00,00
1756490860291393,00000194,false,Rx,0,6,14,00,FC,FF,01,00,00,00
1756490860293037,00000213,false,Rx,0,4,08,00,00,00,00,00,00,00
1756490860293122,00000214,false,Rx,0,4,08,00,00,00,00,00,00,00
1756490860295516,00000188,false,Rx,0,6,C2,FF,11,00,FF,03,00,00
1756490860295625,00000288,false,Rx,0,6,00,00,00,00,00,00,00,00
1756490860295833,00000488,false,Rx,0,8,08,27,55,00,52,01,88,00
1756490860296829,00000193,false,Rx,0,6,14,00,F1,FF,FF,FF,00,00
1756490860301405,00000194,false,Rx,0,6,14,00,F8,FF,02,00,00,00
1756490860302919,00000213,false,Rx,0,4,08,00,00,00,00,00,00,00
1756490860303025,00000214,false,Rx,0,4,08,00,00,00,00,00,00,00
1756490860305811,00000188,false,Rx,0,6,B1,FF,14,00,D4,03,00,00
1756490860305921,00000288,false,Rx,0,6,00,00,00,00,00,00,00,00
1756490860306136,00000488,false,Rx,0,8,08,27,55,00,52,01,88,00
1756490860306654,00000193,false,Rx,0,6,14,00,0A,00,FC,FF,00,00
1756490860311400,00000194,false,Rx,0,6,14,00,FA,FF,01,00,00,00
1756490860313928,00000213,false,Rx,0,4,08,00,00,00,00,00,00,00
1756490860314024,00000214,false,Rx,0,4,08,00,00,00,00,00,00,00
1756490860316113,00000188,false,Rx,0,6,BB,FF,10,00,DF,03,00,00
1756490860316236,00000288,false,Rx,0,6,00,00,00,00,00,00,00,00
1756490860316437,00000488,false,Rx,0,8,08,27,55,00,52,01,88,00
1756490860316535,00000393,false,Rx,0,6,15,01,D5,01,17,01,00,00
1756490860316635,00000293,false,Rx,0,4,42,A2,00,00,00,00,00,00
1756490860316732,00000713,false,Rx,0,1,05,00,00,00,00,00,00,00
1756490860316830,00000733,false,Rx,0,8,05,00,00,C0,3F,A2,00,05
1756490860316927,00000193,false,Rx,0,6,14,00,0C,00,FD,FF,00,00
1756490860321399,00000394,false,Rx,0,6,62,05,DD,01,16,01,00,00
1756490860321492,00000294,false,Rx,0,4,B3,A1,E0,FF,00,00,00,00
1756490860321590,00000714,false,Rx,0,1,05,00,00,00,00,00,00,00
1756490860321690,00000734,false,Rx,0,8,05,00,00,C0,3F,A1,E0,05
1756490860321788,00000194,false,Rx,0,6,14,00,F5,FF,01,00,00,00
1756490860323932,00000213,false,Rx,0,4,08,00,00,00,00,00,00,00
1756490860324025,00000214,false,Rx,0,4,08,00,00,00,00,00,00,00
1756490860326311,00000193,false,Rx,0,6,14,00,00,00,03,00,00,00
1756490860326406,00000188,false,Rx,0,6,C6,FF,0E,00,07,04,00,00
1756490860326529,00000288,false,Rx,0,6,00,00,00,00,00,00,00,00
1756490860327446,00000488,false,Rx,0,8,08,27,55,00,52,01,88,00
1756490860329465,00000181,false,Rx,0,8,68,10,00,EA,02,00,00,00
1756490860331392,00000194,false,Rx,0,6,14,00,FE,FF,FE,FF,00,00
1756490860333847,00000213,false,Rx,0,4,08,00,00,00,00,00,00,00
1756490860333953,00000214,false,Rx,0,4,08,00,00,00,00,00,00,00
1756490860336141,00000193,false,Rx,0,6,14,00,06,00,04,00,00,00
1756490860337481,00000188,false,Rx,0,6,B3,FF,18,00,C9,03,00,00
1756490860337606,00000288,false,Rx,0,6,00,00,00,00,00,00,00,00
1756490860337700,00000488,false,Rx,0,8,08,27,55,00,52,01,88,00
1756490860341393,00000194,false,Rx,0,6,14,00,FE,FF,FF,FF,00,00
1756490860342671,00000181,false,Rx,0,8,04,10,00,E9,02,00,00,00
1756490860343737,00000213,false,Rx,0,4,08,00,00,00,00,00,00,00
1756490860343832,00000214,false,Rx,0,4,08,00,00,00,00,00,00,00
1756490860345966,00000193,false,Rx,0,6,14,00,04,00,FF,FF,00,00
1756490860347742,00000188,false,Rx,0,6,BD,FF,11,00,F1,03,00,00
1756490860347857,00000288,false,Rx,0,6,00,00,00,00,00,00,00,00
1756490860347983,00000488,false,Rx,0,8,08,27,55,00,52,01,88,00
1756490860351481,00000194,false,Rx,0,6,14,00,F9,FF,FF,FF,00,00
1756490860354770,00000213,false,Rx,0,4,08,00,00,00,00,00,00,00
1756490860354862,00000214,false,Rx,0,4,08,00,00,00,00,00,00,00
1756490860355876,00000193,false,Rx,0,6,14,00,FD,FF,00,00,00,00
1756490860357474,00000100,false,Rx,0,6,43,CB,E3,03,70,3B,00,00
1756490860357843,00000188,false,Rx,0,6,B9,FF,10,00,E5,03,00,00
1756490860357939,00000288,false,Rx,0,6,00,00,00,00,00,00,00,00
1756490860358001,00000488,false,Rx,0,8,08,27,55,00,53,01,88,00
1756490860360871,00000701,false,Rx,0,1,05,00,00,00,00,00,00,00
1756490860361713,00000194,false,Rx,0,6,14,00,FE,FF,FE,FF,00,00
1756490860364678,00000213,false,Rx,0,4,08,00,00,00,00,00,00,00
1756490860364754,00000214,false,Rx,0,4,08,00,00,00,00,00,00,00
1756490860365865,00000193,false,Rx,0,6,14,00,F7,FF,02,00,00,00
1756490860368039,00000188,false,Rx,0,6,B2,FF,16,00,C5,03,00,00
1756490860368126,00000288,false,Rx,0,6,00,00,00,00,00,00,00,00
1756490860368224,00000488,false,Rx,0,8,08,27,55,00,53,01,88,00
1756490860368428,00000710,false,Rx,0,1,7F,00,00,00,00,00,00,00
1756490860370194,00000181,false,Rx,0,8,04,10,00,E9,02,00,00,00
1756490860371626,00000194,false,Rx,0,6,14,00,FB,FF,FF,FF,00,00
1756490860374552,00000213,false,Rx,0,4,08,00,00,00,00,00,00,00
1756490860374645,00000214,false,Rx,0,4,08,00,00,00,00,00,00,00
1756490860375689,00000193,false,Rx,0,6,14,00,0C,00,03,00,00,00
1756490860378227,00000188,false,Rx,0,6,BD,FF,12,00,EE,03,00,00
1756490860378357,00000288,false,Rx,0,6,00,00,00,00,00,00,00,00
1756490860378463,00000488,false,Rx,0,8,08,27,55,00,52,01,88,00
1756490860381622,00000194,false,Rx,0,6,14,00,F5,FF,03,00,00,00
1756490860382335,00000181,false,Rx,0,8,04,10,00,EA,02,00,00,00
1756490860385548,00000193,false,Rx,0,6,14,00,0B,00,FE,FF,00,00
1756490860385634,00000213,false,Rx,0,4,08,00,00,00,00,00,00,00
1756490860385740,00000214,false,Rx,0,4,08,00,00,00,00,00,00,00
1756490860388428,00000188,false,Rx,0,6,C1,FF,0D,00,FF,03,00,00
1756490860388556,00000288,false,Rx,0,6,00,00,00,00,00,00,00,00
1756490860388671,00000488,false,Rx,0,8,08,27,55,00,52,01,88,00
1756490860391626,00000194,false,Rx,0,6,14,00,F3,FF,01,00,00,00
1756490860395376,00000193,false,Rx,0,6,14,00,07,00,00,00,00,00
1756490860395480,00000213,false,Rx,0,4,08,00,00,00,00,00,00,00
1756490860395577,00000214,false,Rx,0,4,08,00,00,00,00,00,00,00
1756490860398616,00000188,false,Rx,0,6,B8,FF,13,00,DE,03,00,00
1756490860398769,00000288,false,Rx,0,6,00,00,00,00,00,00,00,00
1756490860398881,00000488,false,Rx,0,8,08,27,55,00,52,01,88,00
1756490860399948,00000181,false,Rx,0,8,68,10,00,E9,02,00,00,00
1756490860401621,00000194,false,Rx,0,6,14,00,F2,FF,00,00,00,00
1756490860405170,00000193,false,Rx,0,6,14,00,0A,00,FF,FF,00,00
1756490860405372,00000213,false,Rx,0,4,08,00,00,00,00,00,00,00
1756490860405469,00000214,false,Rx,0,4,08,00,00,00,00,00,00,00
1756490860407106,00000290,false,Rx,0,7,01,E8,00,00,00,00,00,00
1756490860407205,00000490,false,Rx,0,5,64,00,00,00,00,00,00,00
1756490860408814,00000188,false,Rx,0,6,B7,FF,13,00,D4,03,00,00
1756490860408951,00000288,false,Rx,0,6,00,00,00,00,00,00,00,00
1756490860409069,00000488,false,Rx,0,8,08,27,55,00,52,01,88,00
1756490860411621,00000194,false,Rx,0,6,14,00,03,00,01,00,00,00
1756490860413107,00000181,false,Rx,0,8,04,10,00,E9,02,00,00,00
1756490860414989,00000393,false,Rx,0,6,15,01,D5,01,17,01,00,00
1756490860415084,00000293,false,Rx,0,4,45,A2,00,00,00,00,00,00
1756490860415216,00000713,false,Rx,0,1,05,00,00,00,00,00,00,00
1756490860415308,00000733,false,Rx,0,8,06,6F,12,03,3B,A2,00,05
1756490860415410,00000193,false,Rx,0,6,14,00,04,00,FE,FF,00,00
1756490860415511,00000213,false,Rx,0,4,08,00,00,00,00,00,00,00
1756490860415609,00000214,false,Rx,0,4,08,00,00,00,00,00,00,00
1756490860419017,00000188,false,Rx,0,6,CB,FF,0D,00,FD,03,00,00
1756490860419170,00000288,false,Rx,0,6,00,00,00,00,00,00,00,00
1756490860419290,00000488,false,Rx,0,8,08,27,55,00,52,01,88,00
1756490860421615,00000394,false,Rx,0,6,62,05,DD,01,1F,01,00,00
1756490860421707,00000294,false,Rx,0,4,E1,A1,9B,FF,00,00,00,00
1756490860421805,00000714,false,Rx,0,1,05,00,00,00,00,00,00,00
1756490860421903,00000734,false,Rx,0,8,06,6F,12,03,3B,A1,9B,05
1756490860422000,00000194,false,Rx,0,6,14,00,03,00,01,00,00,00
1756490860424826,00000193,false,Rx,0,6,14,00,FB,FF,FC,FF,00,00
1756490860426271,00000213,false,Rx,0,4,08,00,00,00,00,00,00,00
1756490860426365,00000214,false,Rx,0,4,08,00,00,00,00,00,00,00
1756490860429203,00000188,false,Rx,0,6,C0,FF,12,00,E8,03,00,00
1756490860430507,00000288,false,Rx,0,6,00,00,00,00,00,00,00,00
1756490860430627,00000488,false,Rx,0,8,08,27,55,00,52,01,88,00
1756490860431645,00000194,false,Rx,0,6,14,00,FA,FF,01,00,00,00
1756490860434667,00000193,false,Rx,0,6,14,00,07,00,05,00,00,00
1756490860436181,00000213,false,Rx,0,4,08,00,00,00,00,00,00,00
1756490860436273,00000214,false,Rx,0,4,08,00,00,00,00,00,00,00
1756490860440514,00000188,false,Rx,0,6,CC,FF,0B,00,F6,03,00,00
1756490860440651,00000288,false,Rx,0,6,00,00,00,00,00,00,00,00
1756490860440768,00000488,false,Rx,0,8,08,27,55,00,52,01,88,00
1756490860441612,00000194,false,Rx,0,6,14,00,FC,FF,01,00,00,00
1756490860444476,00000193,false,Rx,0,6,14,00,11,00,02,00,00,00
1756490860446085,00000213,false,Rx,0,4,08,00,00,00,00,00,00,00
1756490860446177,00000214,false,Rx,0,4,08,00,00,00,00,00,00,00
1756490860450719,00000188,false,Rx,0,6,C1,FF,11,00,ED,03,00,00
1756490860450966,00000288,false,Rx,0,6,00,00,00,00,00,00,00,00
1756490860451082,00000488,false,Rx,0,8,08,27,55,00,52,01,88,00
1756490860451608,00000194,false,Rx,0,6,14,00,FF,FF,FF,FF,00,00
1756490860454375,00000193,false,Rx,0,6,14,00,FC,FF,FF,FF,00,00
1756490860457097,00000213,false,Rx,0,4,08,00,00,00,00,00,00,00
1756490860457186,00000214,false,Rx,0,4,08,00,00,00,00,00,00,00
1756490860460842,00000188,false,Rx,0,6,B7,FF,15,00,CF,03,00,00
1756490860460951,00000701,false,Rx,0,1,05,00,00,00,00,00,00,00
1756490860461145,00000288,false,Rx,0,6,00,00,00,00,00,00,00,00
1756490860461281,00000488,false,Rx,0,8,08,27,55,00,52,01,88,00
1756490860461615,00000194,false,Rx,0,6,14,00,F7,FF,00,00,00,00
1756490860464133,00000193,false,Rx,0,6,14,00,06,00,00,00,00,00
1756490860466994,00000213,false,Rx,0,4,08,00,00,00,00,00,00,00
1756490860467089,00000214,false,Rx,0,4,08,00,00,00,00,00,00,00
1756490860471026,00000188,false,Rx,0,6,C1,FF,17,00,E8,03,00,00
1756490860471350,00000288,false,Rx,0,6,00,00,00,00,00,00,00,00
1756490860471464,00000488,false,Rx,0,8,08,27,55,00,52,01,88,00
1756490860471606,00000194,false,Rx,0,6,14,00,F6,FF,01,00,00,00
1756490860473961,00000193,false,Rx,0,6,14,00,02,00,01,00,00,00
1756490860476564,00000710,false,Rx,0,1,7F,00,00,00,00,00,00,00
1756490860476891,00000213,false,Rx,0,4,08,00,00,00,00,00,00,00
1756490860476987,00000214,false,Rx,0,4,08,00,00,00,00,00,00,00
1756490860481228,00000188,false,Rx,0,6,C5,FF,10,00,00,04,00,00
1756490860481561,00000288,false,Rx,0,6,00,00,00,00,00,00,00,00
1756490860481672,00000194,false,Rx,0,6,14,00,F4,FF,FF,FF,00,00
1756490860481771,00000488,false,Rx,0,8,08,27,55,00,52,01,88,00
1756490860483792,00000193,false,Rx,0,6,14,00,F3,FF,03,00,00,00
1756490860486899,00000213,false,Rx,0,4,08,00,00,00,00,00,00,00
1756490860486994,00000214,false,Rx,0,4,08,00,00,00,00,00,00,00
1756490860491417,00000188,false,Rx,0,6,B9,FF,12,00,DD,03,00,00
1756490860491603,00000194,false,Rx,0,6,14,00,00,00,FF,FF,00,00
1756490860491744,00000288,false,Rx,0,6,00,00,00,00,00,00,00,00
1756490860491871,00000488,false,Rx,0,8,08,27,55,00,52,01,88,00
1756490860493647,00000193,false,Rx,0,6,14,00,F3,FF,01,00,00,00
1756490860497920,00000213,false,Rx,0,4,08,00,00,00,00,00,00,00
1756490860498010,00000214,false,Rx,0,4,08,00,00,00,00,00,00,00
1756490860501617,00000194,false,Rx,0,6,14,00,F7,FF,00,00,00,00
1756490860501712,00000188,false,Rx,0,6,AF,FF,17,00,D9,03,00,00
1756490860502693,00000288,false,Rx,0,6,00,00,00,00,00,00,00,00
1756490860502807,00000488,false,Rx,0,8,08,27,55,00,52,01,88,00
1756490860503429,00000193,false,Rx,0,6,14,00,0B,00,03,00,00,00
1756490860507825,00000213,false,Rx,0,4,08,00,00,00,00,00,00,00
1756490860507919,00000214,false,Rx,0,4,08,00,00,00,00,00,00,00
1756490860511619,00000194,false,Rx,0,6,14,00,F6,FF,FF,FF,00,00
1756490860512523,00000188,false,Rx,0,6,B1,FF,1B,00,D6,03,00,00
1756490860512853,00000288,false,Rx,0,6,00,00,00,00,00,00,00,00
1756490860512978,00000488,false,Rx,0,8,08,27,55,00,52,01,88,00
1756490860513267,00000393,false,Rx,0,6,17,01,D5,01,0F,01,00,00
1756490860513360,00000293,false,Rx,0,4,85,A2,00,00,00,00,00,00
1756490860513458,00000713,false,Rx,0,1,05,00,00,00,00,00,00,00
1756490860513555,00000733,false,Rx,0,8,07,00,00,80,3F,A2,00,05
1756490860513651,00000193,false,Rx,0,6,14,00,0B,00,03,00,00,00
1756490860517719,00000213,false,Rx,0,4,08,00,00,00,00,00,00,00
1756490860517823,00000214,false,Rx,0,4,08,00,00,00,00,00,00,00
1756490860521608,00000394,false,Rx,0,6,62,05,DD,01,0E,01,00,00
1756490860521702,00000294,false,Rx,0,4,1F,A2,E4,FF,00,00,00,00
1756490860521799,00000714,false,Rx,0,1,05,00,00,00,00,00,00,00
1756490860521897,00000734,false,Rx,0,8,07,00,00,80,3F,A2,E4,05
1756490860521993,00000194,false,Rx,0,6,14,00,FD,FF,FE,FF,00,00
1756490860522704,00000188,false,Rx,0,6,B0,FF,10,00,D1,03,00,00
1756490860523049,00000288,false,Rx,0,6,00,00,00,00,00,00,00,00
1756490860523188,00000193,false,Rx,0,6,14,00,00,00,06,00,00,00
1756490860523296,00000488,false,Rx,0,8,08,27,55,00,52,01,88,00
1756490860527624,00000213,false,Rx,0,4,08,00,00,00,00,00,00,00
1756490860527716,00000214,false,Rx,0,4,08,00,00,00,00,00,00,00
1756490860531617,00000194,false,Rx,0,6,14,00,06,00,00,00,00,00
1756490860532910,00000188,false,Rx,0,6,C3,FF,13,00,FA,03,00,00
1756490860533014,00000193,false,Rx,0,6,14,00,06,00,F9,FF,00,00
1756490860533249,00000288,false,Rx,0,6,00,00,00,00,00,00,00,00
1756490860533368,00000488,false,Rx,0,8,08,27,55,00,52,01,88,00
1756490860538625,00000213,false,Rx,0,4,08,00,00,00,00,00,00,00
1756490860538727,00000214,false,Rx,0,4,08,00,00,00,00,00,00,00
1756490860541619,00000194,false,Rx,0,6,14,00,FA,FF,FF,FF,00,00
1756490860542753,00000193,false,Rx,0,6,14,00,02,00,FD,FF,00,00
1756490860543095,00000188,false,Rx,0,6,BF,FF,0F,00,F7,03,00,00
1756490860543456,00000288,false,Rx,0,6,00,00,00,00,00,00,00,00
1756490860543587,00000488,false,Rx,0,8,08,27,55,00,52,01,88,00
1756490860548529,00000213,false,Rx,0,4,08,00,00,00,00,00,00,00
1756490860548622,00000214,false,Rx,0,4,08,00,00,00,00,00,00,00
1756490860551618,00000194,false,Rx,0,6,14,00,F7,FF,FF,FF,00,00
1756490860552580,00000193,false,Rx,0,6,14,00,03,00,02,00,00,00
1756490860553347,00000188,false,Rx,0,6,B5,FF,18,00,CB,03,00,00
1756490860553678,00000288,false,Rx,0,6,00,00,00,00,00,00,00,00
1756490860553787,00000488,false,Rx,0,8,08,27,55,00,53,01,88,00
1756490860558460,00000213,false,Rx,0,4,08,00,00,00,00,00,00,00
1756490860558538,00000214,false,Rx,0,4,08,00,00,00,00,00,00,00
1756490860561228,00000701,false,Rx,0,1,05,00,00,00,00,00,00,00
1756490860561614,00000194,false,Rx,0,6,14,00,F3,FF,00,00,00,00
1756490860562449,00000193,false,Rx,0,6,14,00,11,00,00,00,00,00
1756490860563526,00000188,false,Rx,0,6,C2,FF,10,00,E3,03,00,00
1756490860563870,00000288,false,Rx,0,6,00,00,00,00,00,00,00,00
1756490860563983,00000488,false,Rx,0,8,08,27,55,00,53,01,88,00
1756490860569469,00000213,false,Rx,0,4,08,00,00,00,00,00,00,00
1756490860569548,00000214,false,Rx,0,4,08,00,00,00,00,00,00,00
1756490860571622,00000194,false,Rx,0,6,14,00,F3,FF,00,00,00,00
1756490860572236,00000193,false,Rx,0,6,14,00,0B,00,FF,FF,00,00
1756490860573705,00000188,false,Rx,0,6,C6,FF,0F,00,F7,03,00,00
1756490860574051,00000288,false,Rx,0,6,00,00,00,00,00,00,00,00
1756490860574169,00000488,false,Rx,0,8,08,27,55,00,53,01,88,00
1756490860579352,00000213,false,Rx,0,4,08,00,00,00,00,00,00,00
1756490860579443,00000214,false,Rx,0,4,08,00,00,00,00,00,00,00
1756490860581614,00000194,false,Rx,0,6,14,00,FF,FF,01,00,00,00
1756490860582050,00000193,false,Rx,0,6,14,00,16,00,F9,FF,00,00
1756490860583909,00000188,false,Rx,0,6,BE,FF,16,00,D7,03,00,00
1756490860584250,00000288,false,Rx,0,6,00,00,00,00,00,00,00,00
1756490860584369,00000488,false,Rx,0,8,08,27,55,00,52,01,88,00
1756490860584568,00000710,false,Rx,0,1,7F,00,00,00,00,00,00,00
1756490860589250,00000213,false,Rx,0,4,08,00,00,00,00,00,00,00
1756490860589342,00000214,false,Rx,0,4,08,00,00,00,00,00,00,00
1756490860591613,00000194,false,Rx,0,6,14,00,FB,FF,02,00,00,00
1756490860591887,00000193,false,Rx,0,6,14,00,13,00,FF,FF,00,00
1756490860594138,00000188,false,Rx,0,6,B5,FF,10,00,D6,03,00,00
1756490860595401,00000288,false,Rx,0,6,00,00,00,00,00,00,00,00
1756490860595523,00000488,false,Rx,0,8,08,27,55,00,52,01,88,00
1756490860599173,00000213,false,Rx,0,4,08,00,00,00,00,00,00,00
1756490860599264,00000214,false,Rx,0,4,08,00,00,00,00,00,00,00
1756490860601620,00000194,false,Rx,0,6,14,00,01,00,01,00,00,00
1756490860601714,00000193,false,Rx,0,6,14,00,11,00,FE,FF,00,00
1756490860605381,00000188,false,Rx,0,6,BA,FF,17,00,D9,03,00,00
1756490860605494,00000288,false,Rx,0,6,00,00,00,00,00,00,00,00
1756490860605593,00000488,false,Rx,0,8,08,27,55,00,52,01,88,00
1756490860607032,00000290,false,Rx,0,7,01,E8,00,00,00,00,00,00
1756490860607126,00000490,false,Rx,0,5,64,00,00,00,00,00,00,00
1756490860610166,00000213,false,Rx,0,4,08,00,00,00,00,00,00,00
1756490860610254,00000214,false,Rx,0,4,08,00,00,00,00,00,00,00
1756490860611543,00000393,false,Rx,0,6,17,01,D5,01,17,01,00,00
1756490860611637,00000194,false,Rx,0,6,14,00,05,00,01,00,00,00
1756490860611735,00000293,false,Rx,0,4,7A,A2,00,00,00,00,00,00
1756490860611833,00000713,false,Rx,0,1,05,00,00,00,00,00,00,00
1756490860611932,00000733,false,Rx,0,8,08,00,00,80,3F,A2,00,05
1756490860612040,00000193,false,Rx,0,6,14,00,F8,FF,FA,FF,00,00
1756490860615387,00000188,false,Rx,0,6,BD,FF,15,00,DB,03,00,00
1756490860615535,00000288,false,Rx,0,6,00,00,00,00,00,00,00,00
1756490860615765,00000488,false,Rx,0,8,08,27,55,00,52,01,88,00
1756490860620063,00000213,false,Rx,0,4,08,00,00,00,00,00,00,00
1756490860620153,00000214,false,Rx,0,4,08,00,00,00,00,00,00,00
1756490860621372,00000193,false,Rx,0,6,14,00,0A,00,F8,FF,00,00
1756490860621609,00000394,false,Rx,0,6,62,05,DD,01,1F,01,00,00
1756490860621711,00000294,false,Rx,0,4,4D,A2,87,FF,00,00,00,00
1756490860621810,00000714,false,Rx,0,1,05,00,00,00,00,00,00,00
1756490860621908,00000734,false,Rx,0,8,08,00,00,80,3F,A2,87,05
1756490860622006,00000194,false,Rx,0,6,14,00,F9,FF,02,00,00,00
1756490860625718,00000188,false,Rx,0,6,CC,FF,0C,00,FE,03,00,00
1756490860625831,00000288,false,Rx,0,6,00,00,00,00,00,00,00,00
1756490860626047,00000488,false,Rx,0,8,08,27,55,00,52,01,88,00
1756490860629962,00000213,false,Rx,0,4,08,00,00,00,00,00,00,00
1756490860630056,00000214,false,Rx,0,4,08,00,00,00,00,00,00,00
1756490860631201,00000193,false,Rx,0,6,14,00,12,00,06,00,00,00
1756490860631600,00000194,false,Rx,0,6,14,00,F8,FF,02,00,00,00
1756490860636010,00000188,false,Rx,0,6,BC,FF,16,00,F1,03,00,00
1756490860636125,00000288,false,Rx,0,6,00,00,00,00,00,00,00,00
1756490860636347,00000488,false,Rx,0,8,08,27,55,00,52,01,88,00
1756490860639870,00000213,false,Rx,0,4,08,00,00,00,00,00,00,00
1756490860639965,00000214,false,Rx,0,4,08,00,00,00,00,00,00,00
1756490860641029,00000193,false,Rx,0,6,14,00,FE,FF,01,00,00,00
1756490860641613,00000194,false,Rx,0,6,14,00,F0,FF,FF,FF,00,00
1756490860646314,00000188,false,Rx,0,6,B3,FF,11,00,C8,03,00,00
1756490860646428,00000288,false,Rx,0,6,00,00,00,00,00,00,00,00
1756490860646646,00000488,false,Rx,0,8,08,27,55,00,52,01,88,00
1756490860650857,00000193,false,Rx,0,6,14,00,02,00,FE,FF,00,00
1756490860650951,00000213,false,Rx,0,4,08,00,00,00,00,00,00,00
1756490860651048,00000214,false,Rx,0,4,08,00,00,00,00,00,00,00
1756490860651598,00000194,false,Rx,0,6,14,00,F6,FF,00,00,00,00
1756490860656646,00000188,false,Rx,0,6,BF,FF,10,00,EE,03,00,00
1756490860656750,00000288,false,Rx,0,6,00,00,00,00,00,00,00,00
1756490860657601,00000488,false,Rx,0,8,08,27,55,00,52,01,88,00
1756490860659720,00000181,false,Rx,0,8,68,10,00,EA,02,00,00,00
1756490860660682,00000193,false,Rx,0,6,14,00,11,00,00,00,00,00
1756490860660775,00000213,false,Rx,0,4,08,00,00,00,00,00,00,00
1756490860660871,00000214,false,Rx,0,4,08,00,00,00,00,00,00,00
1756490860661442,00000701,false,Rx,0,1,05,00,00,00,00,00,00,00
1756490860661599,00000194,false,Rx,0,6,14,00,02,00,01,00,00,00
1756490860667627,00000188,false,Rx,0,6,B8,FF,13,00,D5,03,00,00
1756490860667739,00000288,false,Rx,0,6,00,00,00,00,00,00,00,00
1756490860667857,00000488,false,Rx,0,8,08,27,55,00,52,01,88,00
1756490860670516,00000193,false,Rx,0,6,14,00,FA,FF,FF,FF,00,00
1756490860670700,00000213,false,Rx,0,4,08,00,00,00,00,00,00,00
1756490860670793,00000214,false,Rx,0,4,08,00,00,00,00,00,00,00
1756490860671597,00000194,false,Rx,0,6,14,00,07,00,FE,FF,00,00
1756490860672926,00000181,false,Rx,0,8,04,10,00,EA,02,00,00,00
1756490860677857,00000188,false,Rx,0,6,B8,FF,0F,00,DE,03,00,00
1756490860677969,00000288,false,Rx,0,6,00,00,00,00,00,00,00,00
1756490860678084,00000488,false,Rx,0,8,08,27,55,00,52,01,88,00
1756490860680337,00000193,false,Rx,0,6,14,00,F4,FF,03,00,00,00
1756490860681606,00000194,false,Rx,0,6,14,00,03,00,00,00,00,00
1756490860681702,00000213,false,Rx,0,4,08,00,00,00,00,00,00,00
1756490860681800,00000214,false,Rx,0,4,08,00,00,00,00,00,00,00
1756490860687962,00000188,false,Rx,0,6,C0,FF,10,00,00,04,00,00
1756490860688054,00000288,false,Rx,0,6,00,00,00,00,00,00,00,00
1756490860688161,00000488,false,Rx,0,8,08,27,55,00,52,01,88,00
1756490860689427,00000181,false,Rx,0,8,68,10,00,EA,02,00,00,00
1756490860690164,00000193,false,Rx,0,6,14,00,FE,FF,01,00,00,00
1756490860691590,00000213,false,Rx,0,4,08,00,00,00,00,00,00,00
1756490860691685,00000194,false,Rx,0,6,14,00,F8,FF,FD,FF,00,00
1756490860691789,00000214,false,Rx,0,4,08,00,00,00,00,00,00,00
1756490860692574,00000710,false,Rx,0,1,7F,00,00,00,00,00,00,00
1756490860698168,00000188,false,Rx,0,6,B7,FF,14,00,D7,03,00,00
1756490860698248,00000288,false,Rx,0,6,00,00,00,00,00,00,00,00
1756490860698348,00000488,false,Rx,0,8,08,27,55,00,52,01,88,00
1756490860699998,00000193,false,Rx,0,6,14,00,0E,00,02,00,00,00
1756490860701507,00000213,false,Rx,0,4,08,00,00,00,00,00,00,00
1756490860701597,00000214,false,Rx,0,4,08,00,00,00,00,00,00,00
1756490860701695,00000194,false,Rx,0,6,14,00,FA,FF,FF,FF,00,00
1756490860702649,00000181,false,Rx,0,8,68,10,00,E9,02,00,00,00
1756490860708346,00000188,false,Rx,0,6,B6,FF,17,00,D5,03,00,00
1756490860708447,00000288,false,Rx,0,6,00,00,00,00,00,00,00,00
1756490860708541,00000488,false,Rx,0,8,08,27,55,00,52,01,88,00
1756490860709815,00000393,false,Rx,0,6,17,01,D5,01,17,01,00,00
1756490860709909,00000293,false,Rx,0,4,CB,A2,00,00,00,00,00,00
1756490860710007,00000713,false,Rx,0,1,05,00,00,00,00,00,00,00
1756490860710106,00000733,false,Rx,0,8,09,00,00,00,00,A2,00,05
1756490860710204,00000193,false,Rx,0,6,14,00,0F,00,06,00,00,00
1756490860711398,00000213,false,Rx,0,4,08,00,00,00,00,00,00,00
1756490860711492,00000214,false,Rx,0,4,08,00,00,00,00,00,00,00
1756490860711590,00000194,false,Rx,0,6,14,00,00,00,FF,FF,00,00
1756490860715838,00000181,false,Rx,0,8,04,10,00,EA,02,00,00,00
1756490860718554,00000188,false,Rx,0,6,C8,FF,0D,00,FB,03,00,00
1756490860718662,00000288,false,Rx,0,6,00,00,00,00,00,00,00,00
1756490860718760,00000488,false,Rx,0,8,08,27,55,00,52,01,88,00
1756490860719650,00000193,false,Rx,0,6,14,00,0C,00,08,00,00,00
1756490860721608,00000394,false,Rx,0,6,65,05,DD,01,1F,01,00,00
1756490860721701,00000294,false,Rx,0,4,CC,A1,CC,FF,00,00,00,00
1756490860721798,00000714,false,Rx,0,1,05,00,00,00,00,00,00,00
1756490860721897,00000734,false,Rx,0,8,09,00,00,00,00,A1,CC,05
1756490860721994,00000194,false,Rx,0,6,14,00,F6,FF,01,00,00,00
1756490860722476,00000213,false,Rx,0,4,08,00,00,00,00,00,00,00
1756490860722573,00000214,false,Rx,0,4,08,00,00,00,00,00,00,00
1756490860728758,00000188,false,Rx,0,6,BB,FF,15,00,EC,03,00,00
1756490860728856,00000288,false,Rx,0,6,00,00,00,00,00,00,00,00
1756490860728974,00000488,false,Rx,0,8,08,27,55,00,52,01,88,00
1756490860729479,00000193,false,Rx,0,6,14,00,F9,FF,FE,FF,00,00
1756490860731626,00000194,false,Rx,0,6,14,00,F2,FF,00,00,00,00
1756490860732436,00000213,false,Rx,0,4,08,00,00,00,00,00,00,00
1756490860732530,00000214,false,Rx,0,4,08,00,00,00,00,00,00,00
1756490860738934,00000188,false,Rx,0,6,B4,FF,19,00,CE,03,00,00
1756490860739046,00000288,false,Rx,0,6,00,00,00,00,00,00,00,00
1756490860739184,00000488,false,Rx,0,8,08,27,55,00,52,01,88,00
1756490860739293,00000193,false,Rx,0,6,14,00,FA,FF,00,00,00,00
1756490860741615,00000194,false,Rx,0,6,14,00,04,00,00,00,00,00
1756490860742316,00000213,false,Rx,0,4,08,00,00,00,00,00,00,00
1756490860742421,00000214,false,Rx,0,4,08,00,00,00,00,00,00,00
1756490860749127,00000188,false,Rx,0,6,C0,FF,0C,00,F2,03,00,00
1756490860749236,00000193,false,Rx,0,6,14,00,FD,FF,00,00,00,00
1756490860749333,00000288,false,Rx,0,6,00,00,00,00,00,00,00,00
1756490860749446,00000488,false,Rx,0,8,08,27,55,00,52,01,88,00
1756490860751625,00000194,false,Rx,0,6,14,00,02,00,02,00,00,00
1756490860752235,00000213,false,Rx,0,4,08,00,00,00,00,00,00,00
1756490860752326,00000214,false,Rx,0,4,08,00,00,00,00,00,00,00
1756490860758963,00000193,false,Rx,0,6,14,00,F5,FF,02,00,00,00
1756490860759311,00000188,false,Rx,0,6,C5,FF,0E,00,FE,03,00,00
1756490860760659,00000288,false,Rx,0,6,00,00,00,00,00,00,00,00
1756490860760774,00000488,false,Rx,0,8,08,27,55,00,52,01,88,00
1756490860761607,00000194,false,Rx,0,6,14,00,F7,FF,02,00,00,00
1756490860761702,00000701,false,Rx,0,1,05,00,00,00,00,00,00,00
1756490860763219,00000213,false,Rx,0,4,08,00,00,00,00,00,00,00
1756490860763315,00000214,false,Rx,0,4,08,00,00,00,00,00,00,00
1756490860768805,00000193,false,Rx,0,6,14,00,04,00,01,00,00,00
1756490860770675,00000188,false,Rx,0,6,BD,FF,11,00,E9,03,00,00
1756490860770785,00000288,false,Rx,0,6,00,00,00,00,00,00,00,00
1756490860770952,00000488,false,Rx,0,8,08,27,55,00,52,01,88,00
1756490860771612,00000194,false,Rx,0,6,14,00,FB,FF,01,00,00,00
1756490860773130,00000213,false,Rx,0,4,08,00,00,00,00,00,00,00
1756490860773222,00000214,false,Rx,0,4,08,00,00,00,00,00,00,00
1756490860778620,00000193,false,Rx,0,6,14,00,01,00,FD,FF,00,00
1756490860780933,00000188,false,Rx,0,6,C7,FF,10,00,02,04,00,00
1756490860781051,00000288,false,Rx,0,6,00,00,00,00,00,00,00,00
1756490860781268,00000488,false,Rx,0,8,08,27,55,00,52,01,88,00
1756490860781596,00000194,false,Rx,0,6,14,00,FA,FF,01,00,00,00
1756490860783032,00000213,false,Rx,0,4,08,00,00,00,00,00,00,00
1756490860783126,00000214,false,Rx,0,4,08,00,00,00,00,00,00,00
1756490860788447,00000193,false,Rx,0,6,14,00,0D,00,00,00,00,00
1756490860791228,00000188,false,Rx,0,6,B9,FF,10,00,E4,03,00,00
1756490860791340,00000288,false,Rx,0,6,00,00,00,00,00,00,00,00
1756490860791557,00000488,false,Rx,0,8,08,27,55,00,52,01,88,00
1756490860791681,00000194,false,Rx,0,6,14,00,02,00,00,00,00,00
1756490860794067,00000213,false,Rx,0,4,08,00,00,00,00,00,00,00
1756490860794161,00000214,false,Rx,0,4,08,00,00,00,00,00,00,00
1756490860798278,00000193,false,Rx,0,6,14,00,FD,FF,00,00,00,00
1756490860800589,00000710,false,Rx,0,1,7F,00,00,00,00,00,00,00
1756490860801526,00000188,false,Rx,0,6,B4,FF,12,00,C8,03,00,00
1756490860801640,00000194,false,Rx,0,6,14,00,F7,FF,01,00,00,00
1756490860801738,00000288,false,Rx,0,6,00,00,00,00,00,00,00,00
1756490860801862,00000488,false,Rx,0,8,08,27,55,00,52,01,88,00
1756490860803942,00000213,false,Rx,0,4,08,00,00,00,00,00,00,00
1756490860804036,00000214,false,Rx,0,4,08,00,00,00,00,00,00,00
1756490860808097,00000393,false,Rx,0,6,17,01,D5,01,17,01,00,00
1756490860808203,00000293,false,Rx,0,4,B2,A2,00,00,00,00,00,00
1756490860808306,00000713,false,Rx,0,1,05,00,00,00,00,00,00,00
1756490860808403,00000733,false,Rx,0,8,01,9A,99,19,40,A2,00,05
1756490860808500,00000193,false,Rx,0,6,14,00,FE,FF,FC,FF,00,00
1756490860811607,00000194,false,Rx,0,6,14,00,F8,FF,01,00,00,00
1756490860811831,00000188,false,Rx,0,6,C3,FF,11,00,FA,03,00,00
1756490860812610,00000288,false,Rx,0,6,00,00,00,00,00,00,00,00
1756490860812767,00000488,false,Rx,0,8,08,27,55,00,52,01,88,00
1756490860812973,00000290,false,Rx,0,7,01,E8,00,00,00,00,00,00
1756490860813081,00000490,false,Rx,0,5,64,00,00,00,00,00,00,00
1756490860813909,00000213,false,Rx,0,4,08,00,00,00,00,00,00,00
1756490860814002,00000214,false,Rx,0,4,08,00,00,00,00,00,00,00
1756490860817925,00000193,false,Rx,0,6,14,00,FA,FF,FB,FF,00,00
1756490860819481,00000181,false,Rx,0,8,68,10,00,E9,02,00,00,00
1756490860821603,00000394,false,Rx,0,6,65,05,DD,01,0E,01,00,00
1756490860821698,00000294,false,Rx,0,4,E9,A1,D8,FF,00,00,00,00
1756490860821796,00000714,false,Rx,0,1,05,00,00,00,00,00,00,00
1756490860821894,00000734,false,Rx,0,8,01,9A,99,19,40,A1,D8,05
1756490860821992,00000194,false,Rx,0,6,14,00,02,00,FF,FF,00,00
1756490860822717,00000188,false,Rx,0,6,B3,FF,18,00,CF,03,00,00
1756490860822831,00000288,false,Rx,0,6,00,00,00,00,00,00,00,00
1756490860823056,00000488,false,Rx,0,8,08,27,55,00,52,01,88,00
1756490860823902,00000213,false,Rx,0,4,08,00,00,00,00,00,00,00
1756490860824000,00000214,false,Rx,0,4,08,00,00,00,00,00,00,00
1756490860827763,00000193,false,Rx,0,6,14,00,FA,FF,01,00,00,00
1756490860831613,00000194,false,Rx,0,6,14,00,F9,FF,FF,FF,00,00
1756490860833028,00000188,false,Rx,0,6,C1,FF,0F,00,F1,03,00,00
1756490860833139,00000288,false,Rx,0,6,00,00,00,00,00,00,00,00
1756490860833355,00000488,false,Rx,0,8,08,27,55,00,52,01,88,00
1756490860834854,00000213,false,Rx,0,4,08,00,00,00,00,00,00,00
1756490860834947,00000214,false,Rx,0,4,08,00,00,00,00,00,00,00
1756490860837585,00000193,false,Rx,0,6,14,00,05,00,00,00,00,00
1756490860840395,00000181,false,Rx,0,8,04,10,00,EA,02,00,00,00
1756490860841607,00000194,false,Rx,0,6,14,00,F1,FF,00,00,00,00
1756490860843315,00000188,false,Rx,0,6,BF,FF,12,00,F6,03,00,00
1756490860843433,00000288,false,Rx,0,6,00,00,00,00,00,00,00,00
1756490860843669,00000488,false,Rx,0,8,08,27,55,00,52,01,88,00
1756490860844787,00000213,false,Rx,0,4,08,00,00,00,00,00,00,00
1756490860844892,00000214,false,Rx,0,4,08,00,00,00,00,00,00,00
1756490860847414,00000193,false,Rx,0,6,14,00,04,00,FF,FF,00,00
1756490860851611,00000194,false,Rx,0,6,14,00,F7,FF,00,00,00,00
1756490860852517,00000181,false,Rx,0,8,68,10,00,E9,02,00,00,00
1756490860853620,00000188,false,Rx,0,6,B7,FF,15,00,CA,03,00,00
1756490860853736,00000288,false,Rx,0,6,00,00,00,00,00,00,00,00
1756490860853954,00000488,false,Rx,0,8,08,27,55,00,52,01,88,00
1756490860854716,00000213,false,Rx,0,4,08,00,00,00,00,00,00,00
1756490860854811,00000214,false,Rx,0,4,08,00,00,00,00,00,00,00
1756490860857231,00000193,false,Rx,0,6,14,00,09,00,FF,FF,00,00
1756490860861607,00000194,false,Rx,0,6,14,00,F4,FF,FF,FF,00,00
1756490860861921,00000701,false,Rx,0,1,05,00,00,00,00,00,00,00
1756490860863918,00000188,false,Rx,0,6,BB,FF,19,00,E1,03,00,00
1756490860864033,00000288,false,Rx,0,6,00,00,00,00,00,00,00,00
1756490860864256,00000488,false,Rx,0,8,08,27,55,00,52,01,88,00
1756490860864611,00000213,false,Rx,0,4,08,00,00,00,00,00,00,00
1756490860864719,00000214,false,Rx,0,4,08,00,00,00,00,00,00,00
1756490860865705,00000181,false,Rx,0,8,04,10,00,E9,02,00,00,00
1756490860867063,00000193,false,Rx,0,6,14,00,0B,00,02,00,00,00
1756490860871611,00000194,false,Rx,0,6,14,00,05,00,00,00,00,00
1756490860874235,00000188,false,Rx,0,6,C9,FF,0F,00,FF,03,00,00
1756490860874356,00000288,false,Rx,0,6,00,00,00,00,00,00,00,00
1756490860875505,00000488,false,Rx,0,8,08,27,55,00,52,01,88,00
1756490860875610,00000213,false,Rx,0,4,08,00,00,00,00,00,00,00
1756490860875706,00000214,false,Rx,0,4,08,00,00,00,00,00,00,00
1756490860876889,00000193,false,Rx,0,6,14,00,F8,FF,03,00,00,00
1756490860881621,00000194,false,Rx,0,6,14,00,00,00,00,00,00,00
1756490860885479,00000213,false,Rx,0,4,08,00,00,00,00,00,00,00
1756490860885573,00000188,false,Rx,0,6,B6,FF,11,00,CF,03,00,00
1756490860885669,00000214,false,Rx,0,4,08,00,00,00,00,00,00,00
1756490860885767,00000288,false,Rx,0,6,00,00,00,00,00,00,00,00
1756490860885867,00000488,false,Rx,0,8,08,27,55,00,52,01,88,00
1756490860886718,00000193,false,Rx,0,6,14,00,F8,FF,01,00,00,00
1756490860891608,00000194,false,Rx,0,6,14,00,F6,FF,FF,FF,00,00
1756490860895411,00000213,false,Rx,0,4,08,00,00,00,00,00,00,00
1756490860895509,00000214,false,Rx,0,4,08,00,00,00,00,00,00,00
1756490860895733,00000188,false,Rx,0,6,CB,FF,11,00,FF,03,00,00
1756490860895849,00000288,false,Rx,0,6,00,00,00,00,00,00,00,00
1756490860895966,00000488,false,Rx,0,8,08,27,55,00,52,01,88,00
1756490860896536,00000193,false,Rx,0,6,14,00,0D,00,01,00,00,00
1756490860899831,00000181,false,Rx,0,8,04,10,00,EA,02,00,00,00
1756490860899992,00000710,false,Rx,0,1,7F,00,00,00,00,00,00,00
1756490860901607,00000194,false,Rx,0,6,14,00,FF,FF,FF,FF,00,00
1756490860905943,00000188,false,Rx,0,6,BE,FF,0D,00,F5,03,00,00
1756490860906067,00000288,false,Rx,0,6,00,00,00,00,00,00,00,00
1756490860906164,00000488,false,Rx,0,8,08,27,55,00,52,01,88,00
1756490860906354,00000393,false,Rx,0,6,17,01,D5,01,17,01,00,00
1756490860906452,00000213,false,Rx,0,4,08,00,00,00,00,00,00,00
1756490860906549,00000214,false,Rx,0,4,08,00,00,00,00,00,00,00
1756490860906648,00000293,false,Rx,0,4,77,A2,00,00,00,00,00,00
1756490860906746,00000713,false,Rx,0,1,05,00,00,00,00,00,00,00
1756490860906844,00000733,false,Rx,0,8,02,00,00,C0,3F,A2,00,05
1756490860906941,00000193,false,Rx,0,6,14,00,15,00,06,00,00,00
1756490860911611,00000194,false,Rx,0,6,14,00,F4,FF,00,00,00,00
1756490860916179,00000188,false,Rx,0,6,B3,FF,17,00,CF,03,00,00
1756490860916263,00000193,false,Rx,0,6,14,00,02,00,05,00,00,00
1756490860916349,00000288,false,Rx,0,6,00,00,00,00,00,00,00,00
1756490860916452,00000213,false,Rx,0,4,08,00,00,00,00,00,00,00
1756490860916558,00000214,false,Rx,0,4,08,00,00,00,00,00,00,00
1756490860916661,00000488,false,Rx,0,8,08,27,55,00,52,01,88,00
1756490860919737,00000181,false,Rx,0,8,68,10,00,EA,02,00,00,00
1756490860921605,00000394,false,Rx,0,6,65,05,DD,01,0E,01,00,00
1756490860921698,00000294,false,Rx,0,4,57,A2,E8,FF,00,00,00,00
1756490860921795,00000714,false,Rx,0,1,05,00,00,00,00,00,00,00
1756490860921893,00000734,false,Rx,0,8,02,00,00,C0,3F,A2,E8,05
1756490860921991,00000194,false,Rx,0,6,14,00,F6,FF,00,00,00,00
1756490860926034,00000193,false,Rx,0,6,14,00,04,00,FC,FF,00,00
1756490860926303,00000213,false,Rx,0,4,08,00,00,00,00,00,00,00
1756490860926420,00000188,false,Rx,0,6,C4,FF,14,00,F0,03,00,00
1756490860926518,00000214,false,Rx,0,4,08,00,00,00,00,00,00,00
1756490860926615,00000288,false,Rx,0,6,00,00,00,00,00,00,00,00
1756490860926733,00000488,false,Rx,0,8,08,27,55,00,52,01,88,00
1756490860931613,00000194,false,Rx,0,6,14,00,06,00,00,00,00,00
1756490860932942,00000181,false,Rx,0,8,04,10,00,EA,02,00,00,00
1756490860935857,00000193,false,Rx,0,6,14,00,04,00,00,00,00,00
1756490860936214,00000213,false,Rx,0,4,08,00,00,00,00,00,00,00
1756490860936312,00000214,false,Rx,0,4,08,00,00,00,00,00,00,00
1756490860936543,00000188,false,Rx,0,6,C2,FF,10,00,FB,03,00,00
1756490860936667,00000288,false,Rx,0,6,00,00,00,00,00,00,00,00
1756490860936765,00000488,false,Rx,0,8,08,27,55,00,52,01,88,00
1756490860941610,00000194,false,Rx,0,6,14,00,02,00,00,00,00,00
1756490860945097,00000190,false,Rx,0,8,00,C9,C9,C9,C9,C9,C9,C9
1756490860945210,00000190,false,Rx,0,8,07,C9,C9,C9,C9,C9,C9,C9
1756490860945326,00000190,false,Rx,0,8,15,C9,C9,C9,C9,C9,C9,C9
1756490860945444,00000190,false,Rx,0,8,1C,C9,C8,C8,C9,C9,C9,C9
1756490860945541,00000190,false,Rx,0,8,23,C9,C9,C8,C9,C9,C9,C9
1756490860945639,00000190,false,Rx,0,8,0E,C9,C8,C9,C9,C9,C9,C9
1756490860945757,00000190,false,Rx,0,8,2A,C9,C9,C8,C9,C9,C9,C9
1756490860945881,00000190,false,Rx,0,8,31,C9,C9,C9,C9,C9,C9,C9
1756490860946004,00000190,false,Rx,0,8,3F,C9,C9,C9,C9,C9,C9,C9
1756490860946122,00000190,false,Rx,0,8,46,C9,C9,C9,C9,C9,C9,C9
1756490860946238,00000190,false,Rx,0,8,38,C9,C9,C9,C8,C9,C9,C7
1756490860946336,00000190,false,Rx,0,8,4D,C9,C9,C9,C9,C9,C9,C9
1756490860946433,00000190,false,Rx,0,8,54,C9,C9,C9,C9,C9,C9,C9
1756490860946551,00000190,false,Rx,0,8,62,C9,C7,C9,C9,C9,C9,C9
1756490860946668,00000190,false,Rx,0,8,5B,C9,C9,C9,C9,C9,C9,C9
1756490860946784,00000188,false,Rx,0,6,B7,FF,17,00,D4,03,00,00
1756490860946892,00000193,false,Rx,0,6,14,00,FF,FF,00,00,00,00
1756490860946990,00000288,false,Rx,0,6,00,00,00,00,00,00,00,00
1756490860947113,00000488,false,Rx,0,8,08,27,55,00,52,01,88,00
1756490860947305,00000213,false,Rx,0,4,08,00,00,00,00,00,00,00
1756490860947408,00000214,false,Rx,0,4,08,00,00,00,00,00,00,00
1756490860950183,00000390,false,Rx,0,8,00,13,13,13,13,13,13,13
1756490860950297,00000390,false,Rx,0,8,07,13,3E,3E,3E,3E,3E,3E
1756490860950411,00000390,false,Rx,0,8,15,3E,3E,3E,40,40,40,40
1756490860950528,00000390,false,Rx,0,8,1C,40,40,40,40,3D,3D,3D
1756490860950644,00000390,false,Rx,0,8,23,3D,3D,3D,3D,3D,3D,3D
1756490860950760,00000390,false,Rx,0,8,0E,3E,3E,3E,3E,3E,3E,3E
1756490860950919,00000390,false,Rx,0,8,2A,3D,3D,3D,3D,3D,3D,3D
1756490860951010,00000390,false,Rx,0,8,31,3D,3D,3D,3D,3D,3D,3D
1756490860951132,00000390,false,Rx,0,8,3F,3D,3D,3D,3D,3D,3D,3D
1756490860951229,00000390,false,Rx,0,8,46,3D,3D,3D,3D,3D,3D,3D
1756490860951327,00000390,false,Rx,0,8,38,3D,3D,3D,3D,3D,3D,3D
1756490860951442,00000390,false,Rx,0,8,4D,3D,3D,3D,3D,3D,3D,3D
1756490860951558,00000390,false,Rx,0,8,54,3D,3D,3D,3D,3D,3D,3D
1756490860951674,00000194,false,Rx,0,6,14,00,03,00,01,00,00,00
1756490860951771,00000390,false,Rx,0,8,69,3D,3D,3D,3D,3D,3D,3D
1756490860951867,00000390,false,Rx,0,8,70,3D,3D,3D,3D,3D,3D,3D
1756490860952057,00000390,false,Rx,0,8,77,3D,3D,3D,3D,3D,3D,3D
1756490860952131,00000390,false,Rx,0,8,7E,3D,3D,3D,3D,3D,3D,3D
1756490860952238,00000390,false,Rx,0,8,85,3D,3D,3D,13,13,13,13
1756490860952358,00000390,false,Rx,0,8,5B,3D,3D,3D,3D,3D,13,13
1756490860952486,00000390,false,Rx,0,8,8C,13,13,13,13,3C,3C,3C
1756490860952579,00000390,false,Rx,0,8,93,3C,3C,3C,3C,3C,3D,3D
1756490860952675,00000390,false,Rx,0,8,A1,13,13,13,13,13,13,13
1756490860952792,00000390,false,Rx,0,8,A8,13,13,13,13,13,13,13
1756490860952908,00000390,false,Rx,0,8,9A,3D,3D,3D,3D,3D,3D,13
1756490860953025,00000390,false,Rx,0,8,AF,13,3D,3D,3D,3D,3D,3D
1756490860953122,00000390,false,Rx,0,8,B6,3D,3D,3C,3C,3C,3C,3C
1756490860953219,00000390,false,Rx,0,8,C4,3D,3D,3D,3D,3D,3D,3D
1756490860953334,00000390,false,Rx,0,8,BD,3C,3C,3C,3D,3D,3D,3D
1756490860953451,00000390,false,Rx,0,8,CB,3D,3D,3D,3D,3D,3D,3D
1756490860953576,00000390,false,Rx,0,8,D2,3D,3D,3D,3D,3D,3D,3D
1756490860953698,00000390,false,Rx,0,8,D9,3D,3D,3D,3D,3D,3D,3D
1756490860955519,00000193,false,Rx,0,6,14,00,0B,00,01,00,00,00
1756490860956946,00000188,false,Rx,0,6,BA,FF,10,00,D7,03,00,00
1756490860957059,00000288,false,Rx,0,6,00,00,00,00,00,00,00,00
1756490860957236,00000213,false,Rx,0,4,08,00,00,00,00,00,00,00
1756490860957341,00000214,false,Rx,0,4,08,00,00,00,00,00,00,00
1756490860957734,00000488,false,Rx,0,8,08,27,55,00,52,01,88,00
1756490860961603,00000194,false,Rx,0,6,14,00,F9,FF,01,00,00,00
1756490860962177,00000701,false,Rx,0,1,05,00,00,00,00,00,00,00
1756490860965339,00000193,false,Rx,0,6,14,00,12,00,00,00,00,00
1756490860967114,00000213,false,Rx,0,4,08,00,00,00,00,00,00,00
1756490860967211,00000214,false,Rx,0,4,08,00,00,00,00,00,00,00
1756490860967746,00000188,false,Rx,0,6,B6,FF,13,00,E3,03,00,00
1756490860967870,00000288,false,Rx,0,6,00,00,00,00,00,00,00,00
1756490860967996,00000488,false,Rx,0,8,08,27,55,00,52,01,88,00
1756490860970474,00000181,false,Rx,0,8,68,10,00,E9,02,00,00,00
1756490860971607,00000194,false,Rx,0,6,14,00,FB,FF,01,00,00,00
1756490860975187,00000193,false,Rx,0,6,14,00,15,00,FD,FF,00,00
1756490860977025,00000213,false,Rx,0,4,08,00,00,00,00,00,00,00
1756490860977116,00000214,false,Rx,0,4,08,00,00,00,00,00,00,00
1756490860977970,00000188,false,Rx,0,6,B2,FF,13,00,CA,03,00,00
1756490860978052,00000288,false,Rx,0,6,00,00,00,00,00,00,00,00
1756490860978175,00000488,false,Rx,0,8,08,27,55,00,52,01,88,00
1756490860981612,00000194,false,Rx,0,6,14,00,F8,FF,00,00,00,00
1756490860982587,00000181,false,Rx,0,8,04,10,00,EA,02,00,00,00
1756490860984995,00000193,false,Rx,0,6,14,00,11,00,00,00,00,00
1756490860988032,00000213,false,Rx,0,4,08,00,00,00,00,00,00,00
1756490860988134,00000214,false,Rx,0,4,08,00,00,00,00,00,00,00
1756490860988238,00000188,false,Rx,0,6,C0,FF,12,00,FC,03,00,00
1756490860988335,00000288,false,Rx,0,6,00,00,00,00,00,00,00,00
1756490860988434,00000488,false,Rx,0,8,08,27,55,00,52,01,88,00
1756490860991610,00000194,false,Rx,0,6,14,00,01,00,02,00,00,00
1756490860994846,00000193,false,Rx,0,6,14,00,09,00,F9,FF,00,00
1756490860997937,00000213,false,Rx,0,4,08,00,00,00,00,00,00,00
1756490860998028,00000214,false,Rx,0,4,08,00,00,00,00,00,00,00
1756490860998323,00000188,false,Rx,0,6,BE,FF,10,00,F8,03,00,00
1756490860998468,00000288,false,Rx,0,6,00,00,00,00,00,00,00,00
1756490860998585,00000488,false,Rx,0,8,08,27,55,00,52,01,88,00
1756490860999933,00000710,false,Rx,0,1,7F,00,00,00,00,00,00,00
1756490861001606,00000194,false,Rx,0,6,14,00,01,00,02,00,00,00
1756490861004649,00000393,false,Rx,0,6,17,01,D5,01,17,01,00,00
1756490861004750,00000293,false,Rx,0,4,D0,A2,00,00,00,00,00,00
1756490861004853,00000713,false,Rx,0,1,05,00,00,00,00,00,00,00
1756490861004950,00000733,false,Rx,0,8,03,6F,12,03,3B,A2,00,05
1756490861005049,00000193,false,Rx,0,6,14,00,EC,FF,F5,FF,00,00
1756490861007835,00000213,false,Rx,0,4,08,00,00,00,00,00,00,00
1756490861007931,00000214,false,Rx,0,4,08,00,00,00,00,00,00,00
1756490861008530,00000188,false,Rx,0,6,B3,FF,12,00,C9,03,00,00
1756490861008670,00000288,false,Rx,0,6,00,00,00,00,00,00,00,00
1756490861008787,00000488,false,Rx,0,8,08,27,55,00,52,01,88,00
1756490861011675,00000194,false,Rx,0,6,14,00,F6,FF,FF,FF,00,00
1756490861012987,00000290,false,Rx,0,7,01,00,01,00,00,00,00,00
1756490861013097,00000490,false,Rx,0,5,64,00,00,00,00,00,00,00
1756490861014481,00000193,false,Rx,0,6,14,00,F6,FF,F8,FF,00,00
1756490861017746,00000213,false,Rx,0,4,08,00,00,00,00,00,00,00
1756490861017847,00000214,false,Rx,0,4,08,00,00,00,00,00,00,00
1756490861018730,00000188,false,Rx,0,6,B9,FF,15,00,E5,03,00,00
1756490861018874,00000288,false,Rx,0,6,00,00,00,00,00,00,00,00
1756490861018997,00000488,false,Rx,0,8,08,27,55,00,52,01,88,00
1756490861021607,00000394,false,Rx,0,6,65,05,DD,01,0E,01,00,00
1756490861021698,00000294,false,Rx,0,4,4E,A2,55,00,00,00,00,00
1756490861021796,00000714,false,Rx,0,1,05,00,00,00,00,00,00,00
1756490861021894,00000734,false,Rx,0,8,03,6F,12,03,3B,A2,55,05
1756490861021992,00000194,false,Rx,0,6,14,00,FF,FF,00,00,00,00
1756490861024303,00000193,false,Rx,0,6,14,00,07,00,02,00,00,00
1756490861028790,00000213,false,Rx,0,4,08,00,00,00,00,00,00,00
1756490861028874,00000214,false,Rx,0,4,08,00,00,00,00,00,00,00
1756490861028957,00000188,false,Rx,0,6,CA,FF,0A,00,00,04,00,00
1756490861029074,00000288,false,Rx,0,6,00,00,00,00,00,00,00,00
1756490861029191,00000488,false,Rx,0,8,08,27,55,00,52,01,88,00
1756490861031643,00000194,false,Rx,0,6,14,00,F2,FF,00,00,00,00
1756490861034184,00000193,false,Rx,0,6,14,00,07,00,FE,FF,00,00
1756490861038691,00000213,false,Rx,0,4,08,00,00,00,00,00,00,00
1756490861038776,00000214,false,Rx,0,4,08,00,00,00,00,00,00,00
1756490861039135,00000188,false,Rx,0,6,B9,FF,13,00,D6,03,00,00
1756490861039308,00000288,false,Rx,0,6,00,00,00,00,00,00,00,00
1756490861039414,00000488,false,Rx,0,8,08,27,55,00,52,01,88,00
1756490861041623,00000194,false,Rx,0,6,14,00,FB,FF,FF,FF,00,00
1756490861043967,00000193,false,Rx,0,6,14,00,06,00,FF,FF,00,00
1756490861048622,00000213,false,Rx,0,4,08,00,00,00,00,00,00,00
1756490861048725,00000214,false,Rx,0,4,08,00,00,00,00,00,00,00
1756490861049336,00000188,false,Rx,0,6,B6,FF,12,00,D2,03,00,00
1756490861049470,00000288,false,Rx,0,6,00,00,00,00,00,00,00,00
1756490861049588,00000488,false,Rx,0,8,08,27,55,00,52,01,88,00
1756490861049704,00000181,false,Rx,0,8,68,10,00,E9,02,00,00,00
1756490861051623,00000194,false,Rx,0,6,14,00,FF,FF,00,00,00,00
1756490861053790,00000193,false,Rx,0,6,14,00,10,00,FE,FF,00,00
1756490861059560,00000213,false,Rx,0,4,08,00,00,00,00,00,00,00
1756490861059654,00000214,false,Rx,0,4,08,00,00,00,00,00,00,00
1756490861060718,00000188,false,Rx,0,6,C4,FF,16,00,F7,03,00,00
1756490861060833,00000288,false,Rx,0,6,00,00,00,00,00,00,00,00
1756490861060950,00000488,false,Rx,0,8,08,27,55,00,52,01,88,00
1756490861061589,00000194,false,Rx,0,6,14,00,03,00,FD,FF,00,00
1756490861062471,00000701,false,Rx,0,1,05,00,00,00,00,00,00,00
1756490861062897,00000181,false,Rx,0,8,04,10,00,EA,02,00,00,00
1756490861063614,00000193,false,Rx,0,6,14,00,05,00,01,00,00,00
1756490861069466,00000213,false,Rx,0,4,08,00,00,00,00,00,00,00
1756490861069559,00000214,false,Rx,0,4,08,00,00,00,00,00,00,00
1756490861070816,00000188,false,Rx,0,6,B7,FF,1A,00,D1,03,00,00
1756490861070930,00000288,false,Rx,0,6,00,00,00,00,00,00,00,00
1756490861071055,00000488,false,Rx,0,8,08,27,55,00,52,01,88,00
1756490861071607,00000194,false,Rx,0,6,14,00,FA,FF,FF,FF,00,00
1756490861073444,00000193,false,Rx,0,6,14,00,F8,FF,03,00,00,00
1756490861079382,00000213,false,Rx,0,4,08,00,00,00,00,00,00,00
1756490861079484,00000214,false,Rx,0,4,08,00,00,00,00,00,00,00
1756490861081076,00000188,false,Rx,0,6,C2,FF,12,00,E7,03,00,00
1756490861081190,00000288,false,Rx,0,6,00,00,00,00,00,00,00,00
1756490861081307,00000488,false,Rx,0,8,08,27,55,00,52,01,88,00
1756490861081590,00000194,false,Rx,0,6,14,00,F9,FF,FF,FF,00,00
1756490861083270,00000193,false,Rx,0,6,14,00,01,00,FF,FF,00,00
1756490861089270,00000213,false,Rx,0,4,08,00,00,00,00,00,00,00
1756490861089364,00000214,false,Rx,0,4,08,00,00,00,00,00,00,00
1756490861091142,00000188,false,Rx,0,6,BD,FF,14,00,EC,03,00,00
1756490861091259,00000288,false,Rx,0,6,00,00,00,00,00,00,00,00
1756490861091375,00000488,false,Rx,0,8,08,27,55,00,52,01,88,00
1756490861091590,00000194,false,Rx,0,6,14,00,01,00,FF,FF,00,00
1756490861093101,00000193,false,Rx,0,6,14,00,09,00,03,00,00,00
1756490861099995,00000710,false,Rx,0,1,7F,00,00,00,00,00,00,00
1756490861100303,00000181,false,Rx,0,8,68,10,00,E9,02,00,00,00
1756490861100410,00000213,false,Rx,0,4,08,00,00,00,00,00,00,00
1756490861100514,00000214,false,Rx,0,4,08,00,00,00,00,00,00,00
1756490861101337,00000188,false,Rx,0,6,B4,FF,17,00,D3,03,00,00
1756490861101476,00000288,false,Rx,0,6,00,00,00,00,00,00,00,00
1756490861101591,00000488,false,Rx,0,8,08,27,55,00,52,01,88,00
1756490861101719,00000194,false,Rx,0,6,14,00,FC,FF,00,00,00,00
1756490861102929,00000393,false,Rx,0,6,17,01,D5,01,17,01,00,00
1756490861103028,00000293,false,Rx,0,4,CC,A2,00,00,00,00,00,00
1756490861103133,00000713,false,Rx,0,1,05,00,00,00,00,00,00,00
1756490861103233,00000733,false,Rx,0,8,04,8F,C2,F5,3F,A2,00,05
1756490861103333,00000193,false,Rx,0,6,14,00,03,00,06,00,00,00
1756490861110195,00000213,false,Rx,0,4,08,00,00,00,00,00,00,00
1756490861110295,00000214,false,Rx,0,4,08,00,00,00,00,00,00,00
1756490861111637,00000188,false,Rx,0,6,BA,FF,12,00,E3,03,00,00
1756490861111747,00000194,false,Rx,0,6,14,00,F6,FF,FF,FF,00,00
1756490861111810,00000288,false,Rx,0,6,00,00,00,00,00,00,00,00
1756490861111902,00000488,false,Rx,0,8,08,27,55,00,52,01,88,00
1756490861112742,00000193,false,Rx,0,6,14,00,07,00,05,00,00,00
1756490861113648,00000181,false,Rx,0,8,04,10,00,E9,02,00,00,00
1756490861120204,00000213,false,Rx,0,4,08,00,00,00,00,00,00,00
1756490861120287,00000214,false,Rx,0,4,08,00,00,00,00,00,00,00
1756490861121708,00000394,false,Rx,0,6,65,05,DD,01,16,01,00,00
1756490861121782,00000294,false,Rx,0,4,A2,A1,95,00,00,00,00,00
1756490861121841,00000188,false,Rx,0,6,C6,FF,13,00,FC,03,00,00
1756490861122020,00000288,false,Rx,0,6,00,00,00,00,00,00,00,00
1756490861122082,00000488,false,Rx,0,8,08,27,55,00,52,01,88,00
1756490861122141,00000714,false,Rx,0,1,05,00,00,00,00,00,00,00
1756490861122197,00000734,false,Rx,0,8,04,8F,C2,F5,3F,A1,95,05
1756490861122321,00000194,false,Rx,0,6,14,00,02,00,03,00,00,00
1756490861122594,00000193,false,Rx,0,6,14,00,04,00,FF,FF,00,00
1756490861130246,00000181,false,Rx,0,8,68,10,00,E9,02,00,00,00
1756490861130337,00000213,false,Rx,0,4,08,00,00,00,00,00,00,00
1756490861130433,00000214,false,Rx,0,4,08,00,00,00,00,00,00,00
1756490861131611,00000194,false,Rx,0,6,14,00,F3,FF,01,00,00,00
1756490861131943,00000188,false,Rx,0,6,BC,FF,0D,00,D5,03,00,00
1756490861132396,00000193,false,Rx,0,6,14,00,FC,FF,02,00,00,00
1756490861132752,00000288,false,Rx,0,6,00,00,00,00,00,00,00,00
1756490861132868,00000488,false,Rx,0,8,08,27,55,00,52,01,88,00
1756490861141210,00000213,false,Rx,0,4,08,00,00,00,00,00,00,00
1756490861141311,00000214,false,Rx,0,4,08,00,00,00,00,00,00,00
1756490861141589,00000194,false,Rx,0,6,14,00,03,00,01,00,00,00
1756490861142223,00000193,false,Rx,0,6,14,00,09,00,00,00,00,00
1756490861142782,00000188,false,Rx,0,6,C2,FF,12,00,F7,03,00,00
1756490861142893,00000288,false,Rx,0,6,00,00,00,00,00,00,00,00
1756490861143067,00000488,false,Rx,0,8,08,27,55,00,52,01,88,00
1756490861143501,00000181,false,Rx,0,8,04,10,00,EA,02,00,00,00
1756490861151235,00000213,false,Rx,0,4,08,00,00,00,00,00,00,00
1756490861151323,00000214,false,Rx,0,4,08,00,00,00,00,00,00,00
1756490861151586,00000194,false,Rx,0,6,14,00,F9,FF,01,00,00,00
1756490861152062,00000193,false,Rx,0,6,14,00,00,00,02,00,00,00
1756490861153042,00000188,false,Rx,0,6,C4,FF,0E,00,FD,03,00,00
1756490861153154,00000288,false,Rx,0,6,00,00,00,00,00,00,00,00
1756490861153367,00000488,false,Rx,0,8,08,27,55,00,52,01,88,00
1756490861161111,00000213,false,Rx,0,4,08,00,00,00,00,00,00,00
1756490861161213,00000214,false,Rx,0,4,08,00,00,00,00,00,00,00
1756490861161590,00000194,false,Rx,0,6,14,00,FF,FF,01,00,00,00
1756490861161876,00000193,false,Rx,0,6,14,00,08,00,00,00,00,00
1756490861162673,00000701,false,Rx,0,1,05,00,00,00,00,00,00,00
1756490861163322,00000188,false,Rx,0,6,B7,FF,16,00,D4,03,00,00
1756490861163442,00000288,false,Rx,0,6,00,00,00,00,00,00,00,00
1756490861163685,00000488,false,Rx,0,8,08,27,55,00,51,01,88,00
1756490861171017,00000213,false,Rx,0,4,08,00,00,00,00,00,00,00
1756490861171110,00000214,false,Rx,0,4,08,00,00,00,00,00,00,00
1756490861171588,00000194,false,Rx,0,6,14,00,F8,FF,01,00,00,00
1756490861171717,00000193,false,Rx,0,6,14,00,06,00,00,00,00,00
1756490861173630,00000188,false,Rx,0,6,BA,FF,0E,00,F6,03,00,00
1756490861173743,00000288,false,Rx,0,6,00,00,00,00,00,00,00,00
1756490861173968,00000488,false,Rx,0,8,08,27,55,00,51,01,88,00
1756490861181548,00000193,false,Rx,0,6,14,00,0D,00,01,00,00,00
1756490861181638,00000194,false,Rx,0,6,14,00,FB,FF,01,00,00,00
1756490861182034,00000213,false,Rx,0,4,08,00,00,00,00,00,00,00
1756490861182131,00000214,false,Rx,0,4,08,00,00,00,00,00,00,00
1756490861183934,00000188,false,Rx,0,6,BC,FF,12,00,FA,03,00,00
1756490861184046,00000288,false,Rx,0,6,00,00,00,00,00,00,00,00
1756490861184268,00000488,false,Rx,0,8,08,27,55,00,52,01,88,00
1756490861189753,00000181,false,Rx,0,8,68,10,00,E9,02,00,00,00
1756490861191372,00000193,false,Rx,0,6,14,00,02,00,FC,FF,00,00
1756490861191599,00000194,false,Rx,0,6,14,00,04,00,00,00,00,00
1756490861191959,00000213,false,Rx,0,4,08,00,00,00,00,00,00,00
1756490861192053,00000214,false,Rx,0,4,08,00,00,00,00,00,00,00
1756490861194268,00000188,false,Rx,0,6,B0,FF,16,00,C9,03,00,00
1756490861194367,00000288,false,Rx,0,6,00,00,00,00,00,00,00,00
1756490861194571,00000488,false,Rx,0,8,08,27,55,00,52,01,88,00
1756490861201241,00000393,false,Rx,0,6,17,01,D5,01,17,01,00,00
1756490861201329,00000293,false,Rx,0,4,BD,A2,00,00,00,00,00,00
1756490861201433,00000713,false,Rx,0,1,05,00,00,00,00,00,00,00
1756490861201527,00000733,false,Rx,0,8,05,00,00,C0,3F,A2,00,05
1756490861201623,00000193,false,Rx,0,6,14,00,E9,FF,FA,FF,00,00
1756490861201721,00000194,false,Rx,0,6,14,00,FA,FF,FE,FF,00,00
1756490861201875,00000213,false,Rx,0,4,08,00,00,00,00,00,00,00
1756490861201973,00000214,false,Rx,0,4,08,00,00,00,00,00,00,00
1756490861202941,00000710,false,Rx,0,1,7F,00,00,00,00,00,00,00
1756490861203054,00000181,false,Rx,0,8,04,10,00,EA,02,00,00,00
1756490861204533,00000188,false,Rx,0,6,B4,FF,0C,00,DB,03,00,00
1756490861205651,00000288,false,Rx,0,6,00,00,00,00,00,00,00,00
1756490861205762,00000488,false,Rx,0,8,08,27,55,00,52,01,88,00
1756490861211033,00000193,false,Rx,0,6,14,00,FF,FF,FC,FF,00,00
1756490861211589,00000194,false,Rx,0,6,14,00,FE,FF,01,00,00,00
1756490861211883,00000213,false,Rx,0,4,08,00,00,00,00,00,00,00
1756490861211992,00000214,false,Rx,0,4,08,00,00,00,00,00,00,00
1756490861213132,00000290,false,Rx,0,7,01,00,01,00,00,00,00,00
1756490861213226,00000490,false,Rx,0,5,64,00,00,00,00,00,00,00
1756490861215668,00000188,false,Rx,0,6,BB,FF,12,00,F0,03,00,00
1756490861215780,00000288,false,Rx,0,6,00,00,00,00,00,00,00,00
1756490861215906,00000488,false,Rx,0,8,08,27,55,00,52,01,88,00
1756490861216321,00000181,false,Rx,0,8,68,10,00,E9,02,00,00,00
1756490861220860,00000193,false,Rx,0,6,14,00,04,00,03,00,00,00
1756490861221584,00000394,false,Rx,0,6,65,05,DD,01,0E,01,00,00
1756490861221691,00000294,false,Rx,0,4,CC,A1,24,00,00,00,00,00
1756490861221795,00000714,false,Rx,0,1,05,00,00,00,00,00,00,00
1756490861221892,00000734,false,Rx,0,8,05,00,00,C0,3F,A1,24,05
1756490861221991,00000194,false,Rx,0,6,14,00,00,00,00,00,00,00
1756490861223053,00000213,false,Rx,0,4,08,00,00,00,00,00,00,00
1756490861223152,00000214,false,Rx,0,4,08,00,00,00,00,00,00,00
1756490861225861,00000188,false,Rx,0,6,B1,FF,15,00,C2,03,00,00
1756490861225964,00000288,false,Rx,0,6,00,00,00,00,00,00,00,00
1756490861226081,00000488,false,Rx,0,8,08,27,55,00,52,01,88,00
1756490861229674,00000181,false,Rx,0,8,04,10,00,E9,02,00,00,00
1756490861230679,00000193,false,Rx,0,6,14,00,FC,FF,FE,FF,00,00
1756490861231615,00000194,false,Rx,0,6,14,00,FB,FF,FE,FF,00,00
1756490861232939,00000213,false,Rx,0,4,08,00,00,00,00,00,00,00
1756490861233032,00000214,false,Rx,0,4,08,00,00,00,00,00,00,00
1756490861236043,00000188,false,Rx,0,6,BF,FF,12,00,F4,03,00,00
1756490861236193,00000288,false,Rx,0,6,00,00,00,00,00,00,00,00
1756490861236310,00000488,false,Rx,0,8,08,27,55,00,53,01,88,00
1756490861240514,00000193,false,Rx,0,6,14,00,02,00,FD,FF,00,00
1756490861241597,00000194,false,Rx,0,6,14,00,F8,FF,01,00,00,00
1756490861242839,00000213,false,Rx,0,4,08,00,00,00,00,00,00,00
1756490861242935,00000214,false,Rx,0,4,08,00,00,00,00,00,00,00
1756490861246238,00000188,false,Rx,0,6,C4,FF,0E,00,FC,03,00,00
1756490861246376,00000288,false,Rx,0,6,00,00,00,00,00,00,00,00
1756490861246493,00000488,false,Rx,0,8,08,27,55,00,53,01,88,00
1756490861250337,00000193,false,Rx,0,6,14,00,04,00,FD,FF,00,00
1756490861250584,00000181,false,Rx,0,8,68,10,00,EA,02,00,00,00
1756490861251597,00000194,false,Rx,0,6,14,00,FB,FF,01,00,00,00
1756490861252761,00000213,false,Rx,0,4,08,00,00,00,00,00,00,00
1756490861252853,00000214,false,Rx,0,4,08,00,00,00,00,00,00,00
1756490861256440,00000188,false,Rx,0,6,B5,FF,0D,00,CB,03,00,00
1756490861256576,00000288,false,Rx,0,6,00,00,00,00,00,00,00,00
1756490861256694,00000488,false,Rx,0,8,08,27,55,00,53,01,88,00
1756490861260163,00000193,false,Rx,0,6,14,00,F9,FF,01,00,00,00
1756490861261594,00000194,false,Rx,0,6,14,00,F7,FF,FE,FF,00,00
1756490861262700,00000181,false,Rx,0,8,04,10,00,E9,02,00,00,00
1756490861262949,00000701,false,Rx,0,1,05,00,00,00,00,00,00,00
1756490861263759,00000213,false,Rx,0,4,08,00,00,00,00,00,00,00
1756490861263845,00000214,false,Rx,0,4,08,00,00,00,00,00,00,00
1756490861266653,00000188,false,Rx,0,6,BB,FF,17,00,DD,03,00,00
1756490861266766,00000288,false,Rx,0,6,00,00,00,00,00,00,00,00
1756490861266884,00000488,false,Rx,0,8,08,27,55,00,53,01,88,00
1756490861269997,00000193,false,Rx,0,6,14,00,EF,FF,FF,FF,00,00
1756490861271598,00000194,false,Rx,0,6,14,00,F7,FF,00,00,00,00
1756490861273652,00000213,false,Rx,0,4,08,00,00,00,00,00,00,00
1756490861273838,00000214,false,Rx,0,4,08,00,00,00,00,00,00,00
1756490861276850,00000188,false,Rx,0,6,CC,FF,0F,00,FE,03,00,00
1756490861276985,00000288,false,Rx,0,6,00,00,00,00,00,00,00,00
1756490861277101,00000488,false,Rx,0,8,08,27,55,00,53,01,88,00
1756490861279826,00000193,false,Rx,0,6,14,00,F3,FF,00,00,00,00
1756490861281599,00000194,false,Rx,0,6,14,00,04,00,00,00,00,00
1756490861283559,00000213,false,Rx,0,4,08,00,00,00,00,00,00,00
1756490861283654,00000214,false,Rx,0,4,08,00,00,00,00,00,00,00
1756490861287042,00000188,false,Rx,0,6,C2,FF,15,00,DF,03,00,00
1756490861287863,00000288,false,Rx,0,6,00,00,00,00,00,00,00,00
1756490861287978,00000488,false,Rx,0,8,08,27,55,00,52,01,88,00
1756490861289656,00000193,false,Rx,0,6,14,00,0D,00,02,00,00,00
1756490861291642,00000194,false,Rx,0,6,14,00,F6,FF,FF,FF,00,00
1756490861294611,00000213,false,Rx,0,4,08,00,00,00,00,00,00,00
1756490861294689,00000214,false,Rx,0,4,08,00,00,00,00,00,00,00
1756490861297910,00000188,false,Rx,0,6,CC,FF,18,00,FC,03,00,00
1756490861297986,00000288,false,Rx,0,6,00,00,00,00,00,00,00,00
1756490861298171,00000488,false,Rx,0,8,08,27,55,00,52,01,88,00
1756490861299484,00000393,false,Rx,0,6,18,01,D5,01,17,01,00,00
1756490861299576,00000293,false,Rx,0,4,92,A2,00,00,00,00,00,00
1756490861299673,00000713,false,Rx,0,1,05,00,00,00,00,00,00,00
1756490861299769,00000733,false,Rx,0,8,06,6F,12,03,3B,A2,00,05
1756490861299866,00000193,false,Rx,0,6,14,00,04,00,07,00,00,00
1756490861301604,00000194,false,Rx,0,6,14,00,FC,FF,FF,FF,00,00
1756490861304475,00000213,false,Rx,0,4,08,00,00,00,00,00,00,00
1756490861304566,00000214,false,Rx,0,4,08,00,00,00,00,00,00,00
1756490861308146,00000188,false,Rx,0,6,C5,FF,14,00,F5,03,00,00
1756490861308271,00000288,false,Rx,0,6,00,00,00,00,00,00,00,00
1756490861308486,00000488,false,Rx,0,8,08,27,55,00,52,01,88,00
1756490861309291,00000193,false,Rx,0,6,14,00,02,00,04,00,00,00
1756490861310946,00000710,false,Rx,0,1,7F,00,00,00,00,00,00,00
1756490861311586,00000194,false,Rx,0,6,14,00,F6,FF,00,00,00,00
1756490861314451,00000213,false,Rx,0,4,08,00,00,00,00,00,00,00
1756490861314559,00000214,false,Rx,0,4,08,00,00,00,00,00,00,00
1756490861317116,00000400,false,Rx,0,8,FB,C8,E8,0E,D3,B0,6F,48
1756490861318566,00000188,false,Rx,0,6,B4,FF,20,00,CC,03,00,00
1756490861318673,00000401,false,Rx,0,2,23,00,00,00,00,00,00,00
1756490861318735,00000288,false,Rx,0,6,00,00,00,00,00,00,00,00
1756490861319612,00000488,false,Rx,0,8,08,27,55,00,52,01,88,00
1756490861319736,00000410,false,Rx,0,8,59,A8,35,CD,3B,4E,31,40
1756490861319809,00000193,false,Rx,0,6,14,00,F8,FF,FD,FF,00,00
1756490861319877,00000411,false,Rx,0,8,00,00,00,00,00,00,00,00
1756490861321309,00000412,false,Rx,0,8,00,00,00,00,00,00,00,00
1756490861321803,00000413,false,Rx,0,8,00,00,00,00,00,00,00,00
1756490861322592,00000414,false,Rx,0,8,59,A8,35,CD,3B,4E,31,40
1756490861323099,00000394,false,Rx,0,6,65,05,DD,01,1F,01,00,00
1756490861323337,00000294,false,Rx,0,4,3C,A2,D0,FF,00,00,00,00
1756490861323407,00000415,false,Rx,0,8,00,00,00,00,00,00,00,00
1756490861323470,00000714,false,Rx,0,1,05,00,00,00,00,00,00,00
1756490861323527,00000734,false,Rx,0,8,06,6F,12,03,3B,A2,D0,05
1756490861323587,00000194,false,Rx,0,6,14,00,F3,FF,01,00,00,00
1756490861323647,00000416,false,Rx,0,8,00,00,00,00,00,00,00,00
1756490861323706,00000417,false,Rx,0,8,00,00,00,00,00,00,00,00
1756490861323768,00000418,false,Rx,0,8,59,A8,35,CD,3B,4E,71,40
1756490861323827,00000419,false,Rx,0,8,01,00,00,00,00,00,00,00
1756490861324396,00000213,false,Rx,0,4,08,00,00,00,00,00,00,00
1756490861324476,00000214,false,Rx,0,4,08,00,00,00,00,00,00,00
1756490861328815,00000188,false,Rx,0,6,C6,FF,10,00,FA,03,00,00
1756490861329124,00000288,false,Rx,0,6,00,00,00,00,00,00,00,00
1756490861329195,00000193,false,Rx,0,6,14,00,F9,FF,01,00,00,00
1756490861329256,00000488,false,Rx,0,8,08,27,55,00,52,01,88,00
1756490861331746,00000194,false,Rx,0,6,14,00,F7,FF,01,00,00,00
1756490861335403,00000213,false,Rx,0,4,08,00,00,00,00,00,00,00
1756490861335492,00000214,false,Rx,0,4,08,00,00,00,00,00,00,00
1756490861338854,00000193,false,Rx,0,6,14,00,08,00,02,00,00,00
1756490861339097,00000188,false,Rx,0,6,C2,FF,11,00,FD,03,00,00
1756490861339455,00000288,false,Rx,0,6,00,00,00,00,00,00,00,00
1756490861339523,00000488,false,Rx,0,8,08,27,55,00,52,01,88,00
1756490861339854,00000181,false,Rx,0,8,68,10,00,E9,02,00,00,00
1756490861341656,00000194,false,Rx,0,6,14,00,03,00,01,00,00,00
1756490861345332,00000213,false,Rx,0,4,08,00,00,00,00,00,00,00
1756490861345462,00000214,false,Rx,0,4,08,00,00,00,00,00,00,00
1756490861348678,00000193,false,Rx,0,6,14,00,FE,FF,01,00,00,00
1756490861349409,00000188,false,Rx,0,6,B7,FF,14,00,D2,03,00,00
1756490861349547,00000288,false,Rx,0,6,00,00,00,00,00,00,00,00
1756490861351100,00000488,false,Rx,0,8,08,27,55,00,52,01,88,00
1756490861351683,00000194,false,Rx,0,6,14,00,F5,FF,01,00,00,00
1756490861353085,00000181,false,Rx,0,8,04,10,00,E9,02,00,00,00
1756490861355257,00000213,false,Rx,0,4,08,00,00,00,00,00,00,00
1756490861355360,00000214,false,Rx,0,4,08,00,00,00,00,00,00,00
1756490861356312,00000100,false,Rx,0,6,2B,CF,E3,03,70,3B,00,00
1756490861358997,00000193,false,Rx,0,6,14,00,F7,FF,FF,FF,00,00
1756490861361065,00000188,false,Rx,0,6,C2,FF,0B,00,FE,03,00,00
1756490861361178,00000288,false,Rx,0,6,00,00,00,00,00,00,00,00
1756490861361241,00000488,false,Rx,0,8,08,27,55,00,52,01,88,00
1756490861361816,00000194,false,Rx,0,6,14,00,04,00,00,00,00,00
1756490861363210,00000701,false,Rx,0,1,05,00,00,00,00,00,00,00
1756490861365108,00000213,false,Rx,0,4,08,00,00,00,00,00,00,00
1756490861365196,00000214,false,Rx,0,4,08,00,00,00,00,00,00,00
1756490861368539,00000193,false,Rx,0,6,14,00,13,00,01,00,00,00
1756490861371211,00000188,false,Rx,0,6,BA,FF,12,00,DB,03,00,00
1756490861371314,00000288,false,Rx,0,6,00,00,00,00,00,00,00,00
1756490861371420,00000488,false,Rx,0,8,08,27,55,00,52,01,88,00
1756490861371832,00000194,false,Rx,0,6,14,00,F9,FF,FF,FF,00,00
1756490861376104,00000213,false,Rx,0,4,08,00,00,00,00,00,00,00
1756490861376213,00000214,false,Rx,0,4,08,00,00,00,00,00,00,00
1756490861378353,00000193,false,Rx,0,6,14,00,15,00,FE,FF,00,00
1756490861381259,00000188,false,Rx,0,6,B5,FF,17,00,D0,03,00,00
1756490861381370,00000288,false,Rx,0,6,00,00,00,00,00,00,00,00
1756490861381487,00000488,false,Rx,0,8,08,27,55,00,52,01,88,00
1756490861381812,00000194,false,Rx,0,6,14,00,FB,FF,FF,FF,00,00
1756490861386010,00000213,false,Rx,0,4,08,00,00,00,00,00,00,00
1756490861386102,00000214,false,Rx,0,4,08,00,00,00,00,00,00,00
1756490861388180,00000193,false,Rx,0,6,14,00,04,00,FF,FF,00,00
1756490861391454,00000188,false,Rx,0,6,C9,FF,11,00,F7,03,00,00
1756490861391573,00000288,false,Rx,0,6,00,00,00,00,00,00,00,00
1756490861391689,00000488,false,Rx,0,8,08,27,55,00,52,01,88,00
1756490861391805,00000194,false,Rx,0,6,14,00,FD,FF,01,00,00,00
1756490861395950,00000213,false,Rx,0,4,08,00,00,00,00,00,00,00
1756490861396036,00000214,false,Rx,0,4,08,00,00,00,00,00,00,00
1756490861398013,00000393,false,Rx,0,6,18,01,D5,01,17,01,00,00
1756490861398105,00000293,false,Rx,0,4,84,A2,00,00,00,00,00,00
1756490861398205,00000713,false,Rx,0,1,05,00,00,00,00,00,00,00
1756490861398301,00000733,false,Rx,0,8,07,00,00,80,3F,A2,00,05
1756490861398399,00000193,false,Rx,0,6,14,00,FE,FF,FE,FF,00,00
1756490861400349,00000181,false,Rx,0,8,68,10,00,E9,02,00,00,00
1756490861401655,00000188,false,Rx,0,6,BC,FF,14,00,F5,03,00,00
1756490861401793,00000288,false,Rx,0,6,00,00,00,00,00,00,00,00
1756490861401890,00000194,false,Rx,0,6,14,00,F6,FF,FF,FF,00,00
1756490861401997,00000488,false,Rx,0,8,08,27,55,00,52,01,88,00
1756490861405921,00000213,false,Rx,0,4,08,00,00,00,00,00,00,00
1756490861406012,00000214,false,Rx,0,4,08,00,00,00,00,00,00,00
1756490861407838,00000193,false,Rx,0,6,14,00,07,00,04,00,00,00
1756490861410952,00000710,false,Rx,0,1,7F,00,00,00,00,00,00,00
1756490861411822,00000194,false,Rx,0,6,14,00,FC,FF,FF,FF,00,00
1756490861411918,00000188,false,Rx,0,6,B5,FF,14,00,BD,03,00,00
1756490861412013,00000288,false,Rx,0,6,00,00,00,00,00,00,00,00
1756490861412130,00000488,false,Rx,0,8,08,27,55,00,52,01,88,00
1756490861413128,00000290,false,Rx,0,7,01,00,01,00,00,00,00,00
1756490861413218,00000490,false,Rx,0,5,64,00,00,00,00,00,00,00
1756490861413796,00000181,false,Rx,0,8,04,10,00,E9,02,00,00,00
1756490861417061,00000213,false,Rx,0,4,08,00,00,00,00,00,00,00
1756490861417146,00000214,false,Rx,0,4,08,00,00,00,00,00,00,00
1756490861417681,00000193,false,Rx,0,6,14,00,08,00,03,00,00,00
1756490861420793,00000400,false,Rx,0,8,FB,C8,E8,0E,D3,B0,6F,48
1756490861420935,00000401,false,Rx,0,2,00,00,00,00,00,00,00,00
1756490861421290,00000410,false,Rx,0,8,00,00,00,00,00,00,00,00
1756490861421615,00000411,false,Rx,0,8,00,00,00,00,00,00,00,00
1756490861421862,00000394,false,Rx,0,6,65,05,DD,01,16,01,00,00
1756490861421961,00000294,false,Rx,0,4,EC,A1,C4,FF,00,00,00,00
1756490861422067,00000188,false,Rx,0,6,BE,FF,12,00,F3,03,00,00
1756490861422143,00000412,false,Rx,0,8,00,00,00,00,00,00,00,00
1756490861422212,00000714,false,Rx,0,1,05,00,00,00,00,00,00,00
1756490861422310,00000734,false,Rx,0,8,07,00,00,80,3F,A1,C4,05
1756490861422408,00000194,false,Rx,0,6,14,00,F9,FF,FF,FF,00,00
1756490861423958,00000413,false,Rx,0,8,00,00,00,00,00,00,00,00
1756490861424196,00000288,false,Rx,0,6,00,00,00,00,00,00,00,00
1756490861424319,00000488,false,Rx,0,8,08,27,55,00,52,01,88,00
1756490861424401,00000414,false,Rx,0,8,00,00,00,00,00,00,00,00
1756490861424472,00000415,false,Rx,0,8,00,00,00,00,00,00,00,00
1756490861424547,00000416,false,Rx,0,8,00,00,00,00,00,00,00,00
1756490861424847,00000417,false,Rx,0,8,00,00,00,00,00,00,00,00
1756490861425187,00000418,false,Rx,0,8,00,00,00,00,00,00,00,00
1756490861425517,00000419,false,Rx,0,8,00,00,00,00,00,00,00,00
1756490861425807,00000402,false,Rx,0,8,FC,FF,FF,FF,00,00,00,00
1756490861426111,00000403,false,Rx,0,8,02,00,00,00,00,00,00,00
1756490861426538,00000404,false,Rx,0,8,00,00,00,00,00,00,00,00
1756490861427203,00000213,false,Rx,0,4,08,00,00,00,00,00,00,00
1756490861427502,00000214,false,Rx,0,4,08,00,00,00,00,00,00,00
1756490861427809,00000405,false,Rx,0,8,00,00,00,00,00,00,00,00
1756490861428016,00000193,false,Rx,0,6,14,00,06,00,04,00,00,00
1756490861428118,00000406,false,Rx,0,8,00,00,00,00,00,00,00,00
1756490861428197,00000407,false,Rx,0,8,00,00,00,00,00,00,00,00
1756490861428272,00000408,false,Rx,0,8,05,00,00,00,00,00,00,00
1756490861430322,00000181,false,Rx,0,8,68,10,00,E9,02,00,00,00
1756490861431844,00000194,false,Rx,0,6,14,00,00,00,02,00,00,00
1756490861432885,00000188,false,Rx,0,6,BC,FF,16,00,CB,03,00,00
1756490861432992,00000288,false,Rx,0,6,00,00,00,00,00,00,00,00
1756490861433794,00000488,false,Rx,0,8,08,27,55,00,52,01,88,00
1756490861436831,00000213,false,Rx,0,4,08,00,00,00,00,00,00,00
1756490861436933,00000214,false,Rx,0,4,08,00,00,00,00,00,00,00
1756490861437322,00000193,false,Rx,0,6,14,00,15,00,01,00,00,00
1756490861441836,00000194,false,Rx,0,6,14,00,F9,FF,FF,FF,00,00
1756490861443142,00000188,false,Rx,0,6,BC,FF,13,00,D0,03,00,00
1756490861443256,00000288,false,Rx,0,6,00,00,00,00,00,00,00,00
1756490861443483,00000181,false,Rx,0,8,04,10,00,E9,02,00,00,00
1756490861444096,00000488,false,Rx,0,8,08,27,55,00,52,01,88,00
1756490861446734,00000213,false,Rx,0,4,08,00,00,00,00,00,00,00
1756490861446825,00000214,false,Rx,0,4,08,00,00,00,00,00,00,00
1756490861447132,00000193,false,Rx,0,6,14,00,08,00,00,00,00,00
1756490861451832,00000194,false,Rx,0,6,14,00,FB,FF,01,00,00,00
1756490861453459,00000188,false,Rx,0,6,C9,FF,16,00,04,04,00,00
1756490861453581,00000288,false,Rx,0,6,00,00,00,00,00,00,00,00
1756490861454381,00000488,false,Rx,0,8,08,27,55,00,52,01,88,00
1756490861456982,00000193,false,Rx,0,6,14,00,0C,00,01,00,00,00
1756490861457760,00000213,false,Rx,0,4,08,00,00,00,00,00,00,00
1756490861457853,00000214,false,Rx,0,4,08,00,00,00,00,00,00,00
1756490861461833,00000194,false,Rx,0,6,14,00,F5,FF,02,00,00,00
1756490861463411,00000701,false,Rx,0,1,05,00,00,00,00,00,00,00
1756490861463734,00000188,false,Rx,0,6,C0,FF,0F,00,F9,03,00,00
1756490861463852,00000288,false,Rx,0,6,00,00,00,00,00,00,00,00
1756490861464693,00000488,false,Rx,0,8,08,27,55,00,52,01,88,00
1756490861466802,00000193,false,Rx,0,6,14,00,FD,FF,00,00,00,00
1756490861467660,00000213,false,Rx,0,4,08,00,00,00,00,00,00,00
1756490861467766,00000214,false,Rx,0,4,08,00,00,00,00,00,00,00
1756490861471826,00000194,false,Rx,0,6,14,00,F5,FF,00,00,00,00
1756490861474045,00000188,false,Rx,0,6,B6,FF,18,00,CB,03,00,00
1756490861474157,00000288,false,Rx,0,6,00,00,00,00,00,00,00,00
1756490861475780,00000488,false,Rx,0,8,08,27,55,00,52,01,88,00
1756490861476628,00000193,false,Rx,0,6,14,00,01,00,04,00,00,00
1756490861477559,00000213,false,Rx,0,4,08,00,00,00,00,00,00,00
1756490861477653,00000214,false,Rx,0,4,08,00,00,00,00,00,00,00
1756490861481829,00000194,false,Rx,0,6,14,00,F4,FF,01,00,00,00
1756490861483627,00000188,false,Rx,0,6,BA,FF,07,00,EB,03,00,00
1756490861483768,00000288,false,Rx,0,6,00,00,00,00,00,00,00,00
1756490861486052,00000488,false,Rx,0,8,08,27,55,00,52,01,88,00
1756490861486451,00000193,false,Rx,0,6,14,00,FF,FF,00,00,00,00
1756490861488551,00000213,false,Rx,0,4,08,00,00,00,00,00,00,00
1756490861488647,00000214,false,Rx,0,4,08,00,00,00,00,00,00,00
1756490861491826,00000194,false,Rx,0,6,14,00,04,00,03,00,00,00
1756490861493930,00000188,false,Rx,0,6,AB,FF,0F,00,C5,03,00,00
1756490861494067,00000288,false,Rx,0,6,00,00,00,00,00,00,00,00
1756490861496325,00000393,false,Rx,0,6,18,01,D5,01,17,01,00,00
1756490861496416,00000293,false,Rx,0,4,BC,A2,00,00,00,00,00,00
1756490861496482,00000488,false,Rx,0,8,08,27,55,00,52,01,88,00
1756490861496589,00000713,false,Rx,0,1,05,00,00,00,00,00,00,00
1756490861496685,00000733,false,Rx,0,8,08,00,00,80,3F,A2,00,05
1756490861496783,00000193,false,Rx,0,6,14,00,13,00,02,00,00,00
1756490861498561,00000213,false,Rx,0,4,08,00,00,00,00,00,00,00
1756490861498655,00000214,false,Rx,0,4,08,00,00,00,00,00,00,00
1756490861501834,00000194,false,Rx,0,6,14,00,F4,FF,01,00,00,00
1756490861504244,00000188,false,Rx,0,6,B3,FF,13,00,E8,03,00,00
1756490861504388,00000288,false,Rx,0,6,00,00,00,00,00,00,00,00
1756490861506112,00000193,false,Rx,0,6,14,00,FB,FF,FB,FF,00,00
1756490861506650,00000488,false,Rx,0,8,08,27,55,00,52,01,88,00
1756490861508462,00000213,false,Rx,0,4,08,00,00,00,00,00,00,00
1756490861508554,00000214,false,Rx,0,4,08,00,00,00,00,00,00,00
1756490861511077,00000710,false,Rx,0,1,7F,00,00,00,00,00,00,00
1756490861511821,00000194,false,Rx,0,6,14,00,FB,FF,FF,FF,00,00
1756490861514528,00000188,false,Rx,0,6,BD,FF,05,00,03,04,00,00
1756490861514669,00000288,false,Rx,0,6,00,00,00,00,00,00,00,00
1756490861515938,00000193,false,Rx,0,6,14,00,F2,FF,FC,FF,00,00
1756490861516951,00000488,false,Rx,0,8,08,27,55,00,52,01,88,00
1756490861518365,00000213,false,Rx,0,4,08,00,00,00,00,00,00,00
1756490861518471,00000214,false,Rx,0,4,08,00,00,00,00,00,00,00
1756490861521964,00000394,false,Rx,0,6,69,05,DD,01,1F,01,00,00
1756490861522101,00000294,false,Rx,0,4,E2,A1,D4,FF,00,00,00,00
1756490861522174,00000714,false,Rx,0,1,05,00,00,00,00,00,00,00
1756490861522242,00000734,false,Rx,0,8,08,00,00,80,3F,A1,D4,05
1756490861522305,00000194,false,Rx,0,6,14,00,F8,FF,01,00,00,00
1756490861525787,00000193,false,Rx,0,6,14,00,04,00,FA,FF,00,00
1756490861525888,00000188,false,Rx,0,6,B5,FF,0E,00,D4,03,00,00
1756490861525992,00000288,false,Rx,0,6,00,00,00,00,00,00,00,00
1756490861526188,00000488,false,Rx,0,8,08,27,55,00,53,01,88,00
1756490861529373,00000213,false,Rx,0,4,08,00,00,00,00,00,00,00
1756490861529486,00000214,false,Rx,0,4,08,00,00,00,00,00,00,00
1756490861531831,00000194,false,Rx,0,6,14,00,01,00,00,00,00,00
1756490861535596,00000193,false,Rx,0,6,14,00,F9,FF,FD,FF,00,00
1756490861535938,00000188,false,Rx,0,6,B4,FF,10,00,D1,03,00,00
1756490861536056,00000288,false,Rx,0,6,00,00,00,00,00,00,00,00
1756490861536489,00000488,false,Rx,0,8,08,27,55,00,53,01,88,00
1756490861539280,00000213,false,Rx,0,4,08,00,00,00,00,00,00,00
1756490861539374,00000214,false,Rx,0,4,08,00,00,00,00,00,00,00
1756490861541822,00000194,false,Rx,0,6,14,00,00,00,00,00,00,00
1756490861545421,00000193,false,Rx,0,6,14,00,02,00,01,00,00,00
1756490861546252,00000188,false,Rx,0,6,CC,FF,0D,00,F8,03,00,00
1756490861546441,00000288,false,Rx,0,6,00,00,00,00,00,00,00,00
1756490861546790,00000488,false,Rx,0,8,08,27,55,00,53,01,88,00
1756490861549183,00000213,false,Rx,0,4,08,00,00,00,00,00,00,00
1756490861549276,00000214,false,Rx,0,4,08,00,00,00,00,00,00,00
1756490861550313,00000181,false,Rx,0,8,68,10,00,EA,02,00,00,00
1756490861551825,00000194,false,Rx,0,6,14,00,F6,FF,FE,FF,00,00
1756490861555386,00000193,false,Rx,0,6,14,00,F0,FF,FE,FF,00,00
1756490861556583,00000188,false,Rx,0,6,C9,FF,0D,00,F7,03,00,00
1756490861556693,00000288,false,Rx,0,6,00,00,00,00,00,00,00,00
1756490861557103,00000488,false,Rx,0,8,08,27,54,00,52,01,88,00
1756490861559094,00000213,false,Rx,0,4,08,00,00,00,00,00,00,00
1756490861559217,00000214,false,Rx,0,4,08,00,00,00,00,00,00,00
1756490861561830,00000194,false,Rx,0,6,14,00,F8,FF,01,00,00,00
1756490861563536,00000181,false,Rx,0,8,04,10,00,EA,02,00,00,00
1756490861563676,00000701,false,Rx,0,1,05,00,00,00,00,00,00,00
1756490861565085,00000193,false,Rx,0,6,14,00,01,00,FF,FF,00,00
1756490861566856,00000188,false,Rx,0,6,BF,FF,15,00,CB,03,00,00
1756490861566965,00000288,false,Rx,0,6,00,00,00,00,00,00,00,00
1756490861568008,00000488,false,Rx,0,8,08,27,54,00,52,01,88,00
1756490861570088,00000213,false,Rx,0,4,08,00,00,00,00,00,00,00
1756490861570181,00000214,false,Rx,0,4,08,00,00,00,00,00,00,00
1756490861571829,00000194,false,Rx,0,6,14,00,F8,FF,FF,FF,00,00
1756490861574911,00000193,false,Rx,0,6,14,00,01,00,FA,FF,00,00
1756490861578037,00000188,false,Rx,0,6,CB,FF,09,00,F7,03,00,00
1756490861578147,00000288,false,Rx,0,6,00,00,00,00,00,00,00,00
1756490861578242,00000488,false,Rx,0,8,08,27,54,00,52,01,88,00
1756490861579995,00000213,false,Rx,0,4,08,00,00,00,00,00,00,00
