Time Stamp,ID,Extended,Dir,Bus,LEN,D1,D2,D3,D4,D5,D6,D7,D8,D9,D10,D11,D12
1756490741133742,00000281,false,Rx,0,1,60,00,00,00,00,00,00,00
1756490741135600,00000193,false,Rx,0,6,14,00,00,00,01,00,00,00
1756490741136365,00000213,false,Rx,0,4,08,00,00,00,00,00,00,00
1756490741137438,00000214,false,Rx,0,4,08,00,00,00,00,00,00,00
1756490741142536,00000194,false,Rx,0,6,14,00,FB,FF,00,00,00,00
1756490741142672,00000288,false,Rx,0,6,00,00,00,00,00,00,00,00
1756490741142806,00000188,false,Rx,0,6,BE,FF,10,00,F0,03,00,00
1756490741142921,00000488,false,Rx,0,8,08,27,56,00,52,01,8A,00
1756490741144071,00000213,false,Rx,0,4,08,00,00,00,00,00,00,00
1756490741145140,00000214,false,Rx,0,4,08,00,00,00,00,00,00,00
1756490741145365,00000193,false,Rx,0,6,14,00,F0,FF,FE,FF,00,00
1756490741151750,00000213,false,Rx,0,4,08,00,00,00,00,00,00,00
1756490741152517,00000194,false,Rx,0,6,14,00,FB,FF,01,00,00,00
1756490741152853,00000214,false,Rx,0,4,08,00,00,00,00,00,00,00
1756490741152969,00000288,false,Rx,0,6,01,00,00,00,00,00,00,00
1756490741153082,00000188,false,Rx,0,6,C3,FF,0C,00,FC,03,00,00
1756490741153180,00000488,false,Rx,0,8,08,27,56,00,52,01,8A,00
1756490741155227,00000193,false,Rx,0,6,14,00,0C,00,00,00,00,00
1756490741160560,00000213,false,Rx,0,4,08,00,00,00,00,00,00,00
1756490741160647,00000214,false,Rx,0,4,08,00,00,00,00,00,00,00
1756490741162517,00000194,false,Rx,0,6,14,00,FC,FF,01,00,00,00
1756490741163070,00000288,false,Rx,0,6,00,00,00,00,00,00,00,00
1756490741163208,00000188,false,Rx,0,6,B8,FF,13,00,D1,03,00,00
1756490741163325,00000488,false,Rx,0,8,08,27,56,00,52,01,8A,00
1756490741165023,00000193,false,Rx,0,6,14,00,06,00,02,00,00,00
1756490741167050,00000290,false,Rx,0,7,01,E8,00,00,00,00,00,00
1756490741167142,00000490,false,Rx,0,5,64,00,00,00,00,00,00,00
1756490741168277,00000213,false,Rx,0,4,08,00,00,00,00,00,00,00
1756490741169350,00000214,false,Rx,0,4,08,00,00,00,00,00,00,00
1756490741172521,00000194,false,Rx,0,6,14,00,F9,FF,01,00,00,00
1756490741172693,00000181,false,Rx,0,8,04,10,00,EA,02,00,00,01
1756490741173279,00000288,false,Rx,0,6,00,00,00,00,00,00,00,00
1756490741173412,00000188,false,Rx,0,6,C3,FF,0E,00,E5,03,00,00
1756490741173527,00000488,false,Rx,0,8,08,27,56,00,52,01,8A,00
1756490741174849,00000393,false,Rx,0,6,11,01,D5,01,17,01,00,00
1756490741174940,00000293,false,Rx,0,4,4B,A2,00,00,00,00,00,00
1756490741175041,00000713,false,Rx,0,1,05,00,00,00,00,00,00,00
1756490741175142,00000733,false,Rx,0,8,08,00,00,80,3F,A2,00,05
1756490741175241,00000193,false,Rx,0,6,14,00,02,00,FE,FF,00,00
1756490741178151,00000213,false,Rx,0,4,08,00,00,00,00,00,00,00
1756490741178244,00000214,false,Rx,0,4,08,00,00,00,00,00,00,00
1756490741182517,00000194,false,Rx,0,6,14,00,FA,FF,01,00,00,00
1756490741183476,00000288,false,Rx,0,6,01,00,01,00,00,00,00,00
1756490741183611,00000188,false,Rx,0,6,C6,FF,0F,00,F8,03,00,00
1756490741183728,00000488,false,Rx,0,8,08,27,56,00,52,01,8A,00
1756490741184688,00000193,false,Rx,0,6,14,00,F8,FF,FB,FF,00,00
1756490741185910,00000181,false,Rx,0,8,04,10,00,E9,02,00,00,01
1756490741188055,00000213,false,Rx,0,4,08,00,00,00,00,00,00,00
1756490741188149,00000214,false,Rx,0,4,08,00,00,00,00,00,00,00
1756490741192131,00000701,false,Rx,0,1,05,00,00,00,00,00,00,00
1756490741192511,00000194,false,Rx,0,6,14,00,FA,FF,01,00,00,00
1756490741193676,00000288,false,Rx,0,6,00,00,00,00,00,00,00,00
1756490741193817,00000188,false,Rx,0,6,BA,FF,0E,00,D5,03,00,00
1756490741193930,00000488,false,Rx,0,8,08,27,56,00,52,01,8A,00
1756490741194498,00000193,false,Rx,0,6,14,00,04,00,FD,FF,00,00
1756490741198085,00000213,false,Rx,0,4,08,00,00,00,00,00,00,00
1756490741198181,00000214,false,Rx,0,4,08,00,00,00,00,00,00,00
1756490741199215,00000181,false,Rx,0,8,68,10,00,E9,02,00,00,01
1756490741202561,00000194,false,Rx,0,6,14,00,FC,FF,00,00,00,00
1756490741203887,00000288,false,Rx,0,6,00,00,01,00,00,00,00,00
1756490741204017,00000188,false,Rx,0,6,BE,FF,1C,00,DE,03,00,00
1756490741204135,00000488,false,Rx,0,8,08,27,56,00,52,01,8A,00
1756490741204334,00000193,false,Rx,0,6,14,00,FD,FF,FE,FF,00,00
1756490741207868,00000710,false,Rx,0,1,7F,00,00,00,00,00,00,00
1756490741208067,00000213,false,Rx,0,4,08,00,00,00,00,00,00,00
1756490741208162,00000214,false,Rx,0,4,08,00,00,00,00,00,00,00
1756490741211408,00000181,false,Rx,0,8,04,10,00,E9,02,00,00,01
1756490741212516,00000194,false,Rx,0,6,14,00,FA,FF,00,00,00,00
1756490741214158,00000193,false,Rx,0,6,14,00,07,00,FB,FF,00,00
1756490741215295,00000288,false,Rx,0,6,00,00,01,00,00,00,00,00
1756490741215387,00000188,false,Rx,0,6,BD,FF,13,00,E8,03,00,00
1756490741215484,00000488,false,Rx,0,8,08,27,57,00,52,01,8A,00
1756490741219077,00000213,false,Rx,0,4,08,00,00,00,00,00,00,00
1756490741219193,00000214,false,Rx,0,4,08,00,00,00,00,00,00,00
1756490741222520,00000194,false,Rx,0,6,14,00,FA,FF,00,00,00,00
1756490741224007,00000193,false,Rx,0,6,14,00,0B,00,FE,FF,00,00
1756490741225364,00000288,false,Rx,0,6,01,00,00,00,00,00,00,00
1756490741225506,00000188,false,Rx,0,6,B4,FF,15,00,C8,03,00,00
1756490741225620,00000488,false,Rx,0,8,08,27,56,00,52,01,8A,00
1756490741228976,00000213,false,Rx,0,4,08,00,00,00,00,00,00,00
1756490741229068,00000214,false,Rx,0,4,08,00,00,00,00,00,00,00
1756490741232522,00000394,false,Rx,0,6,5F,05,DD,01,28,01,00,00
1756490741232627,00000294,false,Rx,0,4,F6,A1,49,00,00,00,00,00
1756490741232730,00000714,false,Rx,0,1,05,00,00,00,00,00,00,00
1756490741232833,00000734,false,Rx,0,8,09,00,00,00,00,A1,49,05
1756490741232928,00000194,false,Rx,0,6,14,00,F9,FF,00,00,00,00
1756490741233821,00000193,false,Rx,0,6,14,00,06,00,FB,FF,00,00
1756490741235585,00000288,false,Rx,0,6,00,00,01,00,00,00,00,00
1756490741235703,00000188,false,Rx,0,6,BF,FF,19,00,F5,03,00,00
1756490741235820,00000488,false,Rx,0,8,08,27,57,00,52,01,8A,00
1756490741238877,00000213,false,Rx,0,4,08,00,00,00,00,00,00,00
1756490741238972,00000214,false,Rx,0,4,08,00,00,00,00,00,00,00
1756490741242518,00000194,false,Rx,0,6,14,00,FC,FF,00,00,00,00
1756490741243642,00000193,false,Rx,0,6,14,00,F8,FF,FD,FF,00,00
1756490741245780,00000288,false,Rx,0,6,00,00,01,00,00,00,00,00
1756490741245893,00000188,false,Rx,0,6,C4,FF,0B,00,F7,03,00,00
1756490741246012,00000488,false,Rx,0,8,08,27,57,00,53,01,8A,00
1756490741248813,00000213,false,Rx,0,4,08,00,00,00,00,00,00,00
1756490741248900,00000214,false,Rx,0,4,08,00,00,00,00,00,00,00
1756490741252517,00000194,false,Rx,0,6,14,00,FE,FF,00,00,00,00
1756490741253468,00000193,false,Rx,0,6,14,00,F4,FF,FE,FF,00,00
1756490741255990,00000288,false,Rx,0,6,00,00,01,00,00,00,00,00
1756490741256102,00000188,false,Rx,0,6,B5,FF,11,00,D5,03,00,00
1756490741256217,00000488,false,Rx,0,8,08,27,57,00,53,01,8A,00
1756490741259799,00000213,false,Rx,0,4,08,00,00,00,00,00,00,00
1756490741259889,00000214,false,Rx,0,4,08,00,00,00,00,00,00,00
1756490741262514,00000194,false,Rx,0,6,14,00,FB,FF,01,00,00,00
1756490741263296,00000193,false,Rx,0,6,14,00,01,00,FC,FF,00,00
1756490741266181,00000288,false,Rx,0,6,01,00,01,00,00,00,00,00
1756490741266295,00000188,false,Rx,0,6,BE,FF,11,00,E1,03,00,00
1756490741266411,00000488,false,Rx,0,8,08,27,57,00,53,01,8A,00
1756490741269695,00000213,false,Rx,0,4,08,00,00,00,00,00,00,00
1756490741269789,00000214,false,Rx,0,4,08,00,00,00,00,00,00,00
1756490741272518,00000194,false,Rx,0,6,14,00,FD,FF,FF,FF,00,00
1756490741273119,00000393,false,Rx,0,6,13,01,D5,01,0F,01,00,00
1756490741273213,00000293,false,Rx,0,4,68,A2,00,00,00,00,00,00
1756490741273310,00000713,false,Rx,0,1,05,00,00,00,00,00,00,00
1756490741273408,00000733,false,Rx,0,8,09,00,00,00,00,A2,00,05
1756490741273503,00000193,false,Rx,0,6,14,00,01,00,00,00,00,00
1756490741276383,00000288,false,Rx,0,6,00,00,00,00,00,00,00,00
1756490741276495,00000188,false,Rx,0,6,C8,FF,0E,00,FC,03,00,00
1756490741276611,00000488,false,Rx,0,8,08,27,57,00,53,01,8A,00
1756490741279686,00000213,false,Rx,0,4,08,00,00,00,00,00,00,00
1756490741279792,00000214,false,Rx,0,4,08,00,00,00,00,00,00,00
1756490741282529,00000194,false,Rx,0,6,14,00,FE,FF,FF,FF,00,00
1756490741282945,00000193,false,Rx,0,6,14,00,09,00,03,00,00,00
1756490741287274,00000288,false,Rx,0,6,00,00,01,00,00,00,00,00
1756490741287482,00000188,false,Rx,0,6,B9,FF,10,00,DA,03,00,00
1756490741287545,00000488,false,Rx,0,8,08,27,56,00,53,01,8A,00
1756490741290610,00000213,false,Rx,0,4,08,00,00,00,00,00,00,00
1756490741290702,00000214,false,Rx,0,4,08,00,00,00,00,00,00,00
1756490741292380,00000701,false,Rx,0,1,05,00,00,00,00,00,00,00
1756490741292512,00000194,false,Rx,0,6,14,00,FB,FF,FF,FF,00,00
1756490741292779,00000193,false,Rx,0,6,14,00,FD,FF,01,00,00,00
1756490741297553,00000188,false,Rx,0,6,B9,FF,10,00,DA,03,00,00
1756490741297666,00000288,false,Rx,0,6,01,00,00,00,00,00,00,00
1756490741297782,00000488,false,Rx,0,8,08,27,56,00,53,01,8A,00
1756490741300510,00000213,false,Rx,0,4,08,00,00,00,00,00,00,00
1756490741300602,00000214,false,Rx,0,4,08,00,00,00,00,00,00,00
1756490741302513,00000194,false,Rx,0,6,14,00,F9,FF,FF,FF,00,00
1756490741302625,00000193,false,Rx,0,6,14,00,F5,FF,FF,FF,00,00
1756490741307375,00000188,false,Rx,0,6,CB,FF,07,00,04,04,00,00
1756490741307485,00000288,false,Rx,0,6,00,00,00,00,00,00,00,00
1756490741307605,00000488,false,Rx,0,8,08,27,56,00,53,01,8A,00
1756490741307905,00000710,false,Rx,0,1,7F,00,00,00,00,00,00,00
1756490741310411,00000213,false,Rx,0,4,08,00,00,00,00,00,00,00
1756490741310503,00000214,false,Rx,0,4,08,00,00,00,00,00,00,00
1756490741312438,00000193,false,Rx,0,6,14,00,FE,FF,01,00,00,00
1756490741312549,00000194,false,Rx,0,6,14,00,F8,FF,FF,FF,00,00
1756490741312665,00000181,false,Rx,0,8,68,10,00,E9,02,00,00,01
1756490741317374,00000188,false,Rx,0,6,BC,FF,0D,00,EF,03,00,00
1756490741317486,00000288,false,Rx,0,6,00,00,00,00,00,00,00,00
1756490741317601,00000488,false,Rx,0,8,08,27,56,00,53,01,8A,00
1756490741320326,00000213,false,Rx,0,4,08,00,00,00,00,00,00,00
1756490741320421,00000214,false,Rx,0,4,08,00,00,00,00,00,00,00
1756490741322263,00000193,false,Rx,0,6,14,00,F5,FF,00,00,00,00
1756490741322506,00000194,false,Rx,0,6,14,00,FF,FF,FF,FF,00,00
1756490741325853,00000181,false,Rx,0,8,04,10,00,E9,02,00,00,01
1756490741327400,00000188,false,Rx,0,6,B5,FF,19,00,C3,03,00,00
1756490741327514,00000288,false,Rx,0,6,00,00,01,00,00,00,00,00
1756490741327631,00000488,false,Rx,0,8,08,27,56,00,53,01,8A,00
1756490741331321,00000213,false,Rx,0,4,08,00,00,00,00,00,00,00
1756490741331413,00000214,false,Rx,0,4,08,00,00,00,00,00,00,00
1756490741332086,00000193,false,Rx,0,6,14,00,E6,FF,05,00,00,00
1756490741332502,00000394,false,Rx,0,6,5F,05,DD,01,1F,01,00,00
1756490741332598,00000294,false,Rx,0,4,49,A2,0C,00,00,00,00,00
1756490741332693,00000714,false,Rx,0,1,05,00,00,00,00,00,00,00
1756490741332790,00000734,false,Rx,0,8,01,9A,99,19,40,A2,0C,05
1756490741332894,00000194,false,Rx,0,6,14,00,FE,FF,FF,FF,00,00
1756490741337516,00000188,false,Rx,0,6,BB,FF,17,00,E1,03,00,00
1756490741337607,00000288,false,Rx,0,6,00,00,00,00,00,00,00,00
1756490741337702,00000488,false,Rx,0,8,08,27,56,00,53,01,8A,00
1756490741341228,00000213,false,Rx,0,4,08,00,00,00,00,00,00,00
1756490741341325,00000214,false,Rx,0,4,08,00,00,00,00,00,00,00
1756490741341910,00000193,false,Rx,0,6,14,00,F4,FF,01,00,00,00
1756490741342509,00000194,false,Rx,0,6,14,00,FE,FF,00,00,00,00
1756490741347694,00000188,false,Rx,0,6,C3,FF,0A,00,00,04,00,00
1756490741347807,00000288,false,Rx,0,6,00,00,01,00,00,00,00,00
1756490741347924,00000488,false,Rx,0,8,08,27,56,00,53,01,8A,00
1756490741351128,00000213,false,Rx,0,4,08,00,00,00,00,00,00,00
1756490741351219,00000214,false,Rx,0,4,08,00,00,00,00,00,00,00
1756490741351746,00000193,false,Rx,0,6,14,00,04,00,FF,FF,00,00
1756490741352504,00000194,false,Rx,0,6,14,00,FC,FF,02,00,00,00
1756490741356314,00000100,false,Rx,0,6,6B,FA,E1,03,70,3B,00,00
1756490741358028,00000188,false,Rx,0,6,B7,FF,11,00,D2,03,00,00
1756490741358179,00000288,false,Rx,0,6,00,00,01,00,00,00,00,00
1756490741358253,00000488,false,Rx,0,8,08,27,56,00,53,01,8A,00
1756490741361935,00000193,false,Rx,0,6,14,00,00,00,02,00,00,00
1756490741362211,00000181,false,Rx,0,8,68,10,00,E9,02,00,00,00
1756490741362298,00000213,false,Rx,0,4,08,00,00,00,00,00,00,00
1756490741362393,00000214,false,Rx,0,4,08,00,00,00,00,00,00,00
1756490741362731,00000194,false,Rx,0,6,14,00,FB,FF,00,00,00,00
1756490741367011,00000290,false,Rx,0,7,01,E8,00,00,00,00,00,00
1756490741367101,00000490,false,Rx,0,5,64,00,00,00,00,00,00,00
1756490741368088,00000188,false,Rx,0,6,B7,FF,18,00,D7,03,00,00
1756490741368198,00000288,false,Rx,0,6,00,00,00,00,00,00,00,00
1756490741368315,00000488,false,Rx,0,8,08,27,57,00,54,01,8A,00
1756490741371641,00000393,false,Rx,0,6,13,01,D5,01,0F,01,00,00
1756490741371730,00000293,false,Rx,0,4,38,A2,00,00,00,00,00,00
1756490741371825,00000713,false,Rx,0,1,05,00,00,00,00,00,00,00
1756490741371921,00000733,false,Rx,0,8,01,9A,99,19,40,A2,00,05
1756490741372018,00000193,false,Rx,0,6,14,00,FB,FF,FE,FF,00,00
1756490741372113,00000213,false,Rx,0,4,08,00,00,00,00,00,00,00
1756490741372209,00000214,false,Rx,0,4,08,00,00,00,00,00,00,00
1756490741372737,00000194,false,Rx,0,6,14,00,FA,FF,00,00,00,00
1756490741375384,00000181,false,Rx,0,8,04,10,00,E9,02,00,00,00
1756490741378289,00000188,false,Rx,0,6,C6,FF,07,00,FF,03,00,00
1756490741378399,00000288,false,Rx,0,6,00,00,01,00,01,00,00,00
1756490741378515,00000488,false,Rx,0,8,08,27,57,00,54,01,8A,00
1756490741381462,00000193,false,Rx,0,6,14,00,0A,00,02,00,00,00
1756490741381953,00000213,false,Rx,0,4,08,00,00,00,00,00,00,00
1756490741382047,00000214,false,Rx,0,4,08,00,00,00,00,00,00,00
1756490741382729,00000194,false,Rx,0,6,14,00,FA,FF,02,00,00,00
1756490741388495,00000188,false,Rx,0,6,BD,FF,13,00,EF,03,00,00
1756490741388607,00000288,false,Rx,0,6,00,00,01,00,00,00,00,00
1756490741388730,00000488,false,Rx,0,8,08,27,56,00,54,01,8A,00
1756490741391311,00000193,false,Rx,0,6,14,00,04,00,01,00,00,00
1756490741391854,00000213,false,Rx,0,4,08,00,00,00,00,00,00,00
1756490741391950,00000214,false,Rx,0,4,08,00,00,00,00,00,00,00
1756490741392616,00000701,false,Rx,0,1,05,00,00,00,00,00,00,00
1756490741392730,00000194,false,Rx,0,6,14,00,FD,FF,00,00,00,00
1756490741398685,00000188,false,Rx,0,6,B8,FF,0D,00,D2,03,00,00
1756490741398799,00000288,false,Rx,0,6,00,00,00,00,00,00,00,00
1756490741398915,00000488,false,Rx,0,8,08,27,56,00,54,01,8A,00
1756490741401116,00000193,false,Rx,0,6,14,00,07,00,06,00,00,00
1756490741402735,00000194,false,Rx,0,6,14,00,FD,FF,FE,FF,00,00
1756490741402848,00000213,false,Rx,0,4,08,00,00,00,00,00,00,00
1756490741402964,00000214,false,Rx,0,4,08,00,00,00,00,00,00,00
1756490741408891,00000188,false,Rx,0,6,BF,FF,12,00,E7,03,00,00
1756490741409001,00000288,false,Rx,0,6,00,00,00,00,00,00,00,00
1756490741409119,00000488,false,Rx,0,8,08,27,56,00,54,01,8A,00
1756490741410880,00000710,false,Rx,0,1,7F,00,00,00,00,00,00,00
1756490741410990,00000193,false,Rx,0,6,14,00,06,00,05,00,00,00
1756490741412733,00000194,false,Rx,0,6,14,00,FC,FF,00,00,00,00
1756490741412828,00000213,false,Rx,0,4,08,00,00,00,00,00,00,00
1756490741412925,00000214,false,Rx,0,4,08,00,00,00,00,00,00,00
1756490741419093,00000188,false,Rx,0,6,C6,FF,0B,00,F8,03,00,00
1756490741419208,00000288,false,Rx,0,6,00,00,00,00,00,00,00,00
1756490741420210,00000488,false,Rx,0,8,08,27,56,00,54,01,8A,00
1756490741420761,00000193,false,Rx,0,6,14,00,01,00,04,00,00,00
1756490741422653,00000213,false,Rx,0,4,08,00,00,00,00,00,00,00
1756490741422762,00000194,false,Rx,0,6,14,00,FB,FF,FE,FF,00,00
1756490741422857,00000214,false,Rx,0,4,08,00,00,00,00,00,00,00
1756490741430247,00000188,false,Rx,0,6,B9,FF,11,00,E0,03,00,00
1756490741430343,00000288,false,Rx,0,6,00,00,01,00,00,00,00,00
1756490741430440,00000488,false,Rx,0,8,08,27,56,00,54,01,8A,00
1756490741430589,00000193,false,Rx,0,6,14,00,0E,00,01,00,00,00
1756490741432732,00000394,false,Rx,0,6,62,05,DD,01,28,01,00,00
1756490741432829,00000294,false,Rx,0,4,46,A2,C4,FF,00,00,00,00
1756490741432924,00000714,false,Rx,0,1,05,00,00,00,00,00,00,00
1756490741433021,00000734,false,Rx,0,8,02,00,00,C0,3F,A2,C4,05
1756490741433116,00000194,false,Rx,0,6,14,00,FA,FF,00,00,00,00
1756490741433718,00000213,false,Rx,0,4,08,00,00,00,00,00,00,00
1756490741433806,00000214,false,Rx,0,4,08,00,00,00,00,00,00,00
1756490741440402,00000188,false,Rx,0,6,BE,FF,13,00,F9,03,00,00
1756490741440476,00000193,false,Rx,0,6,14,00,0E,00,00,00,00,00
1756490741440579,00000288,false,Rx,0,6,01,00,00,00,00,00,00,00
1756490741440695,00000488,false,Rx,0,8,08,27,56,00,54,01,8A,00
1756490741442737,00000194,false,Rx,0,6,14,00,FA,FF,FE,FF,00,00
1756490741443687,00000213,false,Rx,0,4,08,00,00,00,00,00,00,00
1756490741443780,00000214,false,Rx,0,4,08,00,00,00,00,00,00,00
1756490741450261,00000193,false,Rx,0,6,14,00,10,00,01,00,00,00
1756490741450576,00000188,false,Rx,0,6,B6,FF,13,00,DF,03,00,00
1756490741450717,00000288,false,Rx,0,6,00,00,00,00,00,00,00,00
1756490741450833,00000488,false,Rx,0,8,08,27,56,00,54,01,8A,00
1756490741452735,00000194,false,Rx,0,6,14,00,FA,FF,FF,FF,00,00
1756490741453683,00000213,false,Rx,0,4,08,00,00,00,00,00,00,00
1756490741453779,00000214,false,Rx,0,4,08,00,00,00,00,00,00,00
1756490741460112,00000193,false,Rx,0,6,14,00,FF,FF,FF,FF,00,00
1756490741460775,00000188,false,Rx,0,6,B5,FF,17,00,D2,03,00,00
1756490741460919,00000288,false,Rx,0,6,00,00,00,00,00,00,00,00
1756490741461036,00000488,false,Rx,0,8,08,27,56,00,54,01,8A,00
1756490741462735,00000194,false,Rx,0,6,14,00,FB,FF,00,00,00,00
1756490741463599,00000213,false,Rx,0,4,08,00,00,00,00,00,00,00
1756490741463691,00000214,false,Rx,0,4,08,00,00,00,00,00,00,00
1756490741469905,00000393,false,Rx,0,6,13,01,D5,01,0F,01,00,00
1756490741470001,00000293,false,Rx,0,4,63,A2,00,00,00,00,00,00
1756490741470094,00000713,false,Rx,0,1,05,00,00,00,00,00,00,00
1756490741470192,00000733,false,Rx,0,8,02,00,00,C0,3F,A2,00,05
1756490741470289,00000193,false,Rx,0,6,14,00,07,00,02,00,00,00
1756490741470969,00000188,false,Rx,0,6,C2,FF,18,00,FB,03,00,00
1756490741471125,00000288,false,Rx,0,6,00,00,00,00,00,00,00,00
1756490741471244,00000488,false,Rx,0,8,08,27,56,00,54,01,8A,00
1756490741472732,00000194,false,Rx,0,6,14,00,FC,FF,01,00,00,00
1756490741473494,00000213,false,Rx,0,4,08,00,00,00,00,00,00,00
1756490741473587,00000214,false,Rx,0,4,08,00,00,00,00,00,00,00
1756490741479740,00000193,false,Rx,0,6,14,00,09,00,FE,FF,00,00
1756490741481174,00000188,false,Rx,0,6,C4,FF,15,00,F1,03,00,00
1756490741481318,00000288,false,Rx,0,6,FF,FF,01,00,00,00,00,00
1756490741481433,00000488,false,Rx,0,8,08,27,57,00,54,01,8A,00
1756490741482732,00000194,false,Rx,0,6,14,00,FB,FF,00,00,00,00
1756490741484485,00000213,false,Rx,0,4,08,00,00,00,00,00,00,00
1756490741484577,00000214,false,Rx,0,4,08,00,00,00,00,00,00,00
1756490741489584,00000193,false,Rx,0,6,14,00,FA,FF,03,00,00,00
1756490741491380,00000188,false,Rx,0,6,B6,FF,16,00,CC,03,00,00
1756490741491517,00000288,false,Rx,0,6,FF,FF,00,00,00,00,00,00
1756490741491632,00000488,false,Rx,0,8,08,27,57,00,54,01,8A,00
1756490741492734,00000194,false,Rx,0,6,14,00,FB,FF,00,00,00,00
1756490741492827,00000701,false,Rx,0,1,05,00,00,00,00,00,00,00
1756490741494388,00000213,false,Rx,0,4,08,00,00,00,00,00,00,00
1756490741494481,00000214,false,Rx,0,4,08,00,00,00,00,00,00,00
1756490741499394,00000193,false,Rx,0,6,14,00,04,00,FA,FF,00,00
1756490741501573,00000188,false,Rx,0,6,C2,FF,14,00,EA,03,00,00
1756490741502414,00000288,false,Rx,0,6,00,00,00,00,00,00,00,00
1756490741502534,00000488,false,Rx,0,8,08,27,57,00,54,01,8A,00
1756490741502725,00000194,false,Rx,0,6,14,00,FA,FF,02,00,00,00
1756490741504293,00000213,false,Rx,0,4,08,00,00,00,00,00,00,00
1756490741504385,00000214,false,Rx,0,4,08,00,00,00,00,00,00,00
1756490741506817,00000190,false,Rx,0,8,00,C9,C9,C9,C9,C9,C9,C9
1756490741506929,00000190,false,Rx,0,8,07,C9,C9,C9,C9,C9,C9,C9
1756490741507048,00000190,false,Rx,0,8,0E,C9,C8,C9,C9,C9,C9,C9
1756490741509216,00000193,false,Rx,0,6,14,00,12,00,FF,FF,00,00
1756490741512453,00000188,false,Rx,0,6,B8,FF,16,00,DC,03,00,00
1756490741512545,00000288,false,Rx,0,6,00,00,00,00,00,00,00,00
1756490741512714,00000488,false,Rx,0,8,08,27,56,00,54,01,8A,00
1756490741512835,00000194,false,Rx,0,6,14,00,FD,FF,03,00,00,00
1756490741515304,00000213,false,Rx,0,4,08,00,00,00,00,00,00,00
1756490741515397,00000214,false,Rx,0,4,08,00,00,00,00,00,00,00
1756490741518939,00000190,false,Rx,0,8,15,C9,C9,C9,C9,C9,C9,C9
1756490741519051,00000190,false,Rx,0,8,1C,C9,C8,C9,C9,C9,C9,C9
1756490741519180,00000190,false,Rx,0,8,2A,C9,C9,C8,C9,C9,C9,C9
1756490741519288,00000190,false,Rx,0,8,31,C9,C9,C9,C9,C9,C9,C9
1756490741519404,00000190,false,Rx,0,8,38,C9,C9,C9,C8,C9,C9,C7
1756490741519500,00000190,false,Rx,0,8,23,C9,C9,C8,C9,C9,C9,C9
1756490741519597,00000190,false,Rx,0,8,3F,C9,C9,C9,C9,C9,C9,C9
1756490741519714,00000190,false,Rx,0,8,46,C9,C9,C9,C9,C9,C9,C9
1756490741519836,00000190,false,Rx,0,8,54,C9,C9,C9,C9,C9,C9,C9
1756490741519955,00000190,false,Rx,0,8,5B,C9,C9,C9,C9,C9,C9,C9
1756490741520067,00000190,false,Rx,0,8,4D,C9,C9,C9,C9,C9,C9,C9
1756490741520183,00000190,false,Rx,0,8,62,C9,C7,C9,C9,C9,C9,C9
1756490741520280,00000193,false,Rx,0,6,14,00,12,00,FF,FF,00,00
1756490741520401,00000390,false,Rx,0,8,07,3F,3E,3E,3E,3E,3E,3E
1756490741520517,00000390,false,Rx,0,8,0E,3E,3E,3E,3E,3E,3E,3E
1756490741520633,00000390,false,Rx,0,8,1C,40,40,40,40,3D,3D,3D
1756490741520748,00000390,false,Rx,0,8,23,3D,3D,3D,3D,3D,3D,3D
1756490741520866,00000390,false,Rx,0,8,2A,3D,3D,3D,3D,3D,3D,3D
1756490741520985,00000390,false,Rx,0,8,31,3D,3D,3D,3D,3D,3D,3D
1756490741521105,00000390,false,Rx,0,8,15,3E,3E,3E,40,40,40,40
1756490741521226,00000390,false,Rx,0,8,38,13,13,13,13,13,13,13
1756490741521341,00000390,false,Rx,0,8,3F,13,3D,3D,3D,3D,3D,3D
1756490741521437,00000390,false,Rx,0,8,4D,3D,3D,3D,3D,3D,3D,3D
1756490741521534,00000390,false,Rx,0,8,54,3D,3D,3D,3D,3D,3D,3D
1756490741521650,00000390,false,Rx,0,8,46,3D,3D,3D,3D,3D,3D,3D
1756490741521767,00000390,false,Rx,0,8,5B,3D,3D,3D,3D,3D,3D,3D
1756490741521881,00000390,false,Rx,0,8,62,3D,3D,3D,3D,3D,3D,3D
1756490741521997,00000390,false,Rx,0,8,70,3C,3C,3C,3C,3C,3C,3C
1756490741522113,00000390,false,Rx,0,8,69,3D,3D,3D,3D,3D,3D,3D
1756490741522234,00000390,false,Rx,0,8,77,3C,3C,3C,3C,3C,3C,3C
1756490741522350,00000390,false,Rx,0,8,7E,3C,3C,13,13,13,13,13
1756490741522465,00000390,false,Rx,0,8,8C,3D,3D,3D,3D,3D,3D,3D
1756490741522581,00000390,false,Rx,0,8,93,3D,3D,3D,3D,3D,3D,3D
1756490741522678,00000390,false,Rx,0,8,85,13,13,13,3D,3D,3D,3D
1756490741522775,00000194,false,Rx,0,6,14,00,F8,FF,00,00,00,00
1756490741522890,00000188,false,Rx,0,6,B7,FF,0C,00,DE,03,00,00
1756490741522987,00000288,false,Rx,0,6,00,00,00,00,00,00,00,00
1756490741523084,00000390,false,Rx,0,8,B6,13,13,3D,3D,3D,3D,3D
1756490741523216,00000390,false,Rx,0,8,BD,3D,3D,3D,3D,3D,3D,3D
1756490741523338,00000390,false,Rx,0,8,C4,3D,3D,3D,3D,3D,3D,3D
1756490741523458,00000390,false,Rx,0,8,CB,3D,3D,3D,3D,3D,3D,3D
1756490741523552,00000390,false,Rx,0,8,AF,3D,13,13,13,13,13,13
1756490741523648,00000390,false,Rx,0,8,D2,3D,3D,3D,3D,3D,3D,3D
1756490741523763,00000390,false,Rx,0,8,D9,3D,3D,3D,3D,3D,3D,3D
1756490741523880,00000488,false,Rx,0,8,08,27,56,00,54,01,8A,00
1756490741525305,00000213,false,Rx,0,4,08,00,00,00,00,00,00,00
1756490741525398,00000214,false,Rx,0,4,08,00,00,00,00,00,00,00
1756490741528868,00000193,false,Rx,0,6,14,00,0A,00,FE,FF,00,00
1756490741532726,00000394,false,Rx,0,6,62,05,DD,01,16,01,00,00
1756490741532820,00000294,false,Rx,0,4,20,A2,87,FF,00,00,00,00
1756490741532917,00000714,false,Rx,0,1,05,00,00,00,00,00,00,00
1756490741533014,00000734,false,Rx,0,8,03,6F,12,03,3B,A2,87,05
1756490741533111,00000188,false,Rx,0,6,BF,FF,0D,00,FD,03,00,00
1756490741533206,00000194,false,Rx,0,6,14,00,F9,FF,01,00,00,00
1756490741533302,00000288,false,Rx,0,6,00,00,00,00,00,00,00,00
1756490741533432,00000488,false,Rx,0,8,08,27,56,00,54,01,8A,00
1756490741535234,00000213,false,Rx,0,4,08,00,00,00,00,00,00,00
1756490741535323,00000214,false,Rx,0,4,08,00,00,00,00,00,00,00
1756490741538700,00000193,false,Rx,0,6,14,00,F8,FF,02,00,00,00
1756490741542731,00000194,false,Rx,0,6,14,00,FA,FF,01,00,00,00
1756490741543215,00000188,false,Rx,0,6,B3,FF,0D,00,E2,03,00,00
1756490741543316,00000288,false,Rx,0,6,00,00,00,00,00,00,00,00
1756490741543432,00000488,false,Rx,0,8,08,27,56,00,54,01,8A,00
1756490741545111,00000213,false,Rx,0,4,08,00,00,00,00,00,00,00
1756490741545281,00000214,false,Rx,0,4,08,00,00,00,00,00,00,00
1756490741548534,00000193,false,Rx,0,6,14,00,08,00,FF,FF,00,00
1756490741552800,00000194,false,Rx,0,6,14,00,FC,FF,00,00,00,00
1756490741553434,00000188,false,Rx,0,6,B0,FF,15,00,C8,03,00,00
1756490741553540,00000288,false,Rx,0,6,FF,FF,02,00,00,00,00,00
1756490741553655,00000488,false,Rx,0,8,08,27,56,00,55,01,8A,00
1756490741556126,00000213,false,Rx,0,4,08,00,00,00,00,00,00,00
1756490741556215,00000214,false,Rx,0,4,08,00,00,00,00,00,00,00
1756490741558354,00000193,false,Rx,0,6,14,00,04,00,00,00,00,00
1756490741562744,00000194,false,Rx,0,6,14,00,FA,FF,FF,FF,00,00
1756490741563582,00000188,false,Rx,0,6,B9,FF,10,00,ED,03,00,00
1756490741563718,00000288,false,Rx,0,6,00,00,01,00,00,00,00,00
1756490741563834,00000488,false,Rx,0,8,08,27,56,00,55,01,8A,00
1756490741566020,00000213,false,Rx,0,4,08,00,00,00,00,00,00,00
1756490741566113,00000214,false,Rx,0,4,08,00,00,00,00,00,00,00
1756490741568181,00000393,false,Rx,0,6,13,01,D5,01,0F,01,00,00
1756490741568273,00000293,false,Rx,0,4,8F,A2,00,00,00,00,00,00
1756490741568369,00000713,false,Rx,0,1,05,00,00,00,00,00,00,00
1756490741568466,00000733,false,Rx,0,8,03,6F,12,03,3B,A2,00,05
1756490741568562,00000193,false,Rx,0,6,14,00,0D,00,FC,FF,00,00
1756490741572667,00000181,false,Rx,0,8,68,10,00,E9,02,00,00,00
1756490741572778,00000194,false,Rx,0,6,14,00,FA,FF,FD,FF,00,00
1756490741572932,00000290,false,Rx,0,7,01,00,01,00,00,00,00,00
1756490741573028,00000490,false,Rx,0,5,64,00,00,00,00,00,00,00
1756490741573778,00000188,false,Rx,0,6,C1,FF,0E,00,F7,03,00,00
1756490741573920,00000288,false,Rx,0,6,00,00,00,00,00,00,00,00
1756490741574035,00000488,false,Rx,0,8,08,27,56,00,55,01,8A,00
1756490741575931,00000213,false,Rx,0,4,08,00,00,00,00,00,00,00
1756490741576022,00000214,false,Rx,0,4,08,00,00,00,00,00,00,00
1756490741578010,00000193,false,Rx,0,6,14,00,06,00,00,00,00,00
1756490741582760,00000194,false,Rx,0,6,14,00,F9,FF,FF,FF,00,00
1756490741583996,00000188,false,Rx,0,6,B3,FF,19,00,D0,03,00,00
1756490741584130,00000288,false,Rx,0,6,01,00,00,00,00,00,00,00
1756490741584242,00000488,false,Rx,0,8,08,27,56,00,55,01,8A,00
1756490741585827,00000213,false,Rx,0,4,08,00,00,00,00,00,00,00
1756490741585919,00000214,false,Rx,0,4,08,00,00,00,00,00,00,00
1756490741587837,00000193,false,Rx,0,6,14,00,02,00,FC,FF,00,00
1756490741592728,00000194,false,Rx,0,6,14,00,F9,FF,FE,FF,00,00
1756490741592900,00000701,false,Rx,0,1,05,00,00,00,00,00,00,00
1756490741594173,00000188,false,Rx,0,6,BE,FF,0E,00,DF,03,00,00
1756490741595500,00000288,false,Rx,0,6,00,00,00,00,00,00,00,00
1756490741595616,00000488,false,Rx,0,8,08,27,56,00,55,01,8A,00
1756490741596829,00000213,false,Rx,0,4,08,00,00,00,00,00,00,00
1756490741596926,00000214,false,Rx,0,4,08,00,00,00,00,00,00,00
1756490741597654,00000193,false,Rx,0,6,14,00,0F,00,04,00,00,00
1756490741602418,00000181,false,Rx,0,8,04,10,00,E9,02,00,00,00
1756490741602736,00000194,false,Rx,0,6,14,00,FA,FF,FF,FF,00,00
1756490741605517,00000188,false,Rx,0,6,C5,FF,0A,00,E7,03,00,00
1756490741605626,00000288,false,Rx,0,6,00,00,00,00,00,00,00,00
1756490741605817,00000488,false,Rx,0,8,08,27,56,00,55,01,8A,00
1756490741606776,00000213,false,Rx,0,4,08,00,00,00,00,00,00,00
1756490741606869,00000214,false,Rx,0,4,08,00,00,00,00,00,00,00
1756490741607488,00000193,false,Rx,0,6,14,00,FA,FF,01,00,00,00
1756490741612737,00000194,false,Rx,0,6,14,00,FA,FF,FE,FF,00,00
1756490741615781,00000188,false,Rx,0,6,B8,FF,17,00,D9,03,00,00
1756490741615893,00000288,false,Rx,0,6,00,00,00,00,00,00,00,00
1756490741616115,00000488,false,Rx,0,8,08,27,56,00,55,01,8A,00
1756490741616692,00000213,false,Rx,0,4,08,00,00,00,00,00,00,00
1756490741616786,00000214,false,Rx,0,4,08,00,00,00,00,00,00,00
1756490741617309,00000193,false,Rx,0,6,14,00,03,00,01,00,00,00
1756490741622731,00000194,false,Rx,0,6,14,00,F9,FF,00,00,00,00
1756490741622931,00000710,false,Rx,0,1,7F,00,00,00,00,00,00,00
1756490741626083,00000188,false,Rx,0,6,D3,FF,0D,00,FE,03,00,00
1756490741626195,00000288,false,Rx,0,6,00,00,00,00,00,00,00,00
1756490741626415,00000488,false,Rx,0,8,08,27,56,00,54,01,8A,00
1756490741627142,00000193,false,Rx,0,6,14,00,0D,00,01,00,00,00
1756490741627657,00000213,false,Rx,0,4,08,00,00,00,00,00,00,00
1756490741627751,00000214,false,Rx,0,4,08,00,00,00,00,00,00,00
1756490741632723,00000394,false,Rx,0,6,62,05,DD,01,16,01,00,00
1756490741632819,00000294,false,Rx,0,4,F4,A1,8B,FF,00,00,00,00
1756490741632916,00000714,false,Rx,0,1,05,00,00,00,00,00,00,00
1756490741633013,00000734,false,Rx,0,8,04,8F,C2,F5,3F,A1,8B,05
1756490741633108,00000194,false,Rx,0,6,14,00,FB,FF,02,00,00,00
1756490741636412,00000188,false,Rx,0,6,C8,FF,0F,00,F4,03,00,00
1756490741636517,00000288,false,Rx,0,6,00,00,01,00,00,00,00,00
1756490741636717,00000488,false,Rx,0,8,08,27,56,00,54,01,8A,00
1756490741636972,00000193,false,Rx,0,6,14,00,0D,00,FD,FF,00,00
1756490741637617,00000213,false,Rx,0,4,08,00,00,00,00,00,00,00
1756490741637709,00000214,false,Rx,0,4,08,00,00,00,00,00,00,00
1756490741642731,00000194,false,Rx,0,6,14,00,F9,FF,00,00,00,00
1756490741646692,00000188,false,Rx,0,6,BB,FF,1D,00,C7,03,00,00
1756490741646804,00000193,false,Rx,0,6,14,00,FE,FF,00,00,00,00
1756490741647588,00000213,false,Rx,0,4,08,00,00,00,00,00,00,00
1756490741647681,00000214,false,Rx,0,4,08,00,00,00,00,00,00,00
1756490741647777,00000288,false,Rx,0,6,00,00,01,00,00,00,00,00
1756490741647898,00000488,false,Rx,0,8,08,27,56,00,54,01,8A,00
1756490741652729,00000194,false,Rx,0,6,14,00,FB,FF,00,00,00,00
1756490741656626,00000193,false,Rx,0,6,14,00,10,00,00,00,00,00
1756490741657467,00000213,false,Rx,0,4,08,00,00,00,00,00,00,00
1756490741657561,00000214,false,Rx,0,4,08,00,00,00,00,00,00,00
1756490741657764,00000188,false,Rx,0,6,BF,FF,16,00,F6,03,00,00
1756490741657902,00000288,false,Rx,0,6,00,00,00,00,00,00,00,00
1756490741658115,00000488,false,Rx,0,8,08,27,56,00,54,01,8A,00
1756490741662726,00000194,false,Rx,0,6,14,00,FD,FF,03,00,00,00
1756490741666452,00000393,false,Rx,0,6,13,01,D5,01,0F,01,00,00
1756490741666542,00000293,false,Rx,0,4,4F,A2,00,00,00,00,00,00
1756490741666640,00000713,false,Rx,0,1,05,00,00,00,00,00,00,00
1756490741666736,00000733,false,Rx,0,8,04,8F,C2,F5,3F,A2,00,05
1756490741666833,00000193,false,Rx,0,6,14,00,12,00,04,00,00,00
1756490741668071,00000188,false,Rx,0,6,B1,FF,16,00,D5,03,00,00
1756490741668185,00000288,false,Rx,0,6,01,00,01,00,00,00,00,00
1756490741668417,00000488,false,Rx,0,8,08,27,56,00,54,01,8A,00
1756490741668513,00000213,false,Rx,0,4,08,00,00,00,00,00,00,00
1756490741668610,00000214,false,Rx,0,4,08,00,00,00,00,00,00,00
1756490741672729,00000194,false,Rx,0,6,14,00,FC,FF,FF,FF,00,00
1756490741676282,00000193,false,Rx,0,6,14,00,FE,FF,FF,FF,00,00
1756490741678369,00000188,false,Rx,0,6,B2,FF,19,00,E3,03,00,00
1756490741678462,00000213,false,Rx,0,4,08,00,00,00,00,00,00,00
1756490741678558,00000214,false,Rx,0,4,08,00,00,00,00,00,00,00
1756490741678655,00000288,false,Rx,0,6,00,00,00,00,00,00,00,00
1756490741678751,00000488,false,Rx,0,8,08,27,56,00,55,01,8A,00
1756490741682723,00000194,false,Rx,0,6,14,00,FA,FF,01,00,00,00
1756490741682836,00000181,false,Rx,0,8,68,10,00,E9,02,00,00,00
1756490741686111,00000193,false,Rx,0,6,14,00,FF,FF,01,00,00,00
1756490741688268,00000213,false,Rx,0,4,08,00,00,00,00,00,00,00
1756490741688364,00000214,false,Rx,0,4,08,00,00,00,00,00,00,00
1756490741688672,00000188,false,Rx,0,6,BD,FF,0F,00,FF,03,00,00
1756490741688784,00000288,false,Rx,0,6,00,00,00,00,00,00,00,00
1756490741689015,00000488,false,Rx,0,8,08,27,56,00,55,01,8A,00
1756490741692721,00000194,false,Rx,0,6,14,00,FC,FF,01,00,00,00
1756490741693135,00000701,false,Rx,0,1,05,00,00,00,00,00,00,00
1756490741695933,00000193,false,Rx,0,6,14,00,0D,00,FC,FF,00,00
1756490741696046,00000181,false,Rx,0,8,04,10,00,E9,02,00,00,00
1756490741698972,00000188,false,Rx,0,6,B3,FF,13,00,EC,03,00,00
1756490741699085,00000288,false,Rx,0,6,00,00,00,00,00,00,00,00
1756490741699297,00000213,false,Rx,0,4,08,00,00,00,00,00,00,00
1756490741699392,00000214,false,Rx,0,4,08,00,00,00,00,00,00,00
1756490741700317,00000488,false,Rx,0,8,08,27,56,00,55,01,8A,00
1756490741702733,00000194,false,Rx,0,6,14,00,FA,FF,01,00,00,00
1756490741705771,00000193,false,Rx,0,6,14,00,1D,00,FE,FF,00,00
1756490741709180,00000213,false,Rx,0,4,08,00,00,00,00,00,00,00
1756490741709277,00000214,false,Rx,0,4,08,00,00,00,00,00,00,00
1756490741710335,00000188,false,Rx,0,6,BD,FF,10,00,F5,03,00,00
1756490741710454,00000288,false,Rx,0,6,00,00,00,00,00,00,00,00
1756490741710567,00000488,false,Rx,0,8,08,27,56,00,55,01,8A,00
1756490741712721,00000194,false,Rx,0,6,14,00,FA,FF,FF,FF,00,00
1756490741715591,00000193,false,Rx,0,6,14,00,12,00,FE,FF,00,00
1756490741719083,00000213,false,Rx,0,4,08,00,00,00,00,00,00,00
1756490741719202,00000214,false,Rx,0,4,08,00,00,00,00,00,00,00
1756490741720484,00000188,false,Rx,0,6,BF,FF,05,00,E7,03,00,00
1756490741720620,00000288,false,Rx,0,6,FF,FF,00,00,00,00,00,00
1756490741720736,00000488,false,Rx,0,8,08,27,56,00,55,01,8A,00
1756490741722717,00000194,false,Rx,0,6,14,00,FD,FF,02,00,00,00
1756490741725463,00000193,false,Rx,0,6,14,00,FF,FF,FF,FF,00,00
1756490741729006,00000213,false,Rx,0,4,08,00,00,00,00,00,00,00
1756490741729099,00000214,false,Rx,0,4,08,00,00,00,00,00,00,00
1756490741730681,00000188,false,Rx,0,6,B0,FF,11,00,CA,03,00,00
1756490741730824,00000288,false,Rx,0,6,00,00,00,00,00,00,00,00
1756490741730939,00000488,false,Rx,0,8,08,27,56,00,55,01,8A,00
1756490741732724,00000394,false,Rx,0,6,62,05,DD,01,1F,01,00,00
1756490741732815,00000294,false,Rx,0,4,49,A2,AF,FF,00,00,00,00
1756490741732911,00000714,false,Rx,0,1,05,00,00,00,00,00,00,00
1756490741733008,00000734,false,Rx,0,8,05,00,00,C0,3F,A2,AF,05
1756490741733104,00000194,false,Rx,0,6,14,00,FC,FF,01,00,00,00
1756490741734692,00000710,false,Rx,0,1,7F,00,00,00,00,00,00,00
1756490741735257,00000193,false,Rx,0,6,14,00,F1,FF,01,00,00,00
1756490741740000,00000213,false,Rx,0,4,08,00,00,00,00,00,00,00
1756490741740087,00000214,false,Rx,0,4,08,00,00,00,00,00,00,00
1756490741740895,00000188,false,Rx,0,6,C0,FF,01,00,D9,03,00,00
1756490741741035,00000288,false,Rx,0,6,00,00,00,00,00,00,00,00
1756490741741156,00000488,false,Rx,0,8,08,27,55,00,55,01,8A,00
1756490741742732,00000194,false,Rx,0,6,14,00,FB,FF,00,00,00,00
1756490741745086,00000193,false,Rx,0,6,14,00,07,00,FF,FF,00,00
1756490741749899,00000213,false,Rx,0,4,08,00,00,00,00,00,00,00
1756490741749995,00000214,false,Rx,0,4,08,00,00,00,00,00,00,00
1756490741751086,00000188,false,Rx,0,6,C7,FF,0A,00,02,04,00,00
1756490741751228,00000288,false,Rx,0,6,00,00,00,00,00,00,00,00
1756490741751352,00000488,false,Rx,0,8,08,27,55,00,55,01,8A,00
1756490741752721,00000194,false,Rx,0,6,14,00,FA,FF,02,00,00,00
1756490741754901,00000193,false,Rx,0,6,14,00,03,00,02,00,00,00
1756490741759801,00000213,false,Rx,0,4,08,00,00,00,00,00,00,00
1756490741759894,00000214,false,Rx,0,4,08,00,00,00,00,00,00,00
1756490741761287,00000188,false,Rx,0,6,BE,FF,12,00,EA,03,00,00
1756490741761420,00000288,false,Rx,0,6,01,00,00,00,00,00,00,00
1756490741761538,00000488,false,Rx,0,8,08,27,55,00,55,01,8A,00
1756490741762719,00000194,false,Rx,0,6,14,00,F9,FF,FF,FF,00,00
1756490741764720,00000393,false,Rx,0,6,15,01,D5,01,0F,01,00,00
1756490741764814,00000293,false,Rx,0,4,A7,A2,00,00,00,00,00,00
1756490741764910,00000713,false,Rx,0,1,05,00,00,00,00,00,00,00
1756490741765007,00000733,false,Rx,0,8,05,00,00,C0,3F,A2,00,05
1756490741765103,00000193,false,Rx,0,6,14,00,FE,FF,FE,FF,00,00
1756490741769708,00000213,false,Rx,0,4,08,00,00,00,00,00,00,00
1756490741769800,00000214,false,Rx,0,4,08,00,00,00,00,00,00,00
1756490741771481,00000188,false,Rx,0,6,B4,FF,1F,00,E1,03,00,00
1756490741771621,00000288,false,Rx,0,6,00,00,00,00,00,00,00,00
1756490741771736,00000488,false,Rx,0,8,08,27,56,00,55,01,8A,00
1756490741772717,00000194,false,Rx,0,6,14,00,FA,FF,FF,FF,00,00
1756490741773057,00000290,false,Rx,0,7,01,00,01,00,00,00,00,00
1756490741773170,00000490,false,Rx,0,5,64,00,00,00,00,00,00,00
1756490741774552,00000193,false,Rx,0,6,14,00,06,00,02,00,00,00
1756490741780726,00000213,false,Rx,0,4,08,00,00,00,00,00,00,00
1756490741780813,00000214,false,Rx,0,4,08,00,00,00,00,00,00,00
1756490741781680,00000188,false,Rx,0,6,C6,FF,18,00,09,04,00,00
1756490741782524,00000288,false,Rx,0,6,01,00,01,00,00,00,00,00
1756490741782643,00000488,false,Rx,0,8,08,27,56,00,55,01,8A,00
1756490741782763,00000194,false,Rx,0,6,14,00,FE,FF,00,00,00,00
1756490741784380,00000193,false,Rx,0,6,14,00,0B,00,FF,FF,00,00
1756490741790613,00000213,false,Rx,0,4,08,00,00,00,00,00,00,00
1756490741790704,00000214,false,Rx,0,4,08,00,00,00,00,00,00,00
1756490741792560,00000188,false,Rx,0,6,BE,FF,1B,00,D0,03,00,00
1756490741792671,00000288,false,Rx,0,6,01,00,00,00,00,00,00,00
1756490741792767,00000194,false,Rx,0,6,14,00,FD,FF,FF,FF,00,00
1756490741792864,00000488,false,Rx,0,8,08,27,56,00,55,01,8A,00
1756490741793380,00000701,false,Rx,0,1,05,00,00,00,00,00,00,00
1756490741794201,00000193,false,Rx,0,6,14,00,01,00,06,00,00,00
1756490741800522,00000213,false,Rx,0,4,08,00,00,00,00,00,00,00
1756490741800610,00000214,false,Rx,0,4,08,00,00,00,00,00,00,00
1756490741802720,00000194,false,Rx,0,6,14,00,FA,FF,FF,FF,00,00
1756490741802835,00000181,false,Rx,0,8,04,10,00,EA,02,00,00,00
1756490741802951,00000188,false,Rx,0,6,C5,FF,13,00,E3,03,00,00
1756490741803048,00000288,false,Rx,0,6,01,00,00,00,00,00,00,00
1756490741803144,00000488,false,Rx,0,8,08,27,56,00,55,01,8A,00
1756490741804040,00000193,false,Rx,0,6,14,00,00,00,02,00,00,00
1756490741810524,00000213,false,Rx,0,4,08,00,00,00,00,00,00,00
1756490741810615,00000214,false,Rx,0,4,08,00,00,00,00,00,00,00
1756490741812718,00000194,false,Rx,0,6,14,00,FE,FF,FE,FF,00,00
1756490741812896,00000188,false,Rx,0,6,CA,FF,0F,00,FA,03,00,00
1756490741813009,00000288,false,Rx,0,6,00,00,00,00,00,00,00,00
1756490741813124,00000488,false,Rx,0,8,08,27,56,00,55,01,8A,00
1756490741813854,00000193,false,Rx,0,6,14,00,0C,00,02,00,00,00
1756490741816063,00000181,false,Rx,0,8,04,10,00,E9,02,00,00,00
1756490741821526,00000213,false,Rx,0,4,08,00,00,00,00,00,00,00
1756490741821620,00000214,false,Rx,0,4,08,00,00,00,00,00,00,00
1756490741822715,00000194,false,Rx,0,6,14,00,FA,FF,00,00,00,00
1756490741823092,00000188,false,Rx,0,6,B9,FF,0D,00,D1,03,00,00
1756490741823214,00000288,false,Rx,0,6,FE,FF,00,00,00,00,00,00
1756490741823332,00000488,false,Rx,0,8,08,27,56,00,55,01,8A,00
1756490741823682,00000193,false,Rx,0,6,14,00,12,00,02,00,00,00
1756490741831535,00000213,false,Rx,0,4,08,00,00,00,00,00,00,00
1756490741831623,00000214,false,Rx,0,4,08,00,00,00,00,00,00,00
1756490741832713,00000394,false,Rx,0,6,62,05,DD,01,28,01,00,00
1756490741832805,00000294,false,Rx,0,4,54,A2,14,00,00,00,00,00
1756490741832901,00000714,false,Rx,0,1,05,00,00,00,00,00,00,00
1756490741832997,00000734,false,Rx,0,8,06,6F,12,03,3B,A2,14,05
1756490741833093,00000194,false,Rx,0,6,14,00,FA,FF,00,00,00,00
1756490741833289,00000188,false,Rx,0,6,BA,FF,14,00,D2,03,00,00
1756490741833405,00000288,false,Rx,0,6,FF,FF,00,00,00,00,00,00
1756490741833522,00000488,false,Rx,0,8,08,27,56,00,55,01,8A,00
1756490741833625,00000193,false,Rx,0,6,14,00,0B,00,FF,FF,00,00
1756490741841575,00000213,false,Rx,0,4,08,00,00,00,00,00,00,00
1756490741841650,00000214,false,Rx,0,4,08,00,00,00,00,00,00,00
1756490741842670,00000710,false,Rx,0,1,7F,00,00,00,00,00,00,00
1756490741842785,00000194,false,Rx,0,6,14,00,F9,FF,00,00,00,00
1756490741843348,00000193,false,Rx,0,6,14,00,01,00,02,00,00,00
1756490741843596,00000188,false,Rx,0,6,C1,FF,0E,00,EF,03,00,00
1756490741843714,00000288,false,Rx,0,6,FF,FF,01,00,00,00,00,00
1756490741843832,00000488,false,Rx,0,8,08,27,56,00,55,01,8A,00
1756490741851445,00000213,false,Rx,0,4,08,00,00,00,00,00,00,00
1756490741851537,00000214,false,Rx,0,4,08,00,00,00,00,00,00,00
1756490741852713,00000194,false,Rx,0,6,14,00,FC,FF,00,00,00,00
1756490741853165,00000193,false,Rx,0,6,14,00,F0,FF,FE,FF,00,00
1756490741853617,00000188,false,Rx,0,6,BC,FF,17,00,E8,03,00,00
1756490741853731,00000288,false,Rx,0,6,FF,FF,01,00,00,00,00,00
1756490741853848,00000488,false,Rx,0,8,08,27,56,00,55,01,8A,00
1756490741862444,00000213,false,Rx,0,4,08,00,00,00,00,00,00,00
1756490741862537,00000214,false,Rx,0,4,08,00,00,00,00,00,00,00
1756490741862716,00000194,false,Rx,0,6,14,00,F9,FF,FF,FF,00,00
1756490741862993,00000393,false,Rx,0,6,15,01,D5,01,0F,01,00,00
1756490741863086,00000293,false,Rx,0,4,9E,A2,00,00,00,00,00,00
1756490741863202,00000713,false,Rx,0,1,05,00,00,00,00,00,00,00
1756490741863295,00000733,false,Rx,0,8,06,6F,12,03,3B,A2,00,05
1756490741863389,00000193,false,Rx,0,6,14,00,F2,FF,02,00,00,00
1756490741863701,00000188,false,Rx,0,6,B4,FF,12,00,D2,03,00,00
1756490741863817,00000288,false,Rx,0,6,00,00,00,00,00,00,00,00
1756490741863929,00000488,false,Rx,0,8,08,27,56,00,55,01,8A,00
1756490741872492,00000181,false,Rx,0,8,68,10,00,E9,02,00,00,00
1756490741872584,00000213,false,Rx,0,4,08,00,00,00,00,00,00,00
1756490741872678,00000214,false,Rx,0,4,08,00,00,00,00,00,00,00
1756490741872774,00000194,false,Rx,0,6,14,00,FA,FF,02,00,00,00
1756490741872870,00000193,false,Rx,0,6,14,00,14,00,FF,FF,00,00
1756490741873902,00000188,false,Rx,0,6,C0,FF,14,00,F9,03,00,00
1756490741874014,00000288,false,Rx,0,6,01,00,00,00,01,00,00,00
1756490741874134,00000488,false,Rx,0,8,08,27,56,00,55,01,8A,00
1756490741882387,00000213,false,Rx,0,4,08,00,00,00,00,00,00,00
1756490741882476,00000214,false,Rx,0,4,08,00,00,00,00,00,00,00
1756490741882658,00000193,false,Rx,0,6,14,00,F6,FF,04,00,00,00
1756490741882768,00000194,false,Rx,0,6,14,00,FD,FF,02,00,00,00
1756490741884106,00000188,false,Rx,0,6,BD,FF,0D,00,F1,03,00,00
1756490741884216,00000288,false,Rx,0,6,01,00,00,00,00,00,00,00
1756490741884333,00000488,false,Rx,0,8,08,27,56,00,55,01,8A,00
1756490741885691,00000181,false,Rx,0,8,04,10,00,EA,02,00,00,00
1756490741892262,00000213,false,Rx,0,4,08,00,00,00,00,00,00,00
1756490741892352,00000214,false,Rx,0,4,08,00,00,00,00,00,00,00
1756490741892471,00000193,false,Rx,0,6,14,00,FB,FF,FB,FF,00,00
1756490741892708,00000194,false,Rx,0,6,14,00,FA,FF,00,00,00,00
1756490741893522,00000701,false,Rx,0,1,05,00,00,00,00,00,00,00
1756490741894294,00000188,false,Rx,0,6,B2,FF,14,00,CD,03,00,00
1756490741894408,00000288,false,Rx,0,6,01,00,00,00,00,00,00,00
1756490741895631,00000488,false,Rx,0,8,08,27,56,00,55,01,8A,00
1756490741898900,00000181,false,Rx,0,8,68,10,00,E9,02,00,00,00
1756490741902309,00000193,false,Rx,0,6,14,00,0B,00,00,00,00,00
1756490741902706,00000194,false,Rx,0,6,14,00,FB,FF,01,00,00,00
1756490741903336,00000213,false,Rx,0,4,08,00,00,00,00,00,00,00
1756490741903425,00000214,false,Rx,0,4,08,00,00,00,00,00,00,00
1756490741905657,00000188,false,Rx,0,6,C7,FF,0B,00,F9,03,00,00
1756490741905772,00000288,false,Rx,0,6,00,00,00,00,00,00,00,00
1756490741905887,00000488,false,Rx,0,8,08,27,56,00,56,01,8A,00
1756490741912104,00000181,false,Rx,0,8,04,10,00,E9,02,00,00,00
1756490741912215,00000193,false,Rx,0,6,14,00,FB,FF,FF,FF,00,00
1756490741912716,00000194,false,Rx,0,6,14,00,F9,FF,01,00,00,00
1756490741913196,00000213,false,Rx,0,4,08,00,00,00,00,00,00,00
1756490741913290,00000214,false,Rx,0,4,08,00,00,00,00,00,00,00
1756490741915959,00000188,false,Rx,0,6,BC,FF,10,00,D9,03,00,00
1756490741916044,00000288,false,Rx,0,6,00,00,01,00,00,00,00,00
1756490741916145,00000488,false,Rx,0,8,08,27,56,00,56,01,8A,00
1756490741921970,00000193,false,Rx,0,6,14,00,FB,FF,FF,FF,00,00
1756490741922710,00000194,false,Rx,0,6,14,00,FA,FF,01,00,00,00
1756490741923103,00000213,false,Rx,0,4,08,00,00,00,00,00,00,00
1756490741923201,00000214,false,Rx,0,4,08,00,00,00,00,00,00,00
1756490741926013,00000188,false,Rx,0,6,C0,FF,18,00,E8,03,00,00
1756490741926122,00000288,false,Rx,0,6,00,00,00,00,00,00,00,00
1756490741926238,00000488,false,Rx,0,8,08,27,56,00,55,01,8A,00
1756490741931799,00000193,false,Rx,0,6,14,00,FD,FF,05,00,00,00
1756490741932710,00000394,false,Rx,0,6,65,05,DD,01,0E,01,00,00
1756490741932801,00000294,false,Rx,0,4,D5,A1,28,00,00,00,00,00
1756490741932897,00000714,false,Rx,0,1,05,00,00,00,00,00,00,00
1756490741932993,00000734,false,Rx,0,8,07,00,00,80,3F,A1,28,05
1756490741933091,00000181,false,Rx,0,8,68,10,00,E9,02,00,00,00
1756490741933205,00000194,false,Rx,0,6,14,00,FA,FF,00,00,00,00
1756490741933305,00000213,false,Rx,0,4,08,00,00,00,00,00,00,00
1756490741933425,00000214,false,Rx,0,4,08,00,00,00,00,00,00,00
1756490741936235,00000188,false,Rx,0,6,C4,FF,13,00,FE,03,00,00
1756490741936310,00000288,false,Rx,0,6,00,00,00,00,00,00,00,00
1756490741936412,00000488,false,Rx,0,8,08,27,56,00,55,01,8A,00
1756490741941621,00000193,false,Rx,0,6,14,00,09,00,00,00,00,00
1756490741942711,00000194,false,Rx,0,6,14,00,FA,FF,FE,FF,00,00
1756490741943988,00000213,false,Rx,0,4,08,00,00,00,00,00,00,00
1756490741944080,00000214,false,Rx,0,4,08,00,00,00,00,00,00,00
1756490741946219,00000181,false,Rx,0,8,04,10,00,E9,02,00,00,00
1756490741946407,00000188,false,Rx,0,6,C0,FF,17,00,E6,03,00,00
1756490741946518,00000288,false,Rx,0,6,FF,FF,00,00,00,00,00,00
1756490741946636,00000488,false,Rx,0,8,08,27,56,00,55,01,8A,00
1756490741950673,00000710,false,Rx,0,1,7F,00,00,00,00,00,00,00
1756490741951449,00000193,false,Rx,0,6,14,00,08,00,00,00,00,00
1756490741952712,00000194,false,Rx,0,6,14,00,FC,FF,FE,FF,00,00
1756490741953896,00000213,false,Rx,0,4,08,00,00,00,00,00,00,00
1756490741953990,00000214,false,Rx,0,4,08,00,00,00,00,00,00,00
1756490741956586,00000188,false,Rx,0,6,B4,FF,17,00,C9,03,00,00
1756490741956726,00000288,false,Rx,0,6,00,00,00,00,00,00,00,00
1756490741956841,00000488,false,Rx,0,8,08,27,56,00,55,01,8A,00
1756490741961275,00000393,false,Rx,0,6,15,01,D5,01,0F,01,00,00
1756490741961371,00000293,false,Rx,0,4,7E,A2,00,00,00,00,00,00
1756490741961465,00000713,false,Rx,0,1,05,00,00,00,00,00,00,00
1756490741961561,00000733,false,Rx,0,8,07,00,00,80,3F,A2,00,05
1756490741961657,00000193,false,Rx,0,6,14,00,01,00,FC,FF,00,00
1756490741962710,00000194,false,Rx,0,6,14,00,F8,FF,FF,FF,00,00
1756490741963805,00000213,false,Rx,0,4,08,00,00,00,00,00,00,00
1756490741963898,00000214,false,Rx,0,4,08,00,00,00,00,00,00,00
1756490741966788,00000188,false,Rx,0,6,BF,FF,10,00,E6,03,00,00
1756490741967606,00000288,false,Rx,0,6,02,00,FF,FF,01,00,00,00
1756490741967713,00000488,false,Rx,0,8,08,27,56,00,55,01,8A,00
1756490741971101,00000193,false,Rx,0,6,14,00,00,00,FE,FF,00,00
1756490741972710,00000194,false,Rx,0,6,14,00,F9,FF,FF,FF,00,00
1756490741973007,00000290,false,Rx,0,7,01,00,01,00,00,00,00,00
1756490741973102,00000490,false,Rx,0,5,64,00,00,00,00,00,00,00
1756490741974792,00000213,false,Rx,0,4,08,00,00,00,00,00,00,00
1756490741974885,00000214,false,Rx,0,4,08,00,00,00,00,00,00,00
1756490741977644,00000188,false,Rx,0,6,B5,FF,0D,00,D1,03,00,00
1756490741977749,00000288,false,Rx,0,6,00,00,01,00,00,00,00,00
1756490741977859,00000488,false,Rx,0,8,08,27,56,00,55,01,8A,00
1756490741980931,00000193,false,Rx,0,6,14,00,05,00,FD,FF,00,00
1756490741982714,00000194,false,Rx,0,6,14,00,FD,FF,FF,FF,00,00
1756490741984696,00000213,false,Rx,0,4,08,00,00,00,00,00,00,00
1756490741984789,00000214,false,Rx,0,4,08,00,00,00,00,00,00,00
1756490741987781,00000188,false,Rx,0,6,B7,FF,0E,00,E2,03,00,00
1756490741987929,00000288,false,Rx,0,6,00,00,00,00,00,00,00,00
1756490741988046,00000488,false,Rx,0,8,08,27,56,00,55,01,8A,00
1756490741990759,00000193,false,Rx,0,6,14,00,F8,FF,03,00,00,00
1756490741992719,00000194,false,Rx,0,6,14,00,F8,FF,FF,FF,00,00
1756490741993668,00000701,false,Rx,0,1,05,00,00,00,00,00,00,00
1756490741994597,00000213,false,Rx,0,4,08,00,00,00,00,00,00,00
1756490741994692,00000214,false,Rx,0,4,08,00,00,00,00,00,00,00
1756490741997984,00000188,false,Rx,0,6,C5,FF,0A,00,F8,03,00,00
1756490741998126,00000288,false,Rx,0,6,00,00,FF,FF,00,00,00,00
1756490741998242,00000488,false,Rx,0,8,08,27,56,00,55,01,8A,00
1756490742000584,00000193,false,Rx,0,6,14,00,FE,FF,FF,FF,00,00
1756490742002706,00000194,false,Rx,0,6,14,00,F8,FF,01,00,00,00
1756490742004506,00000213,false,Rx,0,4,08,00,00,00,00,00,00,00
1756490742004598,00000214,false,Rx,0,4,08,00,00,00,00,00,00,00
1756490742008181,00000188,false,Rx,0,6,B5,FF,1A,00,D9,03,00,00
1756490742008326,00000288,false,Rx,0,6,FF,FF,00,00,00,00,00,00
1756490742008442,00000488,false,Rx,0,8,08,27,56,00,55,01,8A,00
1756490742010412,00000193,false,Rx,0,6,14,00,02,00,02,00,00,00
1756490742012708,00000194,false,Rx,0,6,14,00,FB,FF,01,00,00,00
1756490742015533,00000213,false,Rx,0,4,08,00,00,00,00,00,00,00
1756490742015621,00000214,false,Rx,0,4,08,00,00,00,00,00,00,00
1756490742018381,00000188,false,Rx,0,6,B4,FF,19,00,D8,03,00,00
1756490742018525,00000288,false,Rx,0,6,FF,FF,00,00,00,00,00,00
1756490742018640,00000488,false,Rx,0,8,08,27,56,00,56,01,8A,00
1756490742020237,00000193,false,Rx,0,6,14,00,0D,00,FF,FF,00,00
1756490742022708,00000194,false,Rx,0,6,14,00,F8,FF,01,00,00,00
1756490742025419,00000213,false,Rx,0,4,08,00,00,00,00,00,00,00
1756490742025510,00000214,false,Rx,0,4,08,00,00,00,00,00,00,00
1756490742028581,00000188,false,Rx,0,6,C3,FF,1C,00,FC,03,00,00
1756490742028733,00000288,false,Rx,0,6,00,00,00,00,00,00,00,00
1756490742028848,00000488,false,Rx,0,8,08,27,56,00,56,01,8A,00
1756490742030065,00000193,false,Rx,0,6,14,00,13,00,FB,FF,00,00
1756490742032817,00000394,false,Rx,0,6,65,05,DD,01,16,01,00,00
1756490742032893,00000294,false,Rx,0,4,B5,A1,08,00,00,00,00,00
1756490742032952,00000714,false,Rx,0,1,05,00,00,00,00,00,00,00
1756490742033009,00000734,false,Rx,0,8,08,00,00,80,3F,A1,08,05
1756490742033092,00000194,false,Rx,0,6,14,00,FC,FF,01,00,00,00
1756490742035354,00000213,false,Rx,0,4,08,00,00,00,00,00,00,00
1756490742035436,00000214,false,Rx,0,4,08,00,00,00,00,00,00,00
1756490742038785,00000188,false,Rx,0,6,BD,FF,10,00,F2,03,00,00
1756490742038928,00000288,false,Rx,0,6,00,00,00,00,00,00,00,00
1756490742039043,00000488,false,Rx,0,8,08,27,56,00,56,01,8A,00
1756490742039897,00000193,false,Rx,0,6,14,00,0C,00,00,00,00,00
1756490742042711,00000194,false,Rx,0,6,14,00,FA,FF,01,00,00,00
1756490742046325,00000213,false,Rx,0,4,08,00,00,00,00,00,00,00
1756490742046417,00000214,false,Rx,0,4,08,00,00,00,00,00,00,00
1756490742048983,00000188,false,Rx,0,6,AF,FF,1F,00,CE,03,00,00
1756490742049126,00000288,false,Rx,0,6,01,00,00,00,00,00,00,00
1756490742049244,00000488,false,Rx,0,8,08,27,56,00,56,01,8A,00
1756490742049719,00000193,false,Rx,0,6,14,00,FF,FF,00,00,00,00
1756490742052712,00000194,false,Rx,0,6,14,00,FC,FF,00,00,00,00
1756490742056230,00000213,false,Rx,0,4,08,00,00,00,00,00,00,00
1756490742056320,00000214,false,Rx,0,4,08,00,00,00,00,00,00,00
1756490742058670,00000710,false,Rx,0,1,7F,00,00,00,00,00,00,00
1756490742059197,00000188,false,Rx,0,6,BA,FF,0A,00,E4,03,00,00
1756490742059331,00000288,false,Rx,0,6,00,00,00,00,01,00,00,00
1756490742059445,00000488,false,Rx,0,8,08,27,56,00,56,01,8A,00
1756490742059562,00000393,false,Rx,0,6,15,01,D5,01,17,01,00,00
1756490742059659,00000293,false,Rx,0,4,98,A2,00,00,00,00,00,00
1756490742059757,00000713,false,Rx,0,1,05,00,00,00,00,00,00,00
1756490742059855,00000733,false,Rx,0,8,08,00,00,80,3F,A2,00,05
1756490742059951,00000193,false,Rx,0,6,14,00,FC,FF,02,00,00,00
1756490742062707,00000194,false,Rx,0,6,14,00,FD,FF,01,00,00,00
1756490742066130,00000213,false,Rx,0,4,08,00,00,00,00,00,00,00
1756490742066222,00000214,false,Rx,0,4,08,00,00,00,00,00,00,00
1756490742069377,00000193,false,Rx,0,6,14,00,02,00,00,00,00,00
1756490742069490,00000188,false,Rx,0,6,C3,FF,0C,00,01,04,00,00
1756490742070487,00000288,false,Rx,0,6,00,00,FF,FF,00,00,00,00
1756490742070604,00000488,false,Rx,0,8,08,27,56,00,56,01,8A,00
1756490742072703,00000194,false,Rx,0,6,14,00,F8,FF,01,00,00,00
1756490742076034,00000213,false,Rx,0,4,08,00,00,00,00,00,00,00
1756490742076127,00000214,false,Rx,0,4,08,00,00,00,00,00,00,00
1756490742079214,00000193,false,Rx,0,6,14,00,FE,FF,02,00,00,00
1756490742080482,00000188,false,Rx,0,6,BB,FF,0C,00,D8,03,00,00
1756490742080628,00000288,false,Rx,0,6,FF,FF,00,00,00,00,00,00
1756490742080745,00000488,false,Rx,0,8,08,27,56,00,55,01,8A,00
1756490742082676,00000181,false,Rx,0,8,04,10,00,E9,02,00,00,00
1756490742082790,00000194,false,Rx,0,6,14,00,FD,FF,00,00,00,00
1756490742087051,00000213,false,Rx,0,4,08,00,00,00,00,00,00,00
1756490742087141,00000214,false,Rx,0,4,08,00,00,00,00,00,00,00
1756490742089034,00000193,false,Rx,0,6,14,00,09,00,FE,FF,00,00
1756490742090685,00000188,false,Rx,0,6,C4,FF,0A,00,F7,03,00,00
1756490742090829,00000288,false,Rx,0,6,FF,FF,00,00,00,00,00,00
1756490742090945,00000488,false,Rx,0,8,08,27,56,00,55,01,8A,00
1756490742092709,00000194,false,Rx,0,6,14,00,FB,FF,00,00,00,00
1756490742093806,00000701,false,Rx,0,1,05,00,00,00,00,00,00,00
1756490742095883,00000181,false,Rx,0,8,04,10,00,E9,02,00,00,00
1756490742096940,00000213,false,Rx,0,4,08,00,00,00,00,00,00,00
1756490742097033,00000214,false,Rx,0,4,08,00,00,00,00,00,00,00
1756490742098855,00000193,false,Rx,0,6,14,00,0D,00,00,00,00,00
1756490742100885,00000188,false,Rx,0,6,C0,FF,0F,00,E8,03,00,00
1756490742101029,00000288,false,Rx,0,6,00,00,FF,FF,00,00,00,00
1756490742101144,00000488,false,Rx,0,8,08,27,56,00,55,01,8A,00
1756490742102706,00000194,false,Rx,0,6,14,00,FB,FF,00,00,00,00
1756490742106848,00000213,false,Rx,0,4,08,00,00,00,00,00,00,00
1756490742106938,00000214,false,Rx,0,4,08,00,00,00,00,00,00,00
1756490742108687,00000193,false,Rx,0,6,14,00,00,00,FF,FF,00,00
1756490742109121,00000181,false,Rx,0,8,68,10,00,E9,02,00,00,00
1756490742111085,00000188,false,Rx,0,6,B6,FF,1D,00,CD,03,00,00
1756490742111238,00000288,false,Rx,0,6,00,00,00,00,00,00,00,00
1756490742111350,00000488,false,Rx,0,8,08,27,56,00,55,01,8A,00
1756490742112704,00000194,false,Rx,0,6,14,00,FB,FF,00,00,00,00
1756490742116753,00000213,false,Rx,0,4,08,00,00,00,00,00,00,00
1756490742116847,00000214,false,Rx,0,4,08,00,00,00,00,00,00,00
1756490742118511,00000193,false,Rx,0,6,14,00,F2,FF,00,00,00,00
1756490742121293,00000188,false,Rx,0,6,C0,FF,12,00,EB,03,00,00
1756490742121426,00000288,false,Rx,0,6,00,00,00,00,00,00,00,00
1756490742121548,00000488,false,Rx,0,8,08,27,56,00,55,01,8A,00
1756490742122346,00000181,false,Rx,0,8,04,10,00,E9,02,00,00,00
1756490742122702,00000194,false,Rx,0,6,14,00,FB,FF,03,00,00,00
1756490742127764,00000213,false,Rx,0,4,08,00,00,00,00,00,00,00
1756490742127855,00000214,false,Rx,0,4,08,00,00,00,00,00,00,00
1756490742128330,00000193,false,Rx,0,6,14,00,FD,FF,04,00,00,00
1756490742131486,00000188,false,Rx,0,6,BD,FF,17,00,EE,03,00,00
1756490742131629,00000288,false,Rx,0,6,00,00,FF,FF,00,00,00,00
1756490742131744,00000488,false,Rx,0,8,08,27,56,00,55,01,8A,00
1756490742132701,00000394,false,Rx,0,6,65,05,DD,01,1F,01,00,00
1756490742132795,00000294,false,Rx,0,4,48,A2,89,00,00,00,00,00
1756490742132892,00000714,false,Rx,0,1,05,00,00,00,00,00,00,00
1756490742132988,00000734,false,Rx,0,8,09,00,00,00,00,A2,89,05
1756490742133089,00000194,false,Rx,0,6,14,00,FA,FF,00,00,00,00
1756490742137686,00000213,false,Rx,0,4,08,00,00,00,00,00,00,00
1756490742137778,00000214,false,Rx,0,4,08,00,00,00,00,00,00,00
1756490742138165,00000193,false,Rx,0,6,14,00,FE,FF,FF,FF,00,00
1756490742141688,00000188,false,Rx,0,6,B3,FF,10,00,CF,03,00,00
1756490742141830,00000288,false,Rx,0,6,00,00,00,00,01,00,00,00
1756490742141945,00000488,false,Rx,0,8,08,27,56,00,55,01,8A,00
1756490742142703,00000194,false,Rx,0,6,14,00,FC,FF,FF,FF,00,00
1756490742147570,00000213,false,Rx,0,4,08,00,00,00,00,00,00,00
1756490742147663,00000214,false,Rx,0,4,08,00,00,00,00,00,00,00
1756490742147985,00000193,false,Rx,0,6,14,00,06,00,01,00,00,00
1756490742151890,00000188,false,Rx,0,6,B6,FF,15,00,DD,03,00,00
1756490742152693,00000288,false,Rx,0,6,FF,FF,00,00,00,00,00,00
1756490742152812,00000194,false,Rx,0,6,14,00,FA,FF,00,00,00,00
1756490742152930,00000488,false,Rx,0,8,08,27,56,00,55,01,8A,00
1756490742157817,00000393,false,Rx,0,6,15,01,D5,01,0F,01,00,00
1756490742157911,00000293,false,Rx,0,4,8E,A2,00,00,00,00,00,00
1756490742158008,00000713,false,Rx,0,1,05,00,00,00,00,00,00,00
1756490742158105,00000733,false,Rx,0,8,09,00,00,00,00,A2,00,05
1756490742158201,00000193,false,Rx,0,6,14,00,08,00,FE,FF,00,00
1756490742158630,00000213,false,Rx,0,4,08,00,00,00,00,00,00,00
1756490742158725,00000214,false,Rx,0,4,08,00,00,00,00,00,00,00
1756490742162699,00000194,false,Rx,0,6,14,00,F9,FF,FF,FF,00,00
1756490742162813,00000188,false,Rx,0,6,B8,FF,18,00,E9,03,00,00
1756490742162910,00000288,false,Rx,0,6,00,00,00,00,00,00,00,00
1756490742163007,00000488,false,Rx,0,8,08,27,56,00,55,01,8A,00
1756490742167656,00000193,false,Rx,0,6,14,00,00,00,01,00,00,00
1756490742168599,00000213,false,Rx,0,4,08,00,00,00,00,00,00,00
1756490742168687,00000214,false,Rx,0,4,08,00,00,00,00,00,00,00
1756490742170896,00000710,false,Rx,0,1,7F,00,00,00,00,00,00,00
1756490742172705,00000194,false,Rx,0,6,14,00,F9,FF,FF,FF,00,00
1756490742172882,00000188,false,Rx,0,6,B5,FF,10,00,DB,03,00,00
1756490742173045,00000181,false,Rx,0,8,04,10,00,E9,02,00,00,00
1756490742173161,00000288,false,Rx,0,6,FE,FF,00,00,00,00,00,00
1756490742173277,00000488,false,Rx,0,8,08,27,56,00,55,01,8A,00
1756490742177478,00000193,false,Rx,0,6,14,00,07,00,FE,FF,00,00
1756490742178491,00000213,false,Rx,0,4,08,00,00,00,00,00,00,00
1756490742178586,00000214,false,Rx,0,4,08,00,00,00,00,00,00,00
1756490742182701,00000194,false,Rx,0,6,14,00,FC,FF,FD,FF,00,00
1756490742183087,00000188,false,Rx,0,6,C1,FF,13,00,FB,03,00,00
1756490742183236,00000288,false,Rx,0,6,00,00,00,00,00,00,00,00
1756490742183353,00000488,false,Rx,0,8,08,27,56,00,55,01,8A,00
1756490742186235,00000181,false,Rx,0,8,04,10,00,E9,02,00,00,00
1756490742187306,00000193,false,Rx,0,6,14,00,01,00,04,00,00,00
1756490742188400,00000213,false,Rx,0,4,08,00,00,00,00,00,00,00
1756490742188492,00000214,false,Rx,0,4,08,00,00,00,00,00,00,00
1756490742192702,00000194,false,Rx,0,6,14,00,F9,FF,01,00,00,00
1756490742193280,00000188,false,Rx,0,6,BC,FF,0F,00,F4,03,00,00
1756490742193431,00000288,false,Rx,0,6,00,00,00,00,00,00,00,00
1756490742193552,00000488,false,Rx,0,8,08,27,56,00,55,01,8A,00
1756490742193985,00000701,false,Rx,0,1,05,00,00,00,00,00,00,00
1756490742197130,00000193,false,Rx,0,6,14,00,F7,FF,01,00,00,00
1756490742199387,00000213,false,Rx,0,4,08,00,00,00,00,00,00,00
1756490742199489,00000214,false,Rx,0,4,08,00,00,00,00,00,00,00
1756490742202717,00000194,false,Rx,0,6,14,00,F9,FF,FF,FF,00,00
1756490742202832,00000181,false,Rx,0,8,04,10,00,E9,02,00,00,00
1756490742203508,00000188,false,Rx,0,6,B1,FF,19,00,CF,03,00,00
1756490742203658,00000288,false,Rx,0,6,00,00,FF,FF,00,00,00,00
1756490742203769,00000488,false,Rx,0,8,08,27,56,00,55,01,8A,00
1756490742207013,00000193,false,Rx,0,6,14,00,03,00,00,00,00,00
1756490742209308,00000213,false,Rx,0,4,08,00,00,00,00,00,00,00
1756490742209398,00000214,false,Rx,0,4,08,00,00,00,00,00,00,00
1756490742212709,00000194,false,Rx,0,6,14,00,FB,FF,00,00,00,00
1756490742213688,00000188,false,Rx,0,6,B9,FF,0E,00,E8,03,00,00
1756490742213832,00000288,false,Rx,0,6,00,00,FF,FF,00,00,00,00
1756490742213947,00000488,false,Rx,0,8,08,27,56,00,55,01,8A,00
1756490742215933,00000181,false,Rx,0,8,68,10,00,E9,02,00,00,00
1756490742216779,00000193,false,Rx,0,6,14,00,15,00,01,00,00,00
1756490742219207,00000213,false,Rx,0,4,08,00,00,00,00,00,00,00
1756490742219328,00000214,false,Rx,0,4,08,00,00,00,00,00,00,00
1756490742222705,00000194,false,Rx,0,6,14,00,FB,FF,00,00,00,00
1756490742223900,00000188,false,Rx,0,6,C1,FF,0D,00,01,04,00,00
1756490742224051,00000288,false,Rx,0,6,01,00,FF,FF,00,00,00,00
1756490742224160,00000488,false,Rx,0,8,08,27,56,00,55,01,8A,00
1756490742226619,00000193,false,Rx,0,6,14,00,06,00,FE,FF,00,00
1756490742229150,00000181,false,Rx,0,8,04,10,00,EA,02,00,00,00
1756490742230200,00000213,false,Rx,0,4,08,00,00,00,00,00,00,00
1756490742230292,00000214,false,Rx,0,4,08,00,00,00,00,00,00,00
1756490742232697,00000394,false,Rx,0,6,65,05,DD,01,1F,01,00,00
1756490742232790,00000294,false,Rx,0,4,5A,A2,EC,FF,00,00,00,00
1756490742232887,00000714,false,Rx,0,1,05,00,00,00,00,00,00,00
1756490742232985,00000734,false,Rx,0,8,01,9A,99,19,40,A2,EC,05
1756490742233082,00000194,false,Rx,0,6,14,00,FA,FF,00,00,00,00
1756490742234084,00000188,false,Rx,0,6,B8,FF,0F,00,D9,03,00,00
1756490742234260,00000288,false,Rx,0,6,00,00,00,00,00,00,00,00
1756490742234386,00000488,false,Rx,0,8,08,27,56,00,55,01,8A,00
1756490742236451,00000193,false,Rx,0,6,14,00,10,00,01,00,00,00
1756490742240114,00000213,false,Rx,0,4,08,00,00,00,00,00,00,00
1756490742240208,00000214,false,Rx,0,4,08,00,00,00,00,00,00,00
1756490742242354,00000181,false,Rx,0,8,04,10,00,E9,02,00,00,00
1756490742242695,00000194,false,Rx,0,6,14,00,F9,FF,02,00,00,00
1756490742244289,00000188,false,Rx,0,6,B8,FF,14,00,D0,03,00,00
1756490742244434,00000288,false,Rx,0,6,00,00,FF,FF,00,00,00,00
1756490742244548,00000488,false,Rx,0,8,08,27,55,00,55,01,8A,00
1756490742246267,00000193,false,Rx,0,6,14,00,00,00,FF,FF,00,00
1756490742250029,00000213,false,Rx,0,4,08,00,00,00,00,00,00,00
1756490742250119,00000214,false,Rx,0,4,08,00,00,00,00,00,00,00
1756490742252698,00000194,false,Rx,0,6,14,00,FC,FF,02,00,00,00
1756490742255750,00000188,false,Rx,0,6,C2,FF,0C,00,F5,03,00,00
1756490742255861,00000288,false,Rx,0,6,00,00,00,00,00,00,00,00
1756490742255979,00000488,false,Rx,0,8,08,27,55,00,55,01,8A,00
1756490742256095,00000393,false,Rx,0,6,15,01,D5,01,0F,01,00,00
1756490742256191,00000293,false,Rx,0,4,CD,A2,00,00,00,00,00,00
1756490742256288,00000713,false,Rx,0,1,05,00,00,00,00,00,00,00
1756490742256386,00000733,false,Rx,0,8,01,9A,99,19,40,A2,00,05
1756490742256486,00000193,false,Rx,0,6,14,00,05,00,06,00,00,00
1756490742260016,00000213,false,Rx,0,4,08,00,00,00,00,00,00,00
1756490742260108,00000214,false,Rx,0,4,08,00,00,00,00,00,00,00
1756490742262698,00000194,false,Rx,0,6,14,00,F9,FF,01,00,00,00
1756490742265786,00000188,false,Rx,0,6,B3,FF,17,00,D4,03,00,00
1756490742265897,00000288,false,Rx,0,6,FE,FF,01,00,00,00,00,00
1756490742266013,00000193,false,Rx,0,6,14,00,F9,FF,00,00,00,00
1756490742266129,00000488,false,Rx,0,8,08,27,55,00,55,01,8A,00
1756490742271021,00000710,false,Rx,0,1,7F,00,00,00,00,00,00,00
1756490742271131,00000213,false,Rx,0,4,08,00,00,00,00,00,00,00
1756490742271230,00000214,false,Rx,0,4,08,00,00,00,00,00,00,00
1756490742272698,00000194,false,Rx,0,6,14,00,FD,FF,02,00,00,00
1756490742275753,00000193,false,Rx,0,6,14,00,02,00,04,00,00,00
1756490742276091,00000188,false,Rx,0,6,C3,FF,0D,00,F7,03,00,00
1756490742276209,00000288,false,Rx,0,6,FF,FF,00,00,FF,FF,00,00
1756490742276429,00000488,false,Rx,0,8,08,27,55,00,55,01,8A,00
1756490742281128,00000213,false,Rx,0,4,08,00,00,00,00,00,00,00
1756490742281221,00000214,false,Rx,0,4,08,00,00,00,00,00,00,00
1756490742282693,00000194,false,Rx,0,6,14,00,F9,FF,01,00,00,00
1756490742285579,00000193,false,Rx,0,6,14,00,07,00,FB,FF,00,00
1756490742286386,00000188,false,Rx,0,6,BA,FF,1D,00,F0,03,00,00
1756490742286504,00000288,false,Rx,0,6,00,00,00,00,00,00,00,00
1756490742286734,00000488,false,Rx,0,8,08,27,55,00,55,01,8A,00
1756490742291025,00000213,false,Rx,0,4,08,00,00,00,00,00,00,00
1756490742291118,00000214,false,Rx,0,4,08,00,00,00,00,00,00,00
1756490742292699,00000194,false,Rx,0,6,14,00,FB,FF,01,00,00,00
1756490742294194,00000701,false,Rx,0,1,05,00,00,00,00,00,00,00
1756490742295405,00000193,false,Rx,0,6,14,00,1A,00,FF,FF,00,00
1756490742296690,00000188,false,Rx,0,6,B5,FF,1B,00,D1,03,00,00
1756490742296803,00000288,false,Rx,0,6,00,00,00,00,00,00,00,00
1756490742297912,00000488,false,Rx,0,8,08,27,55,00,55,01,8A,00
1756490742300935,00000213,false,Rx,0,4,08,00,00,00,00,00,00,00
1756490742301026,00000214,false,Rx,0,4,08,00,00,00,00,00,00,00
1756490742302695,00000194,false,Rx,0,6,14,00,FC,FF,00,00,00,00
1756490742305229,00000193,false,Rx,0,6,14,00,15,00,01,00,00,00
1756490742307783,00000188,false,Rx,0,6,C8,FF,09,00,00,04,00,00
1756490742307899,00000288,false,Rx,0,6,01,00,00,00,00,00,00,00
1756490742308128,00000488,false,Rx,0,8,08,27,56,00,55,01,8A,00
1756490742311942,00000213,false,Rx,0,4,08,00,00,00,00,00,00,00
1756490742312035,00000214,false,Rx,0,4,08,00,00,00,00,00,00,00
1756490742312694,00000194,false,Rx,0,6,14,00,F9,FF,FF,FF,00,00
1756490742315056,00000193,false,Rx,0,6,14,00,02,00,01,00,00,00
1756490742318083,00000188,false,Rx,0,6,BC,FF,0B,00,E7,03,00,00
1756490742318216,00000288,false,Rx,0,6,00,00,00,00,00,00,00,00
1756490742318427,00000488,false,Rx,0,8,08,27,56,00,55,01,8A,00
1756490742321837,00000213,false,Rx,0,4,08,00,00,00,00,00,00,00
1756490742321930,00000214,false,Rx,0,4,08,00,00,00,00,00,00,00
1756490742322694,00000194,false,Rx,0,6,14,00,FA,FF,FF,FF,00,00
1756490742324883,00000193,false,Rx,0,6,14,00,F7,FF,05,00,00,00
1756490742328380,00000188,false,Rx,0,6,B6,FF,12,00,D2,03,00,00
1756490742328571,00000288,false,Rx,0,6,00,00,00,00,00,00,00,00
1756490742328732,00000488,false,Rx,0,8,08,27,55,00,55,01,8A,00
1756490742331750,00000213,false,Rx,0,4,08,00,00,00,00,00,00,00
1756490742331844,00000214,false,Rx,0,4,08,00,00,00,00,00,00,00
1756490742332684,00000394,false,Rx,0,6,65,05,DD,01,0E,01,00,00
1756490742332780,00000294,false,Rx,0,4,04,A2,C4,FF,00,00,00,00
1756490742332881,00000714,false,Rx,0,1,05,00,00,00,00,00,00,00
1756490742332978,00000734,false,Rx,0,8,02,00,00,C0,3F,A2,C4,05
1756490742333074,00000194,false,Rx,0,6,14,00,FC,FF,FE,FF,00,00
1756490742334745,00000193,false,Rx,0,6,14,00,F6,FF,02,00,00,00
1756490742338717,00000188,false,Rx,0,6,C1,FF,0E,00,F8,03,00,00
1756490742338830,00000288,false,Rx,0,6,FF,FF,00,00,00,00,00,00
1756490742339059,00000488,false,Rx,0,8,08,27,55,00,55,01,8A,00
1756490742341689,00000213,false,Rx,0,4,08,00,00,00,00,00,00,00
1756490742341772,00000214,false,Rx,0,4,08,00,00,00,00,00,00,00
1756490742342707,00000194,false,Rx,0,6,14,00,FC,FF,00,00,00,00
1756490742344548,00000193,false,Rx,0,6,14,00,FB,FF,FF,FF,00,00
1756490742348989,00000188,false,Rx,0,6,C2,FF,0D,00,F1,03,00,00
1756490742349101,00000288,false,Rx,0,6,00,00,FF,FF,00,00,00,00
1756490742349331,00000488,false,Rx,0,8,08,27,55,00,55,01,8A,00
1756490742352653,00000213,false,Rx,0,4,08,00,00,00,00,00,00,00
1756490742352766,00000194,false,Rx,0,6,14,00,FA,FF,FE,FF,00,00
1756490742352867,00000214,false,Rx,0,4,08,00,00,00,00,00,00,00
1756490742354361,00000393,false,Rx,0,6,15,01,D5,01,0F,01,00,00
1756490742354457,00000293,false,Rx,0,4,DB,A2,00,00,00,00,00,00
1756490742354553,00000713,false,Rx,0,1,05,00,00,00,00,00,00,00
1756490742354650,00000733,false,Rx,0,8,02,00,00,C0,3F,A2,00,05
1756490742354745,00000193,false,Rx,0,6,14,00,09,00,FC,FF,00,00
1756490742356321,00000100,false,Rx,0,6,53,FE,E1,03,70,3B,00,00
1756490742359480,00000188,false,Rx,0,6,B3,FF,18,00,CE,03,00,00
1756490742359609,00000288,false,Rx,0,6,FF,FF,00,00,00,00,00,00
1756490742360633,00000488,false,Rx,0,8,08,27,55,00,55,01,8A,00
1756490742362566,00000213,false,Rx,0,4,08,00,00,00,00,00,00,00
1756490742362653,00000214,false,Rx,0,4,08,00,00,00,00,00,00,00
1756490742362872,00000194,false,Rx,0,6,14,00,FD,FF,FF,FF,00,00
1756490742364414,00000193,false,Rx,0,6,14,00,02,00,01,00,00,00
1756490742370628,00000188,false,Rx,0,6,BF,FF,15,00,F4,03,00,00
1756490742370733,00000288,false,Rx,0,6,00,00,00,00,00,00,00,00
1756490742370846,00000488,false,Rx,0,8,08,27,55,00,55,01,8A,00
1756490742370939,00000710,false,Rx,0,1,7F,00,00,00,00,00,00,00
1756490742372475,00000213,false,Rx,0,4,08,00,00,00,00,00,00,00
1756490742372551,00000214,false,Rx,0,4,08,00,00,00,00,00,00,00
1756490742372866,00000194,false,Rx,0,6,14,00,F9,FF,FF,FF,00,00
1756490742373067,00000290,false,Rx,0,7,01,00,01,00,00,00,00,00
1756490742373183,00000490,false,Rx,0,5,64,00,00,00,00,00,00,00
1756490742374233,00000193,false,Rx,0,6,14,00,0B,00,01,00,00,00
1756490742380794,00000188,false,Rx,0,6,B4,FF,19,00,D3,03,00,00
1756490742380931,00000288,false,Rx,0,6,FF,FF,01,00,00,00,00,00
1756490742381043,00000488,false,Rx,0,8,08,27,55,00,55,01,8A,00
1756490742382364,00000213,false,Rx,0,4,08,00,00,00,00,00,00,00
1756490742382462,00000214,false,Rx,0,4,08,00,00,00,00,00,00,00
1756490742382879,00000194,false,Rx,0,6,14,00,FB,FF,01,00,00,00
1756490742384069,00000193,false,Rx,0,6,14,00,0D,00,01,00,00,00
1756490742391032,00000188,false,Rx,0,6,B6,FF,18,00,E0,03,00,00
1756490742391119,00000288,false,Rx,0,6,00,00,FF,FF,00,00,00,00
1756490742391252,00000488,false,Rx,0,8,08,27,55,00,55,01,8A,00
1756490742392881,00000194,false,Rx,0,6,14,00,FC,FF,00,00,00,00
1756490742393387,00000213,false,Rx,0,4,08,00,00,00,00,00,00,00
1756490742393479,00000214,false,Rx,0,4,08,00,00,00,00,00,00,00
1756490742393880,00000193,false,Rx,0,6,14,00,FD,FF,04,00,00,00
1756490742394326,00000701,false,Rx,0,1,05,00,00,00,00,00,00,00
1756490742401205,00000188,false,Rx,0,6,C4,FF,11,00,FD,03,00,00
1756490742401337,00000288,false,Rx,0,6,00,00,00,00,00,00,00,00
1756490742401459,00000488,false,Rx,0,8,08,27,55,00,55,01,8A,00
1756490742402873,00000194,false,Rx,0,6,14,00,F9,FF,00,00,00,00
1756490742403295,00000213,false,Rx,0,4,08,00,00,00,00,00,00,00
1756490742403389,00000214,false,Rx,0,4,08,00,00,00,00,00,00,00
1756490742403715,00000193,false,Rx,0,6,14,00,03,00,04,00,00,00
1756490742411398,00000188,false,Rx,0,6,BE,FF,0E,00,F0,03,00,00
1756490742411533,00000288,false,Rx,0,6,00,00,00,00,00,00,00,00
1756490742411651,00000488,false,Rx,0,8,08,27,55,00,55,01,8A,00
1756490742412870,00000194,false,Rx,0,6,14,00,FA,FF,01,00,00,00
1756490742413188,00000213,false,Rx,0,4,08,00,00,00,00,00,00,00
1756490742413284,00000214,false,Rx,0,4,08,00,00,00,00,00,00,00
1756490742413536,00000193,false,Rx,0,6,14,00,02,00,03,00,00,00
1756490742421601,00000188,false,Rx,0,6,B5,FF,0E,00,DB,03,00,00
1756490742421734,00000288,false,Rx,0,6,00,00,FF,FF,00,00,00,00
1756490742421851,00000488,false,Rx,0,8,08,27,55,00,54,01,8A,00
1756490742422873,00000194,false,Rx,0,6,14,00,FE,FF,00,00,00,00
1756490742423371,00000193,false,Rx,0,6,14,00,07,00,FD,FF,00,00
1756490742424199,00000213,false,Rx,0,4,08,00,00,00,00,00,00,00
1756490742424293,00000214,false,Rx,0,4,08,00,00,00,00,00,00,00
1756490742431793,00000188,false,Rx,0,6,C1,FF,09,00,F4,03,00,00
1756490742431934,00000288,false,Rx,0,6,00,00,00,00,00,00,00,00
1756490742432050,00000488,false,Rx,0,8,08,27,55,00,55,01,8A,00
1756490742432867,00000394,false,Rx,0,6,65,05,DD,01,28,01,00,00
1756490742432961,00000294,false,Rx,0,4,C6,A1,C4,FF,00,00,00,00
1756490742433056,00000714,false,Rx,0,1,05,00,00,00,00,00,00,00
1756490742433154,00000734,false,Rx,0,8,03,6F,12,03,3B,A1,C4,05
1756490742433251,00000193,false,Rx,0,6,14,00,0B,00,04,00,00,00
1756490742433348,00000194,false,Rx,0,6,14,00,FC,FF,01,00,00,00
1756490742434230,00000213,false,Rx,0,4,08,00,00,00,00,00,00,00
1756490742434323,00000214,false,Rx,0,4,08,00,00,00,00,00,00,00
1756490742442026,00000188,false,Rx,0,6,BF,FF,0E,00,ED,03,00,00
1756490742442814,00000288,false,Rx,0,6,00,00,00,00,00,00,00,00
1756490742442929,00000194,false,Rx,0,6,14,00,F9,FF,01,00,00,00
1756490742443050,00000488,false,Rx,0,8,08,27,55,00,55,01,8A,00
1756490742443149,00000193,false,Rx,0,6,14,00,F1,FF,00,00,00,00
1756490742444135,00000213,false,Rx,0,4,08,00,00,00,00,00,00,00
1756490742444233,00000214,false,Rx,0,4,08,00,00,00,00,00,00,00
1756490742452868,00000188,false,Rx,0,6,C1,FF,15,00,E8,03,00,00
1756490742452973,00000181,false,Rx,0,8,68,10,00,E9,02,00,00,00
1756490742453069,00000194,false,Rx,0,6,14,00,F9,FF,01,00,00,00
1756490742453165,00000288,false,Rx,0,6,00,00,00,00,00,00,00,00
1756490742453262,00000393,false,Rx,0,6,15,01,D5,01,0F,01,00,00
1756490742453359,00000293,false,Rx,0,4,F8,A2,00,00,00,00,00,00
1756490742453478,00000488,false,Rx,0,8,08,27,55,00,55,01,8A,00
1756490742453580,00000713,false,Rx,0,1,05,00,00,00,00,00,00,00
1756490742453675,00000733,false,Rx,0,8,03,6F,12,03,3B,A2,00,05
1756490742453772,00000193,false,Rx,0,6,14,00,F9,FF,FC,FF,00,00
1756490742454093,00000213,false,Rx,0,4,08,00,00,00,00,00,00,00
1756490742454190,00000214,false,Rx,0,4,08,00,00,00,00,00,00,00
1756490742462690,00000193,false,Rx,0,6,14,00,FB,FF,FD,FF,00,00
1756490742462871,00000194,false,Rx,0,6,14,00,FD,FF,01,00,00,00
1756490742463212,00000188,false,Rx,0,6,C7,FF,10,00,FA,03,00,00
1756490742463327,00000288,false,Rx,0,6,00,00,00,00,00,00,00,00
1756490742463442,00000488,false,Rx,0,8,08,27,55,00,55,01,8A,00
1756490742465099,00000213,false,Rx,0,4,08,00,00,00,00,00,00,00
1756490742465195,00000214,false,Rx,0,4,08,00,00,00,00,00,00,00
1756490742470960,00000710,false,Rx,0,1,7F,00,00,00,00,00,00,00
1756490742472510,00000193,false,Rx,0,6,14,00,04,00,FC,FF,00,00
1756490742472864,00000194,false,Rx,0,6,14,00,FE,FF,01,00,00,00
1756490742473430,00000188,false,Rx,0,6,B8,FF,1A,00,D5,03,00,00
1756490742473543,00000288,false,Rx,0,6,01,00,00,00,00,00,00,00
1756490742473661,00000488,false,Rx,0,8,08,27,55,00,54,01,8A,00
1756490742475101,00000213,false,Rx,0,4,08,00,00,00,00,00,00,00
1756490742475198,00000214,false,Rx,0,4,08,00,00,00,00,00,00,00
1756490742482355,00000193,false,Rx,0,6,14,00,F4,FF,03,00,00,00
1756490742482892,00000194,false,Rx,0,6,14,00,FA,FF,01,00,00,00
1756490742483598,00000188,false,Rx,0,6,BA,FF,15,00,DF,03,00,00
1756490742483744,00000288,false,Rx,0,6,00,00,00,00,00,00,00,00
1756490742483857,00000488,false,Rx,0,8,08,27,55,00,54,01,8A,00
1756490742485112,00000213,false,Rx,0,4,08,00,00,00,00,00,00,00
1756490742485204,00000214,false,Rx,0,4,08,00,00,00,00,00,00,00
1756490742492174,00000193,false,Rx,0,6,14,00,01,00,FB,FF,00,00
1756490742492860,00000181,false,Rx,0,8,04,10,00,E9,02,00,00,00
1756490742492980,00000194,false,Rx,0,6,14,00,FB,FF,FF,FF,00,00
1756490742493792,00000188,false,Rx,0,6,C0,FF,13,00,05,04,00,00
1756490742493937,00000288,false,Rx,0,6,00,00,00,00,00,00,00,00
1756490742494055,00000488,false,Rx,0,8,08,27,55,00,54,01,8A,00
1756490742494740,00000701,false,Rx,0,1,05,00,00,00,00,00,00,00
1756490742495044,00000213,false,Rx,0,4,08,00,00,00,00,00,00,00
1756490742495141,00000214,false,Rx,0,4,08,00,00,00,00,00,00,00
1756490742501994,00000193,false,Rx,0,6,14,00,0C,00,FE,FF,00,00
1756490742502868,00000194,false,Rx,0,6,14,00,FA,FF,FE,FF,00,00
1756490742503991,00000188,false,Rx,0,6,B8,FF,11,00,E4,03,00,00
1756490742504136,00000288,false,Rx,0,6,00,00,00,00,00,00,00,00
1756490742504253,00000488,false,Rx,0,8,08,27,56,00,54,01,8A,00
1756490742506014,00000213,false,Rx,0,4,08,00,00,00,00,00,00,00
1756490742506109,00000214,false,Rx,0,4,08,00,00,00,00,00,00,00
1756490742511817,00000193,false,Rx,0,6,14,00,03,00,FD,FF,00,00
1756490742512867,00000194,false,Rx,0,6,14,00,FA,FF,00,00,00,00
1756490742514189,00000188,false,Rx,0,6,B0,FF,17,00,D2,03,00,00
1756490742514335,00000288,false,Rx,0,6,FF,FF,00,00,00,00,00,00
1756490742514449,00000488,false,Rx,0,8,08,27,56,00,54,01,8A,00
1756490742515052,00000190,false,Rx,0,8,00,C9,C9,C9,C9,C9,C9,C9
1756490742515180,00000190,false,Rx,0,8,07,C9,C9,C9,C9,C9,C9,C9
1756490742515292,00000190,false,Rx,0,8,15,C9,C9,C9,C9,C9,C9,C9
1756490742515407,00000190,false,Rx,0,8,1C,C9,C8,C9,C9,C9,C9,C9
1756490742515503,00000190,false,Rx,0,8,23,C9,C9,C8,C9,C9,C9,C9
1756490742515600,00000190,false,Rx,0,8,0E,C9,C8,C9,C9,C9,C9,C9
1756490742515716,00000190,false,Rx,0,8,2A,C9,C9,C8,C9,C9,C9,C9
1756490742515832,00000190,false,Rx,0,8,31,C9,C9,C9,C9,C9,C9,C9
1756490742515948,00000190,false,Rx,0,8,3F,C9,C9,C9,C9,C9,C9,C9
1756490742516068,00000190,false,Rx,0,8,46,C9,C9,C9,C9,C9,C9,C9
1756490742516188,00000190,false,Rx,0,8,38,C9,C9,C9,C8,C9,C9,C7
1756490742516301,00000190,false,Rx,0,8,4D,C9,C9,C9,C9,C9,C9,C9
1756490742516417,00000190,false,Rx,0,8,54,C9,C9,C9,C9,C9,C9,C9
1756490742516533,00000190,false,Rx,0,8,62,C9,C7,C9,C9,C9,C9,C9
1756490742516659,00000190,false,Rx,0,8,5B,C9,C9,C9,C9,C9,C9,C9
1756490742516755,00000213,false,Rx,0,4,08,00,00,00,00,00,00,00
1756490742516852,00000214,false,Rx,0,4,08,00,00,00,00,00,00,00
1756490742520154,00000390,false,Rx,0,8,00,3F,3F,3F,3F,3F,3F,3F
1756490742520263,00000390,false,Rx,0,8,07,3F,3E,3E,3E,3E,3E,3E
1756490742520380,00000390,false,Rx,0,8,15,3E,3E,3E,40,40,40,40
1756490742520494,00000390,false,Rx,0,8,1C,40,40,40,40,3D,3D,3D
1756490742520610,00000390,false,Rx,0,8,23,3D,3D,3D,3D,3D,3D,3D
1756490742520730,00000390,false,Rx,0,8,2A,3D,3D,3D,3D,3D,3D,3D
1756490742520847,00000390,false,Rx,0,8,0E,3E,3E,3E,3E,3E,3E,3E
1756490742520963,00000390,false,Rx,0,8,31,3D,3D,3D,3D,3D,3D,3D
1756490742521078,00000390,false,Rx,0,8,38,13,13,13,13,13,13,13
1756490742521194,00000390,false,Rx,0,8,46,3D,3D,3D,3D,3D,3D,3D
1756490742521310,00000390,false,Rx,0,8,4D,3D,3D,3D,3D,3D,3D,3D
1756490742521426,00000390,false,Rx,0,8,3F,13,3D,3D,3D,3D,3D,3D
1756490742521523,00000390,false,Rx,0,8,54,3D,3D,3D,3D,3D,3D,3D
1756490742521622,00000390,false,Rx,0,8,5B,3D,3D,3D,3D,3D,3D,3D
1756490742521738,00000193,false,Rx,0,6,14,00,02,00,02,00,00,00
1756490742521855,00000390,false,Rx,0,8,62,3D,3D,3D,3D,3D,3D,3D
1756490742521975,00000390,false,Rx,0,8,70,3C,3C,3C,3C,3C,3C,3C
1756490742522089,00000390,false,Rx,0,8,77,3C,3C,3C,3C,3C,3C,3C
1756490742522206,00000390,false,Rx,0,8,85,13,13,13,3D,3D,3D,3D
1756490742522323,00000390,false,Rx,0,8,8C,3D,3D,3D,3D,3D,3D,3D
1756490742522439,00000390,false,Rx,0,8,7E,3C,3C,13,13,13,13,13
1756490742522538,00000390,false,Rx,0,8,93,3D,3D,3D,3D,3D,3D,3D
1756490742522634,00000390,false,Rx,0,8,9A,3D,3D,3D,3D,3D,3D,3D
1756490742522756,00000390,false,Rx,0,8,A8,3D,3D,3D,3D,3D,3D,3D
1756490742522871,00000194,false,Rx,0,6,14,00,FC,FF,FE,FF,00,00
1756490742522988,00000390,false,Rx,0,8,AF,3D,13,13,13,13,13,13
1756490742523108,00000390,false,Rx,0,8,B6,13,13,3D,3D,3D,3D,3D
1756490742523209,00000390,false,Rx,0,8,C4,3D,3D,3D,3D,3D,3D,3D
1756490742523304,00000390,false,Rx,0,8,BD,3D,3D,3D,3D,3D,3D,3D
1756490742523419,00000390,false,Rx,0,8,CB,3D,3D,3D,3D,3D,3D,3D
1756490742523536,00000390,false,Rx,0,8,D2,3D,3D,3D,3D,3D,3D,3D
1756490742523652,00000390,false,Rx,0,8,D9,3D,3D,3D,3D,3D,3D,3D
1756490742524391,00000188,false,Rx,0,6,C2,FF,0B,00,EE,03,00,00
1756490742524536,00000288,false,Rx,0,6,FF,FF,FF,FF,00,00,00,00
1756490742524653,00000488,false,Rx,0,8,08,27,55,00,54,01,8A,00
1756490742525852,00000213,false,Rx,0,4,08,00,00,00,00,00,00,00
1756490742525947,00000214,false,Rx,0,4,08,00,00,00,00,00,00,00
1756490742531474,00000193,false,Rx,0,6,14,00,00,00,FA,FF,00,00
1756490742532866,00000394,false,Rx,0,6,65,05,DD,01,1F,01,00,00
1756490742532959,00000294,false,Rx,0,4,26,A2,D4,FF,00,00,00,00
1756490742533056,00000714,false,Rx,0,1,05,00,00,00,00,00,00,00
1756490742533153,00000734,false,Rx,0,8,04,8F,C2,F5,3F,A2,D4,05
1756490742533248,00000194,false,Rx,0,6,14,00,F8,FF,01,00,00,00
1756490742535760,00000213,false,Rx,0,4,08,00,00,00,00,00,00,00
1756490742535840,00000188,false,Rx,0,6,C3,FF,0E,00,F6,03,00,00
1756490742535948,00000214,false,Rx,0,4,08,00,00,00,00,00,00,00
1756490742536040,00000288,false,Rx,0,6,FF,FF,00,00,00,00,00,00
1756490742536137,00000488,false,Rx,0,8,08,27,55,00,54,01,8A,00
1756490742541304,00000193,false,Rx,0,6,14,00,04,00,FF,FF,00,00
1756490742542870,00000194,false,Rx,0,6,14,00,FF,FF,FE,FF,00,00
1756490742545949,00000188,false,Rx,0,6,B7,FF,14,00,E0,03,00,00
1756490742546061,00000288,false,Rx,0,6,00,00,FE,FF,00,00,00,00
1756490742546185,00000488,false,Rx,0,8,08,27,55,00,54,01,8A,00
1756490742546789,00000213,false,Rx,0,4,08,00,00,00,00,00,00,00
1756490742546881,00000214,false,Rx,0,4,08,00,00,00,00,00,00,00
1756490742551125,00000393,false,Rx,0,6,17,01,D5,01,0F,01,00,00
1756490742551216,00000293,false,Rx,0,4,B3,A2,00,00,00,00,00,00
1756490742551315,00000713,false,Rx,0,1,05,00,00,00,00,00,00,00
1756490742551410,00000733,false,Rx,0,8,04,8F,C2,F5,3F,A2,00,05
1756490742551506,00000193,false,Rx,0,6,14,00,F9,FF,01,00,00,00
1756490742552868,00000194,false,Rx,0,6,14,00,F7,FF,00,00,00,00
1756490742553394,00000181,false,Rx,0,8,68,10,00,E9,02,00,00,00
1756490742556236,00000188,false,Rx,0,6,C0,FF,0D,00,F7,03,00,00
1756490742556347,00000288,false,Rx,0,6,00,00,FE,FF,00,00,00,00
1756490742556462,00000488,false,Rx,0,8,08,27,55,00,54,01,8A,00
1756490742556695,00000213,false,Rx,0,4,08,00,00,00,00,00,00,00
1756490742556795,00000214,false,Rx,0,4,08,00,00,00,00,00,00,00
1756490742560955,00000193,false,Rx,0,6,14,00,08,00,02,00,00,00
1756490742562867,00000194,false,Rx,0,6,14,00,FB,FF,00,00,00,00
1756490742566314,00000188,false,Rx,0,6,B6,FF,14,00,E8,03,00,00
1756490742566425,00000288,false,Rx,0,6,00,00,FF,FF,00,00,00,00
1756490742566540,00000488,false,Rx,0,8,08,27,55,00,54,01,8A,00
1756490742566695,00000213,false,Rx,0,4,08,00,00,00,00,00,00,00
1756490742566791,00000214,false,Rx,0,4,08,00,00,00,00,00,00,00
1756490742570779,00000193,false,Rx,0,6,14,00,08,00,01,00,00,00
1756490742570992,00000710,false,Rx,0,1,7F,00,00,00,00,00,00,00
1756490742572865,00000194,false,Rx,0,6,14,00,FC,FF,01,00,00,00
1756490742573016,00000290,false,Rx,0,7,01,00,01,00,00,00,00,00
1756490742573111,00000490,false,Rx,0,5,64,00,00,00,00,00,00,00
1756490742573433,00000181,false,Rx,0,8,04,10,00,E9,02,00,00,00
1756490742576517,00000188,false,Rx,0,6,B2,FF,17,00,D5,03,00,00
1756490742576629,00000288,false,Rx,0,6,00,00,00,00,00,00,00,00
1756490742576724,00000213,false,Rx,0,4,08,00,00,00,00,00,00,00
1756490742576821,00000214,false,Rx,0,4,08,00,00,00,00,00,00,00
1756490742576993,00000488,false,Rx,0,8,08,27,55,00,54,01,8A,00
1756490742580644,00000193,false,Rx,0,6,14,00,06,00,FD,FF,00,00
1756490742582870,00000194,false,Rx,0,6,14,00,FC,FF,FF,FF,00,00
1756490742586726,00000188,false,Rx,0,6,C2,FF,0D,00,FD,03,00,00
1756490742586836,00000288,false,Rx,0,6,01,00,00,00,00,00,00,00
1756490742586958,00000488,false,Rx,0,8,08,27,55,00,54,01,8A,00
1756490742587709,00000213,false,Rx,0,4,08,00,00,00,00,00,00,00
1756490742587802,00000214,false,Rx,0,4,08,00,00,00,00,00,00,00
1756490742590438,00000193,false,Rx,0,6,14,00,05,00,04,00,00,00
1756490742592869,00000194,false,Rx,0,6,14,00,FB,FF,00,00,00,00
1756490742594923,00000701,false,Rx,0,1,05,00,00,00,00,00,00,00
1756490742596916,00000188,false,Rx,0,6,B5,FF,11,00,E5,03,00,00
1756490742597026,00000288,false,Rx,0,6,00,00,00,00,00,00,00,00
1756490742597141,00000488,false,Rx,0,8,08,27,55,00,54,01,8A,00
1756490742597609,00000213,false,Rx,0,4,08,00,00,00,00,00,00,00
1756490742597704,00000214,false,Rx,0,4,08,00,00,00,00,00,00,00
1756490742600264,00000193,false,Rx,0,6,14,00,F8,FF,01,00,00,00
1756490742602864,00000194,false,Rx,0,6,14,00,FC,FF,03,00,00,00
1756490742603109,00000181,false,Rx,0,8,68,10,00,E9,02,00,00,00
1756490742607467,00000213,false,Rx,0,4,08,00,00,00,00,00,00,00
1756490742607558,00000214,false,Rx,0,4,08,00,00,00,00,00,00,00
1756490742607787,00000188,false,Rx,0,6,B0,FF,15,00,CC,03,00,00
1756490742607903,00000288,false,Rx,0,6,00,00,00,00,00,00,00,00
1756490742608020,00000488,false,Rx,0,8,08,27,55,00,54,01,8A,00
1756490742610091,00000193,false,Rx,0,6,14,00,FA,FF,02,00,00,00
1756490742612864,00000194,false,Rx,0,6,14,00,F8,FF,02,00,00,00
1756490742616303,00000181,false,Rx,0,8,04,10,00,E9,02,00,00,00
1756490742617362,00000213,false,Rx,0,4,08,00,00,00,00,00,00,00
1756490742617455,00000214,false,Rx,0,4,08,00,00,00,00,00,00,00
1756490742617896,00000188,false,Rx,0,6,C6,FF,10,00,F7,03,00,00
1756490742618011,00000288,false,Rx,0,6,FE,FF,00,00,00,00,00,00
1756490742618128,00000488,false,Rx,0,8,08,27,55,00,54,01,8A,00
1756490742619925,00000193,false,Rx,0,6,14,00,0B,00,FD,FF,00,00
1756490742622868,00000194,false,Rx,0,6,14,00,FB,FF,00,00,00,00
1756490742628110,00000188,false,Rx,0,6,B7,FF,1C,00,D1,03,00,00
1756490742628221,00000288,false,Rx,0,6,FF,FF,FF,FF,00,00,00,00
1756490742628337,00000488,false,Rx,0,8,08,27,55,00,54,01,8A,00
1756490742628433,00000213,false,Rx,0,4,08,00,00,00,00,00,00,00
1756490742628530,00000214,false,Rx,0,4,08,00,00,00,00,00,00,00
1756490742629744,00000193,false,Rx,0,6,14,00,06,00,05,00,00,00
1756490742632861,00000394,false,Rx,0,6,69,05,DD,01,28,01,00,00
1756490742632953,00000294,false,Rx,0,4,5F,A2,87,FF,00,00,00,00
1756490742633050,00000714,false,Rx,0,1,05,00,00,00,00,00,00,00
1756490742633147,00000734,false,Rx,0,8,05,00,00,C0,3F,A2,87,05
1756490742633245,00000194,false,Rx,0,6,14,00,F9,FF,01,00,00,00
1756490742638306,00000213,false,Rx,0,4,08,00,00,00,00,00,00,00
1756490742638379,00000188,false,Rx,0,6,BE,FF,13,00,DD,03,00,00
1756490742638486,00000214,false,Rx,0,4,08,00,00,00,00,00,00,00
1756490742638581,00000288,false,Rx,0,6,00,00,FF,FF,00,00,00,00
1756490742638678,00000488,false,Rx,0,8,08,27,55,00,54,01,8A,00
1756490742639583,00000193,false,Rx,0,6,14,00,00,00,00,00,00,00
1756490742642867,00000194,false,Rx,0,6,14,00,FB,FF,01,00,00,00
1756490742648187,00000213,false,Rx,0,4,08,00,00,00,00,00,00,00
1756490742648277,00000214,false,Rx,0,4,08,00,00,00,00,00,00,00
1756490742648509,00000188,false,Rx,0,6,C6,FF,0F,00,FC,03,00,00
1756490742648622,00000288,false,Rx,0,6,00,00,00,00,00,00,00,00
1756490742648738,00000488,false,Rx,0,8,08,27,55,00,54,01,8A,00
1756490742649387,00000393,false,Rx,0,6,17,01,D5,01,0F,01,00,00
1756490742649485,00000293,false,Rx,0,4,79,A2,00,00,00,00,00,00
1756490742649587,00000713,false,Rx,0,1,05,00,00,00,00,00,00,00
1756490742649686,00000733,false,Rx,0,8,05,00,00,C0,3F,A2,00,05
1756490742649779,00000193,false,Rx,0,6,14,00,0C,00,FF,FF,00,00
1756490742652867,00000194,false,Rx,0,6,14,00,FB,FF,00,00,00,00
1756490742658708,00000188,false,Rx,0,6,C0,FF,11,00,E0,03,00,00
1756490742658821,00000288,false,Rx,0,6,00,00,00,00,00,00,00,00
1756490742658941,00000488,false,Rx,0,8,08,27,55,00,54,01,8A,00
1756490742659225,00000193,false,Rx,0,6,14,00,03,00,FF,FF,00,00
1756490742659321,00000213,false,Rx,0,4,08,00,00,00,00,00,00,00
1756490742659417,00000214,false,Rx,0,4,08,00,00,00,00,00,00,00
1756490742662862,00000194,false,Rx,0,6,14,00,FD,FF,01,00,00,00
1756490742668911,00000188,false,Rx,0,6,BA,FF,13,00,DB,03,00,00
1756490742669020,00000288,false,Rx,0,6,00,00,00,00,00,00,00,00
1756490742669116,00000193,false,Rx,0,6,14,00,E4,FF,00,00,00,00
1756490742669216,00000213,false,Rx,0,4,08,00,00,00,00,00,00,00
1756490742669314,00000214,false,Rx,0,4,08,00,00,00,00,00,00,00
1756490742669410,00000488,false,Rx,0,8,08,27,55,00,54,01,8A,00
1756490742672863,00000194,false,Rx,0,6,14,00,FC,FF,FF,FF,00,00
1756490742673541,00000181,false,Rx,0,8,04,10,00,E9,02,00,00,00
1756490742676923,00000710,false,Rx,0,1,7F,00,00,00,00,00,00,00
1756490742678912,00000193,false,Rx,0,6,14,00,F9,FF,01,00,00,00
1756490742679011,00000213,false,Rx,0,4,08,00,00,00,00,00,00,00
1756490742679122,00000188,false,Rx,0,6,C9,FF,0C,00,FC,03,00,00
1756490742679222,00000214,false,Rx,0,4,08,00,00,00,00,00,00,00
1756490742679320,00000288,false,Rx,0,6,00,00,00,00,00,00,00,00
1756490742679436,00000488,false,Rx,0,8,08,27,55,00,54,01,8A,00
1756490742682867,00000194,false,Rx,0,6,14,00,FA,FF,00,00,00,00
1756490742686747,00000181,false,Rx,0,8,68,10,00,E9,02,00,00,00
1756490742688713,00000193,false,Rx,0,6,14,00,07,00,FD,FF,00,00
1756490742688906,00000213,false,Rx,0,4,08,00,00,00,00,00,00,00
1756490742689005,00000214,false,Rx,0,4,08,00,00,00,00,00,00,00
1756490742689304,00000188,false,Rx,0,6,C4,FF,0E,00,E9,03,00,00
1756490742689418,00000288,false,Rx,0,6,00,00,00,00,00,00,00,00
1756490742689534,00000488,false,Rx,0,8,08,27,55,00,53,01,8A,00
1756490742692863,00000194,false,Rx,0,6,14,00,FD,FF,00,00,00,00
1756490742695198,00000701,false,Rx,0,1,05,00,00,00,00,00,00,00
1756490742698546,00000193,false,Rx,0,6,14,00,13,00,FF,FF,00,00
1756490742699509,00000188,false,Rx,0,6,BB,FF,13,00,CC,03,00,00
1756490742699622,00000288,false,Rx,0,6,FF,FF,01,00,00,00,00,00
1756490742699739,00000488,false,Rx,0,8,08,27,55,00,53,01,8A,00
1756490742699948,00000213,false,Rx,0,4,08,00,00,00,00,00,00,00
1756490742700045,00000214,false,Rx,0,4,08,00,00,00,00,00,00,00
1756490742702863,00000194,false,Rx,0,6,14,00,F9,FF,FF,FF,00,00
1756490742708375,00000193,false,Rx,0,6,14,00,05,00,FE,FF,00,00
1756490742709813,00000213,false,Rx,0,4,08,00,00,00,00,00,00,00
1756490742709912,00000214,false,Rx,0,4,08,00,00,00,00,00,00,00
1756490742710688,00000188,false,Rx,0,6,C1,FF,18,00,EA,03,00,00
1756490742710802,00000288,false,Rx,0,6,00,00,00,00,00,00,00,00
1756490742710919,00000488,false,Rx,0,8,08,27,55,00,53,01,8A,00
1756490742712869,00000194,false,Rx,0,6,14,00,FC,FF,FF,FF,00,00
1756490742713153,00000181,false,Rx,0,8,04,10,00,EA,02,00,00,00
1756490742718197,00000193,false,Rx,0,6,14,00,0C,00,03,00,00,00
1756490742719716,00000213,false,Rx,0,4,08,00,00,00,00,00,00,00
1756490742719809,00000214,false,Rx,0,4,08,00,00,00,00,00,00,00
1756490742720762,00000188,false,Rx,0,6,B8,FF,1D,00,D7,03,00,00
1756490742720873,00000288,false,Rx,0,6,00,00,00,00,00,00,00,00
1756490742720990,00000488,false,Rx,0,8,08,27,55,00,53,01,8A,00
1756490742722860,00000194,false,Rx,0,6,14,00,F8,FF,00,00,00,00
1756490742728063,00000193,false,Rx,0,6,14,00,09,00,FE,FF,00,00
1756490742730719,00000213,false,Rx,0,4,08,00,00,00,00,00,00,00
1756490742730813,00000214,false,Rx,0,4,08,00,00,00,00,00,00,00
1756490742730912,00000188,false,Rx,0,6,B7,FF,14,00,D7,03,00,00
1756490742731033,00000288,false,Rx,0,6,FF,FF,01,00,00,00,00,00
1756490742731149,00000488,false,Rx,0,8,08,27,55,00,53,01,8A,00
1756490742732861,00000394,false,Rx,0,6,69,05,DD,01,1F,01,00,00
1756490742732952,00000294,false,Rx,0,4,38,A2,A7,FF,00,00,00,00
1756490742733048,00000714,false,Rx,0,1,05,00,00,00,00,00,00,00
1756490742733147,00000734,false,Rx,0,8,06,6F,12,03,3B,A2,A7,05
1756490742733248,00000194,false,Rx,0,6,14,00,FB,FF,00,00,00,00
1756490742737899,00000193,false,Rx,0,6,14,00,04,00,FF,FF,00,00
1756490742740635,00000213,false,Rx,0,4,08,00,00,00,00,00,00,00
1756490742740719,00000214,false,Rx,0,4,08,00,00,00,00,00,00,00
1756490742741089,00000188,false,Rx,0,6,C4,FF,11,00,FD,03,00,00
1756490742741238,00000288,false,Rx,0,6,01,00,00,00,00,00,00,00
1756490742741355,00000488,false,Rx,0,8,08,27,55,00,53,01,8A,00
1756490742742865,00000194,false,Rx,0,6,14,00,FB,FF,FF,FF,00,00
1756490742747678,00000393,false,Rx,0,6,17,01,D5,01,0F,01,00,00
1756490742747768,00000293,false,Rx,0,4,D4,A2,00,00,00,00,00,00
1756490742747863,00000713,false,Rx,0,1,05,00,00,00,00,00,00,00
1756490742747961,00000733,false,Rx,0,8,06,6F,12,03,3B,A2,00,05
1756490742748056,00000193,false,Rx,0,6,14,00,0B,00,02,00,00,00
1756490742750524,00000213,false,Rx,0,4,08,00,00,00,00,00,00,00
1756490742750617,00000214,false,Rx,0,4,08,00,00,00,00,00,00,00
1756490742751325,00000188,false,Rx,0,6,B7,FF,12,00,E3,03,00,00
1756490742751434,00000288,false,Rx,0,6,01,00,00,00,00,00,00,00
1756490742751551,00000488,false,Rx,0,8,08,27,55,00,53,01,8A,00
1756490742752861,00000194,false,Rx,0,6,14,00,FB,FF,00,00,00,00
1756490742757504,00000193,false,Rx,0,6,14,00,01,00,00,00,00,00
1756490742760427,00000213,false,Rx,0,4,08,00,00,00,00,00,00,00
1756490742760530,00000214,false,Rx,0,4,08,00,00,00,00,00,00,00
1756490742761504,00000188,false,Rx,0,6,B2,FF,0B,00,D3,03,00,00
1756490742761639,00000288,false,Rx,0,6,00,00,00,00,00,00,00,00
1756490742761755,00000488,false,Rx,0,8,08,27,55,00,53,01,8A,00
1756490742762856,00000194,false,Rx,0,6,14,00,F8,FF,01,00,00,00
1756490742767328,00000193,false,Rx,0,6,14,00,0B,00,03,00,00,00
1756490742771431,00000213,false,Rx,0,4,08,00,00,00,00,00,00,00
1756490742771524,00000214,false,Rx,0,4,08,00,00,00,00,00,00,00
1756490742771688,00000188,false,Rx,0,6,BD,FF,11,00,F9,03,00,00
1756490742771844,00000288,false,Rx,0,6,00,00,00,00,00,00,00,00
1756490742771958,00000488,false,Rx,0,8,08,27,55,00,53,01,8A,00
1756490742772851,00000194,false,Rx,0,6,14,00,FB,FF,00,00,00,00
1756490742772972,00000290,false,Rx,0,7,01,00,01,00,00,00,00,00
1756490742773090,00000490,false,Rx,0,5,64,00,00,00,00,00,00,00
1756490742777162,00000193,false,Rx,0,6,14,00,08,00,FF,FF,00,00
1756490742781336,00000213,false,Rx,0,4,08,00,00,00,00,00,00,00
1756490742781431,00000214,false,Rx,0,4,08,00,00,00,00,00,00,00
1756490742781891,00000188,false,Rx,0,6,BA,FF,09,00,F9,03,00,00
1756490742782038,00000288,false,Rx,0,6,FF,FF,00,00,00,00,00,00
1756490742782155,00000488,false,Rx,0,8,08,27,55,00,54,01,8A,00
1756490742782856,00000194,false,Rx,0,6,14,00,F9,FF,00,00,00,00
1756490742784437,00000710,false,Rx,0,1,7F,00,00,00,00,00,00,00
1756490742786987,00000193,false,Rx,0,6,14,00,F7,FF,06,00,00,00
1756490742791241,00000213,false,Rx,0,4,08,00,00,00,00,00,00,00
1756490742791333,00000214,false,Rx,0,4,08,00,00,00,00,00,00,00
1756490742792096,00000188,false,Rx,0,6,AD,FF,1A,00,CA,03,00,00
1756490742792856,00000194,false,Rx,0,6,14,00,FB,FF,00,00,00,00
1756490742792970,00000288,false,Rx,0,6,00,00,00,00,00,00,00,00
1756490742793087,00000488,false,Rx,0,8,08,27,55,00,54,01,8A,00
1756490742795410,00000701,false,Rx,0,1,05,00,00,00,00,00,00,00
1756490742796807,00000193,false,Rx,0,6,14,00,FF,FF,01,00,00,00
1756490742801158,00000213,false,Rx,0,4,08,00,00,00,00,00,00,00
1756490742801247,00000214,false,Rx,0,4,08,00,00,00,00,00,00,00
1756490742802856,00000194,false,Rx,0,6,14,00,FC,FF,01,00,00,00
1756490742802967,00000188,false,Rx,0,6,C3,FF,12,00,03,04,00,00
1756490742803085,00000288,false,Rx,0,6,00,00,00,00,00,00,00,00
1756490742803220,00000488,false,Rx,0,8,08,27,55,00,54,01,8A,00
1756490742806643,00000193,false,Rx,0,6,14,00,0A,00,01,00,00,00
1756490742812255,00000213,false,Rx,0,4,08,00,00,00,00,00,00,00
1756490742812349,00000214,false,Rx,0,4,08,00,00,00,00,00,00,00
1756490742812855,00000194,false,Rx,0,6,14,00,F9,FF,01,00,00,00
1756490742813229,00000188,false,Rx,0,6,B7,FF,0F,00,D9,03,00,00
1756490742813345,00000288,false,Rx,0,6,00,00,00,00,00,00,00,00
1756490742813462,00000488,false,Rx,0,8,08,27,55,00,54,01,8A,00
1756490742816468,00000193,false,Rx,0,6,14,00,0B,00,FE,FF,00,00
1756490742822151,00000213,false,Rx,0,4,08,00,00,00,00,00,00,00
1756490742822245,00000214,false,Rx,0,4,08,00,00,00,00,00,00,00
1756490742822856,00000194,false,Rx,0,6,14,00,FC,FF,00,00,00,00
1756490742823313,00000188,false,Rx,0,6,B8,FF,18,00,DA,03,00,00
1756490742823427,00000288,false,Rx,0,6,00,00,FF,FF,00,00,00,00
1756490742823544,00000488,false,Rx,0,8,08,27,55,00,54,01,8A,00
1756490742826292,00000193,false,Rx,0,6,14,00,02,00,05,00,00,00
1756490742832056,00000213,false,Rx,0,4,08,00,00,00,00,00,00,00
1756490742832152,00000214,false,Rx,0,4,08,00,00,00,00,00,00,00
1756490742832843,00000394,false,Rx,0,6,69,05,DD,01,16,01,00,00
1756490742832940,00000294,false,Rx,0,4,D1,A1,77,FF,00,00,00,00
1756490742833038,00000714,false,Rx,0,1,05,00,00,00,00,00,00,00
1756490742833136,00000734,false,Rx,0,8,07,00,00,80,3F,A1,77,05
1756490742833238,00000194,false,Rx,0,6,14,00,FB,FF,01,00,00,00
1756490742833511,00000188,false,Rx,0,6,C5,FF,0E,00,F8,03,00,00
1756490742833627,00000288,false,Rx,0,6,01,00,00,00,00,00,00,00
1756490742833742,00000488,false,Rx,0,8,08,27,55,00,54,01,8A,00
1756490742836145,00000193,false,Rx,0,6,14,00,FE,FF,01,00,00,00
1756490742842862,00000194,false,Rx,0,6,14,00,FA,FF,01,00,00,00
1756490742843068,00000213,false,Rx,0,4,08,00,00,00,00,00,00,00
1756490742843193,00000214,false,Rx,0,4,08,00,00,00,00,00,00,00
1756490742843726,00000188,false,Rx,0,6,BB,FF,0F,00,E4,03,00,00
1756490742843839,00000288,false,Rx,0,6,00,00,00,00,00,00,00,00
1756490742843955,00000488,false,Rx,0,8,08,27,55,00,54,01,8A,00
1756490742845947,00000393,false,Rx,0,6,17,01,D5,01,0F,01,00,00
1756490742846044,00000293,false,Rx,0,4,5A,A2,00,00,00,00,00,00
1756490742846139,00000713,false,Rx,0,1,05,00,00,00,00,00,00,00
1756490742846236,00000733,false,Rx,0,8,07,00,00,80,3F,A2,00,05
1756490742846332,00000193,false,Rx,0,6,14,00,FC,FF,FF,FF,00,00
1756490742852861,00000194,false,Rx,0,6,14,00,FD,FF,03,00,00,00
1756490742852978,00000213,false,Rx,0,4,08,00,00,00,00,00,00,00
1756490742853092,00000214,false,Rx,0,4,08,00,00,00,00,00,00,00
1756490742853893,00000188,false,Rx,0,6,B5,FF,14,00,D0,03,00,00
1756490742854044,00000288,false,Rx,0,6,00,00,00,00,00,00,00,00
1756490742854162,00000488,false,Rx,0,8,08,27,55,00,54,01,8A,00
1756490742855780,00000193,false,Rx,0,6,14,00,07,00,00,00,00,00
1756490742862855,00000194,false,Rx,0,6,14,00,FD,FF,FF,FF,00,00
1756490742862948,00000213,false,Rx,0,4,08,00,00,00,00,00,00,00
1756490742863042,00000214,false,Rx,0,4,08,00,00,00,00,00,00,00
1756490742864109,00000188,false,Rx,0,6,C3,FF,0B,00,F0,03,00,00
1756490742864241,00000288,false,Rx,0,6,FF,FF,00,00,00,00,00,00
1756490742864356,00000488,false,Rx,0,8,08,27,55,00,54,01,8A,00
1756490742865604,00000193,false,Rx,0,6,14,00,03,00,FE,FF,00,00
1756490742872775,00000213,false,Rx,0,4,08,00,00,00,00,00,00,00
1756490742872887,00000194,false,Rx,0,6,14,00,FD,FF,00,00,00,00
1756490742872982,00000214,false,Rx,0,4,08,00,00,00,00,00,00,00
1756490742874300,00000188,false,Rx,0,6,C6,FF,10,00,FE,03,00,00
1756490742874440,00000288,false,Rx,0,6,00,00,00,00,00,00,00,00
1756490742874554,00000488,false,Rx,0,8,08,27,55,00,53,01,8A,00
1756490742875433,00000193,false,Rx,0,6,14,00,FB,FF,04,00,00,00
1756490742882883,00000194,false,Rx,0,6,14,00,FC,FF,FF,FF,00,00
1756490742883806,00000213,false,Rx,0,4,08,00,00,00,00,00,00,00
1756490742883896,00000214,false,Rx,0,4,08,00,00,00,00,00,00,00
1756490742884500,00000188,false,Rx,0,6,B9,FF,11,00,CC,03,00,00
1756490742884639,00000288,false,Rx,0,6,00,00,01,00,00,00,00,00
1756490742884757,00000488,false,Rx,0,8,08,27,55,00,54,01,8A,00
1756490742885249,00000193,false,Rx,0,6,14,00,00,00,FA,FF,00,00
1756490742892704,00000710,false,Rx,0,1,7F,00,00,00,00,00,00,00
1756490742892845,00000194,false,Rx,0,6,14,00,F9,FF,FE,FF,00,00
1756490742893703,00000213,false,Rx,0,4,08,00,00,00,00,00,00,00
1756490742893798,00000214,false,Rx,0,4,08,00,00,00,00,00,00,00
1756490742894693,00000188,false,Rx,0,6,B8,FF,18,00,D6,03,00,00
1756490742895079,00000193,false,Rx,0,6,14,00,04,00,FF,FF,00,00
1756490742895696,00000701,false,Rx,0,1,05,00,00,00,00,00,00,00
1756490742896054,00000288,false,Rx,0,6,00,00,00,00,00,00,00,00
1756490742896161,00000488,false,Rx,0,8,08,27,55,00,53,01,8A,00
1756490742902887,00000194,false,Rx,0,6,14,00,FA,FF,FF,FF,00,00
1756490742903612,00000213,false,Rx,0,4,08,00,00,00,00,00,00,00
1756490742903707,00000214,false,Rx,0,4,08,00,00,00,00,00,00,00
1756490742904916,00000193,false,Rx,0,6,14,00,02,00,FF,FF,00,00
1756490742906056,00000188,false,Rx,0,6,BC,FF,18,00,DF,03,00,00
1756490742906168,00000288,false,Rx,0,6,00,00,01,00,00,00,00,00
1756490742906339,00000488,false,Rx,0,8,08,27,55,00,53,01,8A,00
1756490742913121,00000194,false,Rx,0,6,14,00,F9,FF,FE,FF,00,00
1756490742913699,00000213,false,Rx,0,4,08,00,00,00,00,00,00,00
1756490742913939,00000214,false,Rx,0,4,08,00,00,00,00,00,00,00
1756490742914989,00000193,false,Rx,0,6,14,00,00,00,00,00,00,00
1756490742916633,00000188,false,Rx,0,6,B6,FF,15,00,CD,03,00,00
1756490742916850,00000288,false,Rx,0,6,00,00,01,00,00,00,00,00
1756490742917009,00000004,false,Rx,0,8,00,01,00,00,00,00,00,00
1756490742917161,00000488,false,Rx,0,8,08,27,55,00,54,01,8A,00
1756490742923062,00000194,false,Rx,0,6,14,00,FC,FF,00,00,00,00
1756490742924695,00000213,false,Rx,0,4,08,00,00,00,00,00,00,00
1756490742924911,00000193,false,Rx,0,6,14,00,05,00,FA,FF,00,00
1756490742925064,00000004,false,Rx,0,8,00,01,00,00,00,00,00,00
1756490742925212,00000214,false,Rx,0,4,08,00,00,00,00,00,00,00
1756490742926817,00000188,false,Rx,0,6,C1,FF,12,00,F7,03,00,00
1756490742927034,00000288,false,Rx,0,6,00,00,01,00,00,00,00,00
1756490742927332,00000488,false,Rx,0,8,08,27,55,00,54,01,8A,00
1756490742933064,00000394,false,Rx,0,6,69,05,DD,01,28,01,00,00
