Time Stamp,ID,Extended,Dir,Bus,LEN,D1,D2,D3,D4,D5,D6,D7,D8,D9,D10,D11,D12
1756490934172184,00000281,false,Rx,0,1,60,00,00,00,00,00,00,00
1756490934172925,00000181,false,Rx,0,8,04,10,00,E9,03,0A,06,07
1756490934173940,00000213,false,Rx,0,4,08,00,00,00,00,00,00,00
1756490934174030,00000214,false,Rx,0,4,08,00,00,00,00,00,00,00
1756490934175622,00000193,false,Rx,0,6,14,00,07,00,03,00,00,00
1756490934176994,00000194,false,Rx,0,6,14,00,06,00,FE,FF,00,00
1756490934177521,00000188,false,Rx,0,6,B8,FF,0E,00,D2,03,00,00
1756490934177668,00000288,false,Rx,0,6,00,00,00,00,00,00,00,00
1756490934177787,00000488,false,Rx,0,8,08,27,55,00,54,01,88,00
1756490934184996,00000213,false,Rx,0,4,08,00,00,00,00,00,00,00
1756490934185097,00000214,false,Rx,0,4,08,00,00,00,00,00,00,00
1756490934185444,00000193,false,Rx,0,6,14,00,FD,FF,04,00,00,00
1756490934186079,00000181,false,Rx,0,8,04,10,00,E9,02,0A,06,07
1756490934186821,00000194,false,Rx,0,6,14,00,FD,FF,03,00,00,00
1756490934187731,00000188,false,Rx,0,6,B9,FF,18,00,DB,03,00,00
1756490934187871,00000288,false,Rx,0,6,00,00,00,00,00,00,00,00
1756490934187990,00000488,false,Rx,0,8,08,27,55,00,54,01,88,00
1756490934194846,00000213,false,Rx,0,4,08,00,00,00,00,00,00,00
1756490934194937,00000214,false,Rx,0,4,08,00,00,00,00,00,00,00
1756490934195256,00000193,false,Rx,0,6,14,00,FB,FF,FF,FF,00,00
1756490934196644,00000194,false,Rx,0,6,14,00,00,00,03,00,00,00
1756490934197925,00000188,false,Rx,0,6,C6,FF,0F,00,F7,03,00,00
1756490934198078,00000288,false,Rx,0,6,00,00,00,00,00,00,00,00
1756490934198195,00000488,false,Rx,0,8,08,27,55,00,54,01,87,00
1756490934199328,00000181,false,Rx,0,8,68,10,00,E9,02,09,06,06
1756490934204860,00000213,false,Rx,0,4,08,00,00,00,00,00,00,00
1756490934204937,00000214,false,Rx,0,4,08,00,00,00,00,00,00,00
1756490934205118,00000193,false,Rx,0,6,14,00,09,00,02,00,00,00
1756490934206478,00000394,false,Rx,0,6,65,05,DD,01,28,01,00,00
1756490934206567,00000294,false,Rx,0,4,02,A2,77,FF,00,00,00,00
1756490934206663,00000714,false,Rx,0,1,05,00,00,00,00,00,00,00
1756490934206760,00000734,false,Rx,0,8,04,8F,C2,F5,3F,A2,77,05
1756490934206858,00000194,false,Rx,0,6,14,00,09,00,00,00,00,00
1756490934208131,00000188,false,Rx,0,6,BF,FF,15,00,E1,03,00,00
1756490934208269,00000288,false,Rx,0,6,00,00,01,00,00,00,00,00
1756490934208385,00000488,false,Rx,0,8,08,27,55,00,54,01,87,00
1756490934212588,00000181,false,Rx,0,8,04,10,00,E9,02,09,06,06
1756490934214751,00000213,false,Rx,0,4,08,00,00,00,00,00,00,00
1756490934214845,00000214,false,Rx,0,4,08,00,00,00,00,00,00,00
1756490934214941,00000193,false,Rx,0,6,14,00,0D,00,01,00,00,00
1756490934216300,00000194,false,Rx,0,6,14,00,FE,FF,06,00,00,00
1756490934216950,00000190,false,Rx,0,8,00,C9,C9,C9,C9,C9,C9,C9
1756490934217063,00000190,false,Rx,0,8,07,C9,C9,C9,C9,C9,C9,C9
1756490934217182,00000190,false,Rx,0,8,0E,C9,C8,C9,C9,C9,C9,C9
1756490934218326,00000188,false,Rx,0,6,B6,FF,1D,00,CC,03,00,00
1756490934218469,00000288,false,Rx,0,6,00,00,00,00,00,00,00,00
1756490934218585,00000488,false,Rx,0,8,08,27,55,00,54,01,87,00
1756490934224783,00000193,false,Rx,0,6,14,00,EE,FF,FD,FF,00,00
1756490934225820,00000181,false,Rx,0,8,04,10,00,E9,02,09,05,06
1756490934225909,00000213,false,Rx,0,4,08,00,00,00,00,00,00,00
1756490934226013,00000214,false,Rx,0,4,08,00,00,00,00,00,00,00
1756490934226136,00000194,false,Rx,0,6,14,00,03,00,05,00,00,00
1756490934227031,00000701,false,Rx,0,1,05,00,00,00,00,00,00,00
1756490934228532,00000188,false,Rx,0,6,C2,FF,14,00,F3,03,00,00
1756490934229082,00000190,false,Rx,0,8,15,C9,C9,C9,C9,C9,C9,C9
1756490934229199,00000190,false,Rx,0,8,1C,C9,C8,C8,C9,C9,C9,C9
1756490934229315,00000190,false,Rx,0,8,2A,C9,C9,C8,C9,C9,C9,C9
1756490934229431,00000190,false,Rx,0,8,31,C9,C9,C9,C9,C9,C9,C9
1756490934229553,00000190,false,Rx,0,8,38,C9,C9,C9,C8,C9,C9,C7
1756490934229673,00000190,false,Rx,0,8,23,C9,C9,C8,C9,C9,C9,C9
1756490934229767,00000190,false,Rx,0,8,3F,C9,C9,C9,C9,C9,C9,C9
1756490934229864,00000190,false,Rx,0,8,46,C9,C9,C9,C9,C9,C9,C9
1756490934229980,00000190,false,Rx,0,8,54,C9,C9,C9,C9,C9,C9,C9
1756490934230097,00000190,false,Rx,0,8,5B,C9,C9,C9,C9,C9,C9,C9
1756490934230213,00000190,false,Rx,0,8,4D,C9,C9,C9,C9,C9,C9,C9
1756490934230329,00000190,false,Rx,0,8,62,C9,C7,C9,C9,C9,C9,C9
1756490934230445,00000288,false,Rx,0,6,01,00,00,00,00,00,00,00
1756490934230542,00000390,false,Rx,0,8,07,3D,3D,3D,3D,3D,3D,3D
1756490934230669,00000390,false,Rx,0,8,0E,3D,3D,3D,3D,3D,3D,3D
1756490934230793,00000390,false,Rx,0,8,1C,3D,3D,3D,3D,3D,3D,3D
1756490934230891,00000390,false,Rx,0,8,23,3D,3D,3D,3D,3D,3D,3D
1756490934230988,00000390,false,Rx,0,8,2A,3D,3D,3D,3D,3D,3D,3D
1756490934231104,00000390,false,Rx,0,8,15,3D,3D,3D,3D,3D,3D,3D
1756490934231229,00000390,false,Rx,0,8,31,3D,3D,3D,3D,3D,3D,3D
1756490934231349,00000390,false,Rx,0,8,38,3D,3D,3D,3D,3D,3D,3D
1756490934231464,00000390,false,Rx,0,8,46,3D,3D,3D,3D,3D,3D,3D
1756490934231581,00000390,false,Rx,0,8,4D,3D,3D,3D,13,13,13,13
1756490934231678,00000390,false,Rx,0,8,3F,3D,3D,3D,3D,3D,3D,3D
1756490934231804,00000390,false,Rx,0,8,54,13,13,13,13,3D,3D,3D
1756490934231930,00000390,false,Rx,0,8,5B,3D,3D,3D,3D,3D,3D,3D
1756490934232031,00000390,false,Rx,0,8,69,3D,3D,3D,3D,3D,3D,3D
1756490934232125,00000390,false,Rx,0,8,70,3D,3D,3D,3D,3D,3D,3D
1756490934232241,00000390,false,Rx,0,8,62,3D,3D,3D,3D,3D,3D,3D
1756490934232358,00000390,false,Rx,0,8,77,3D,3D,3D,3D,3D,3D,3D
1756490934232473,00000390,false,Rx,0,8,7E,3D,3D,13,13,13,13,13
1756490934232590,00000390,false,Rx,0,8,8C,3D,3D,3D,3D,3D,3D,3D
1756490934232706,00000390,false,Rx,0,8,85,13,13,13,3D,3D,3D,3D
1756490934232823,00000390,false,Rx,0,8,93,3D,3D,3D,3D,3D,3D,3D
1756490934232920,00000390,false,Rx,0,8,9A,3D,3D,3D,3D,3D,3D,3D
1756490934233017,00000390,false,Rx,0,8,A8,3D,3D,3D,3D,3D,3D,3D
1756490934233141,00000390,false,Rx,0,8,AF,3D,3D,3D,3D,3D,3D,3D
1756490934233260,00000390,false,Rx,0,8,A1,3D,3D,3D,3D,3D,3D,3D
1756490934233377,00000390,false,Rx,0,8,B6,3D,3D,3D,3D,3D,3D,3D
1756490934233492,00000390,false,Rx,0,8,BD,3D,3D,3D,3D,3D,3D,3D
1756490934233609,00000390,false,Rx,0,8,CB,13,13,13,13,13,3D,3D
1756490934233726,00000390,false,Rx,0,8,C4,3D,3D,3D,3D,13,13,13
1756490934233824,00000390,false,Rx,0,8,D2,3D,3D,3D,3D,3D,3D,3D
1756490934233920,00000390,false,Rx,0,8,D9,3D,3D,3D,3D,3D,3D,3D
1756490934234037,00000488,false,Rx,0,8,08,27,55,00,54,01,87,00
1756490934234757,00000393,false,Rx,0,6,13,01,D5,01,0F,01,00,00
1756490934234897,00000293,false,Rx,0,4,86,A2,00,00,00,00,00,00
1756490934234968,00000004,false,Rx,0,8,00,01,00,00,00,00,00,00
1756490934235029,00000733,false,Rx,0,8,01,9A,99,19,40,A2,00,05
1756490934235091,00000193,false,Rx,0,6,14,00,FD,FF,02,00,00,00
1756490934235763,00000213,false,Rx,0,4,08,00,00,00,00,00,00,00
1756490934235859,00000214,false,Rx,0,4,08,00,00,00,00,00,00,00
1756490934235924,00000194,false,Rx,0,6,14,00,07,00,05,00,00,00
1756490934239128,00000181,false,Rx,0,8,68,10,00,E9,02,08,05,05
1756490934239895,00000188,false,Rx,0,6,B5,FF,16,00,D3,03,00,00
1756490934239975,00000288,false,Rx,0,6,FF,FF,00,00,00,00,00,00
1756490934240167,00000488,false,Rx,0,8,08,27,55,00,54,01,88,00
1756490934244415,00000193,false,Rx,0,6,14,00,02,00,FE,FF,00,00
1756490934245669,00000213,false,Rx,0,4,08,00,00,00,00,00,00,00
1756490934245762,00000214,false,Rx,0,4,08,00,00,00,00,00,00,00
1756490934245859,00000194,false,Rx,0,6,14,00,01,00,07,00,00,00
1756490934250146,00000188,false,Rx,0,6,C4,FF,12,00,FC,03,00,00
1756490934250258,00000288,false,Rx,0,6,00,00,00,00,00,00,00,00
1756490934250463,00000488,false,Rx,0,8,08,27,55,00,54,01,87,00
1756490934252305,00000181,false,Rx,0,8,04,10,00,E9,02,08,04,05
1756490934254232,00000193,false,Rx,0,6,14,00,FD,FF,04,00,00,00
1756490934255584,00000213,false,Rx,0,4,08,00,00,00,00,00,00,00
1756490934255699,00000194,false,Rx,0,6,14,00,04,00,02,00,00,00
1756490934255807,00000214,false,Rx,0,4,08,00,00,00,00,00,00,00
1756490934260484,00000188,false,Rx,0,6,C2,FF,05,00,F8,03,00,00
1756490934260592,00000288,false,Rx,0,6,00,00,00,00,00,00,00,00
1756490934260780,00000488,false,Rx,0,8,08,27,55,00,54,01,87,00
1756490934264079,00000193,false,Rx,0,6,14,00,00,00,FF,FF,00,00
1756490934265470,00000194,false,Rx,0,6,14,00,FB,FF,FE,FF,00,00
1756490934265602,00000181,false,Rx,0,8,04,10,00,E9,02,07,04,05
1756490934266583,00000213,false,Rx,0,4,08,00,00,00,00,00,00,00
1756490934266688,00000214,false,Rx,0,4,08,00,00,00,00,00,00,00
1756490934270752,00000188,false,Rx,0,6,B2,FF,15,00,C9,03,00,00
1756490934270861,00000288,false,Rx,0,6,00,00,00,00,00,00,00,00
1756490934271062,00000488,false,Rx,0,8,08,27,55,00,54,01,87,00
1756490934273898,00000193,false,Rx,0,6,14,00,FD,FF,FB,FF,00,00
1756490934275275,00000194,false,Rx,0,6,14,00,06,00,03,00,00,00
1756490934276478,00000213,false,Rx,0,4,08,00,00,00,00,00,00,00
1756490934276573,00000214,false,Rx,0,4,08,00,00,00,00,00,00,00
1756490934277177,00000290,false,Rx,0,7,01,E8,00,00,00,00,00,00
1756490934277282,00000490,false,Rx,0,5,64,00,00,00,00,00,00,00
1756490934278727,00000181,false,Rx,0,8,68,10,00,E9,02,06,03,04
1756490934281039,00000188,false,Rx,0,6,B4,FF,0C,00,D9,03,00,00
1756490934282007,00000288,false,Rx,0,6,00,00,00,00,00,00,00,00
1756490934282172,00000488,false,Rx,0,8,08,27,55,00,54,01,87,00
1756490934283833,00000193,false,Rx,0,6,14,00,FB,FF,FE,FF,00,00
1756490934285213,00000194,false,Rx,0,6,14,00,02,00,00,00,00,00
1756490934286482,00000213,false,Rx,0,4,08,00,00,00,00,00,00,00
1756490934286564,00000214,false,Rx,0,4,08,00,00,00,00,00,00,00
1756490934291286,00000181,false,Rx,0,8,04,10,00,E9,02,06,03,04
1756490934292726,00000188,false,Rx,0,6,BC,FF,11,00,E1,03,00,00
1756490934292856,00000288,false,Rx,0,6,00,00,00,00,00,00,00,00
1756490934292925,00000488,false,Rx,0,8,08,27,55,00,54,01,88,00
1756490934293657,00000193,false,Rx,0,6,14,00,FE,FF,FF,FF,00,00
1756490934295105,00000194,false,Rx,0,6,14,00,09,00,02,00,00,00
1756490934297586,00000213,false,Rx,0,4,08,00,00,00,00,00,00,00
1756490934297704,00000214,false,Rx,0,4,08,00,00,00,00,00,00,00
1756490934302606,00000188,false,Rx,0,6,B3,FF,1A,00,D0,03,00,00
1756490934302820,00000288,false,Rx,0,6,00,00,00,00,00,00,00,00
1756490934302887,00000488,false,Rx,0,8,08,27,55,00,54,01,87,00
1756490934303425,00000193,false,Rx,0,6,14,00,08,00,FB,FF,00,00
1756490934304083,00000181,false,Rx,0,8,04,10,00,E9,02,05,03,04
1756490934304777,00000394,false,Rx,0,6,65,05,DD,01,1F,01,00,00
1756490934304885,00000294,false,Rx,0,4,1C,A2,C9,00,00,00,00,00
1756490934304987,00000714,false,Rx,0,1,05,00,00,00,00,00,00,00
1756490934305086,00000734,false,Rx,0,8,05,00,00,C0,3F,A2,C9,05
1756490934305212,00000194,false,Rx,0,6,14,00,02,00,01,00,00,00
1756490934307337,00000213,false,Rx,0,4,08,00,00,00,00,00,00,00
1756490934307449,00000214,false,Rx,0,4,08,00,00,00,00,00,00,00
1756490934312971,00000188,false,Rx,0,6,C4,FF,0D,00,FF,03,00,00
1756490934313219,00000288,false,Rx,0,6,00,00,00,00,00,00,00,00
1756490934313291,00000488,false,Rx,0,8,08,27,55,00,54,01,88,00
1756490934313357,00000193,false,Rx,0,6,14,00,FD,FF,02,00,00,00
1756490934314714,00000194,false,Rx,0,6,14,00,10,00,FD,FF,00,00
1756490934317426,00000181,false,Rx,0,8,68,10,00,E9,02,00,02,03
1756490934317630,00000213,false,Rx,0,4,08,00,00,00,00,00,00,00
1756490934317696,00000214,false,Rx,0,4,08,00,00,00,00,00,00,00
1756490934323269,00000193,false,Rx,0,6,14,00,08,00,FC,FF,00,00
1756490934323442,00000188,false,Rx,0,6,BF,FF,12,00,EF,03,00,00
1756490934323504,00000288,false,Rx,0,6,00,00,00,00,00,00,00,00
1756490934323564,00000488,false,Rx,0,8,08,27,55,00,54,01,87,00
1756490934324488,00000194,false,Rx,0,6,14,00,01,00,03,00,00,00
1756490934327419,00000213,false,Rx,0,4,08,00,00,00,00,00,00,00
1756490934327649,00000214,false,Rx,0,4,08,00,00,00,00,00,00,00
1756490934327713,00000701,false,Rx,0,1,05,00,00,00,00,00,00,00
1756490934330774,00000181,false,Rx,0,8,04,10,00,E9,02,00,02,03
1756490934332960,00000393,false,Rx,0,6,13,01,D5,01,0F,01,00,00
1756490934333088,00000293,false,Rx,0,4,8C,A2,00,00,00,00,00,00
1756490934333191,00000713,false,Rx,0,1,05,00,00,00,00,00,00,00
1756490934333289,00000733,false,Rx,0,8,02,00,00,C0,3F,A2,00,05
1756490934333391,00000193,false,Rx,0,6,14,00,02,00,FF,FF,00,00
1756490934333509,00000188,false,Rx,0,6,B2,FF,13,00,C7,03,00,00
1756490934333570,00000288,false,Rx,0,6,01,00,00,00,00,00,00,00
1756490934334273,00000194,false,Rx,0,6,14,00,01,00,FF,FF,00,00
1756490934334719,00000488,false,Rx,0,8,08,27,55,00,54,01,88,00
1756490934336619,00000710,false,Rx,0,1,7F,00,00,00,00,00,00,00
1756490934338228,00000213,false,Rx,0,4,08,00,00,00,00,00,00,00
1756490934338332,00000214,false,Rx,0,4,08,00,00,00,00,00,00,00
1756490934342719,00000193,false,Rx,0,6,14,00,FA,FF,FE,FF,00,00
1756490934344100,00000194,false,Rx,0,6,14,00,FD,FF,FC,FF,00,00
1756490934344749,00000188,false,Rx,0,6,C7,FF,0C,00,05,04,00,00
1756490934344855,00000288,false,Rx,0,6,01,00,00,00,00,00,00,00
1756490934344953,00000488,false,Rx,0,8,08,27,55,00,54,01,87,00
1756490934348208,00000213,false,Rx,0,4,08,00,00,00,00,00,00,00
1756490934348301,00000214,false,Rx,0,4,08,00,00,00,00,00,00,00
1756490934352557,00000193,false,Rx,0,6,14,00,F6,FF,FC,FF,00,00
1756490934353924,00000194,false,Rx,0,6,14,00,02,00,FC,FF,00,00
1756490934355013,00000188,false,Rx,0,6,B8,FF,13,00,D1,03,00,00
1756490934355120,00000288,false,Rx,0,6,00,00,00,00,00,00,00,00
1756490934355234,00000488,false,Rx,0,8,08,27,55,00,54,01,87,00
1756490934356323,00000100,false,Rx,0,6,53,EC,E4,03,70,3B,00,00
1756490934358324,00000213,false,Rx,0,4,08,00,00,00,00,00,00,00
1756490934358506,00000214,false,Rx,0,4,08,00,00,00,00,00,00,00
1756490934360647,00000181,false,Rx,0,8,68,10,00,E9,02,00,01,02
1756490934362687,00000193,false,Rx,0,6,14,00,FF,FF,02,00,00,00
1756490934364043,00000194,false,Rx,0,6,14,00,04,00,FF,FF,00,00
1756490934365109,00000188,false,Rx,0,6,B9,FF,13,00,CF,03,00,00
1756490934365273,00000288,false,Rx,0,6,00,00,00,00,00,00,00,00
1756490934365336,00000488,false,Rx,0,8,08,27,55,00,54,01,87,00
1756490934369132,00000213,false,Rx,0,4,08,00,00,00,00,00,00,00
1756490934369223,00000214,false,Rx,0,4,08,00,00,00,00,00,00,00
1756490934372499,00000193,false,Rx,0,6,14,00,FA,FF,FB,FF,00,00
1756490934373535,00000181,false,Rx,0,8,04,10,00,E9,02,00,01,02
1756490934373831,00000194,false,Rx,0,6,14,00,07,00,FD,FF,00,00
1756490934375467,00000188,false,Rx,0,6,C6,FF,0E,00,FE,03,00,00
1756490934375559,00000288,false,Rx,0,6,00,00,00,00,00,00,00,00
1756490934375620,00000488,false,Rx,0,8,08,27,55,00,54,01,87,00
1756490934379386,00000213,false,Rx,0,4,08,00,00,00,00,00,00,00
1756490934379517,00000214,false,Rx,0,4,08,00,00,00,00,00,00,00
1756490934382336,00000193,false,Rx,0,6,14,00,F6,FF,FE,FF,00,00
1756490934383692,00000194,false,Rx,0,6,14,00,0E,00,01,00,00,00
1756490934385712,00000188,false,Rx,0,6,BC,FF,0F,00,F3,03,00,00
1756490934385811,00000288,false,Rx,0,6,FF,FF,00,00,00,00,00,00
1756490934385875,00000488,false,Rx,0,8,08,27,55,00,54,01,88,00
1756490934387065,00000181,false,Rx,0,8,68,10,00,E9,02,00,01,02
1756490934388945,00000213,false,Rx,0,4,08,00,00,00,00,00,00,00
1756490934389037,00000214,false,Rx,0,4,08,00,00,00,00,00,00,00
1756490934392133,00000193,false,Rx,0,6,14,00,F5,FF,00,00,00,00
1756490934393506,00000194,false,Rx,0,6,14,00,00,00,FE,FF,00,00
1756490934395699,00000188,false,Rx,0,6,B5,FF,10,00,CF,03,00,00
1756490934395881,00000288,false,Rx,0,6,00,00,FF,FF,00,00,00,00
1756490934395943,00000488,false,Rx,0,8,08,27,55,00,54,01,88,00
1756490934398962,00000213,false,Rx,0,4,08,00,00,00,00,00,00,00
1756490934399051,00000214,false,Rx,0,4,08,00,00,00,00,00,00,00
1756490934399923,00000181,false,Rx,0,8,04,10,00,EA,02,00,01,02
1756490934401954,00000193,false,Rx,0,6,14,00,06,00,FD,FF,00,00
1756490934403312,00000394,false,Rx,0,6,69,05,DD,01,0E,01,00,00
1756490934403475,00000294,false,Rx,0,4,0C,A2,8B,FF,00,00,00,00
1756490934403586,00000714,false,Rx,0,1,05,00,00,00,00,00,00,00
1756490934403857,00000734,false,Rx,0,8,06,6F,12,03,3B,A2,8B,05
1756490934403938,00000194,false,Rx,0,6,14,00,08,00,FD,FF,00,00
1756490934405891,00000188,false,Rx,0,6,C4,FF,12,00,FC,03,00,00
1756490934406068,00000288,false,Rx,0,6,00,00,00,00,00,00,00,00
1756490934406139,00000488,false,Rx,0,8,08,27,55,00,54,01,88,00
1756490934409881,00000213,false,Rx,0,4,08,00,00,00,00,00,00,00
1756490934410070,00000214,false,Rx,0,4,08,00,00,00,00,00,00,00
1756490934411806,00000193,false,Rx,0,6,14,00,02,00,FF,FF,00,00
1756490934413166,00000194,false,Rx,0,6,14,00,01,00,FF,FF,00,00
1756490934416195,00000188,false,Rx,0,6,BF,FF,09,00,FC,03,00,00
1756490934416268,00000288,false,Rx,0,6,00,00,00,00,00,00,00,00
1756490934416945,00000488,false,Rx,0,8,08,27,55,00,54,01,88,00
1756490934419680,00000213,false,Rx,0,4,08,00,00,00,00,00,00,00
1756490934419807,00000214,false,Rx,0,4,08,00,00,00,00,00,00,00
1756490934421606,00000193,false,Rx,0,6,14,00,F8,FF,FB,FF,00,00
1756490934422986,00000194,false,Rx,0,6,14,00,0A,00,FD,FF,00,00
1756490934426967,00000188,false,Rx,0,6,BC,FF,0E,00,DE,03,00,00
1756490934427548,00000288,false,Rx,0,6,00,00,00,00,00,00,00,00
1756490934427615,00000488,false,Rx,0,8,08,27,55,00,54,01,88,00
1756490934427677,00000701,false,Rx,0,1,05,00,00,00,00,00,00,00
1756490934429599,00000213,false,Rx,0,4,08,00,00,00,00,00,00,00
1756490934429721,00000214,false,Rx,0,4,08,00,00,00,00,00,00,00
1756490934431515,00000393,false,Rx,0,6,13,01,D5,01,17,01,00,00
1756490934431623,00000293,false,Rx,0,4,7C,A2,00,00,00,00,00,00
1756490934431692,00000713,false,Rx,0,1,05,00,00,00,00,00,00,00
1756490934431753,00000733,false,Rx,0,8,03,6F,12,03,3B,A2,00,05
1756490934431814,00000193,false,Rx,0,6,14,00,F0,FF,FB,FF,00,00
1756490934432752,00000194,false,Rx,0,6,14,00,05,00,FD,FF,00,00
1756490934437164,00000188,false,Rx,0,6,C8,FF,12,00,05,04,00,00
1756490934437268,00000288,false,Rx,0,6,02,00,00,00,00,00,00,00
1756490934437360,00000488,false,Rx,0,8,08,27,55,00,54,01,88,00
1756490934439453,00000213,false,Rx,0,4,08,00,00,00,00,00,00,00
1756490934439540,00000214,false,Rx,0,4,08,00,00,00,00,00,00,00
1756490934441204,00000193,false,Rx,0,6,14,00,0B,00,FD,FF,00,00
1756490934442576,00000194,false,Rx,0,6,14,00,0F,00,FA,FF,00,00
1756490934444822,00000710,false,Rx,0,1,7F,00,00,00,00,00,00,00
1756490934447356,00000188,false,Rx,0,6,B8,FF,11,00,DD,03,00,00
1756490934447461,00000288,false,Rx,0,6,FF,FF,00,00,00,00,00,00
1756490934447557,00000488,false,Rx,0,8,08,27,55,00,54,01,88,00
1756490934450489,00000181,false,Rx,0,8,68,10,00,E9,02,00,00,01
1756490934450595,00000213,false,Rx,0,4,08,00,00,00,00,00,00,00
1756490934450686,00000214,false,Rx,0,4,08,00,00,00,00,00,00,00
1756490934451010,00000193,false,Rx,0,6,14,00,03,00,FB,FF,00,00
1756490934452424,00000194,false,Rx,0,6,14,00,02,00,F9,FF,00,00
1756490934457567,00000188,false,Rx,0,6,B9,FF,19,00,E0,03,00,00
1756490934457664,00000288,false,Rx,0,6,00,00,00,00,00,00,00,00
1756490934457760,00000488,false,Rx,0,8,08,27,55,00,54,01,88,00
1756490934460364,00000213,false,Rx,0,4,08,00,00,00,00,00,00,00
1756490934460450,00000214,false,Rx,0,4,08,00,00,00,00,00,00,00
1756490934460871,00000193,false,Rx,0,6,14,00,FD,FF,02,00,00,00
1756490934462241,00000194,false,Rx,0,6,14,00,0B,00,FC,FF,00,00
1756490934463705,00000181,false,Rx,0,8,04,10,00,E9,02,00,00,01
1756490934467739,00000188,false,Rx,0,6,C3,FF,0D,00,F1,03,00,00
1756490934467869,00000288,false,Rx,0,6,00,00,00,00,00,00,00,00
1756490934467984,00000488,false,Rx,0,8,08,27,55,00,54,01,88,00
1756490934470258,00000213,false,Rx,0,4,08,00,00,00,00,00,00,00
1756490934470348,00000214,false,Rx,0,4,08,00,00,00,00,00,00,00
1756490934470682,00000193,false,Rx,0,6,14,00,FF,FF,FF,FF,00,00
1756490934472073,00000194,false,Rx,0,6,14,00,09,00,FF,FF,00,00
1756490934477235,00000290,false,Rx,0,7,01,E8,00,00,00,00,00,00
1756490934477317,00000490,false,Rx,0,5,64,00,00,00,00,00,00,00
1756490934477929,00000188,false,Rx,0,6,B6,FF,18,00,D2,03,00,00
1756490934478076,00000288,false,Rx,0,6,00,00,00,00,00,00,00,00
1756490934478195,00000488,false,Rx,0,8,08,27,55,00,54,01,88,00
1756490934480528,00000193,false,Rx,0,6,14,00,0F,00,FB,FF,00,00
1756490934481285,00000213,false,Rx,0,4,08,00,00,00,00,00,00,00
1756490934481375,00000214,false,Rx,0,4,08,00,00,00,00,00,00,00
1756490934481893,00000194,false,Rx,0,6,14,00,0C,00,FD,FF,00,00
1756490934488210,00000188,false,Rx,0,6,B2,FF,18,00,D7,03,00,00
1756490934488316,00000288,false,Rx,0,6,FE,FF,00,00,00,00,00,00
1756490934488407,00000488,false,Rx,0,8,08,27,55,00,54,01,88,00
1756490934490396,00000193,false,Rx,0,6,14,00,FB,FF,00,00,00,00
1756490934491284,00000213,false,Rx,0,4,08,00,00,00,00,00,00,00
1756490934491379,00000214,false,Rx,0,4,08,00,00,00,00,00,00,00
1756490934491722,00000194,false,Rx,0,6,14,00,0A,00,FF,FF,00,00
1756490934498346,00000188,false,Rx,0,6,C5,FF,0B,00,F8,03,00,00
1756490934498458,00000288,false,Rx,0,6,00,00,00,00,00,00,00,00
1756490934498584,00000488,false,Rx,0,8,08,27,55,00,54,01,88,00
1756490934500226,00000193,false,Rx,0,6,14,00,00,00,04,00,00,00
1756490934501242,00000181,false,Rx,0,8,68,10,00,E9,02,00,00,01
1756490934501329,00000213,false,Rx,0,4,08,00,00,00,00,00,00,00
1756490934501425,00000214,false,Rx,0,4,08,00,00,00,00,00,00,00
1756490934501541,00000394,false,Rx,0,6,69,05,DD,01,0E,01,00,00
1756490934501641,00000294,false,Rx,0,4,F5,A1,34,00,00,00,00,00
1756490934501738,00000714,false,Rx,0,1,05,00,00,00,00,00,00,00
1756490934501837,00000734,false,Rx,0,8,07,00,00,80,3F,A1,34,05
1756490934501936,00000194,false,Rx,0,6,14,00,01,00,FF,FF,00,00
1756490934508576,00000188,false,Rx,0,6,C3,FF,15,00,F1,03,00,00
1756490934508665,00000288,false,Rx,0,6,00,00,FF,FF,00,00,00,00
1756490934509912,00000488,false,Rx,0,8,08,27,55,00,54,01,88,00
1756490934510022,00000193,false,Rx,0,6,14,00,FB,FF,01,00,00,00
1756490934511123,00000213,false,Rx,0,4,08,00,00,00,00,00,00,00
1756490934511232,00000214,false,Rx,0,4,08,00,00,00,00,00,00,00
1756490934511355,00000194,false,Rx,0,6,14,00,0E,00,FC,FF,00,00
1756490934513314,00000181,false,Rx,0,8,04,10,00,E9,02,00,00,01
1756490934519846,00000193,false,Rx,0,6,14,00,11,00,00,00,00,00
1756490934519940,00000188,false,Rx,0,6,C1,FF,13,00,E6,03,00,00
1756490934520046,00000288,false,Rx,0,6,00,00,00,00,01,00,00,00
1756490934520142,00000488,false,Rx,0,8,08,27,55,00,54,01,88,00
1756490934521195,00000194,false,Rx,0,6,14,00,04,00,03,00,00,00
1756490934522202,00000213,false,Rx,0,4,08,00,00,00,00,00,00,00
1756490934522293,00000214,false,Rx,0,4,08,00,00,00,00,00,00,00
1756490934527689,00000701,false,Rx,0,1,05,00,00,00,00,00,00,00
1756490934529640,00000393,false,Rx,0,6,13,01,D5,01,0F,01,00,00
1756490934529730,00000293,false,Rx,0,4,78,A2,00,00,00,00,00,00
1756490934529827,00000713,false,Rx,0,1,05,00,00,00,00,00,00,00
1756490934529923,00000733,false,Rx,0,8,04,8F,C2,F5,3F,A2,00,05
1756490934530021,00000188,false,Rx,0,6,CB,FF,0A,00,00,04,00,00
1756490934530115,00000193,false,Rx,0,6,14,00,09,00,FC,FF,00,00
1756490934530213,00000288,false,Rx,0,6,00,00,00,00,00,00,00,00
1756490934530328,00000488,false,Rx,0,8,08,27,54,00,54,01,88,00
1756490934531021,00000194,false,Rx,0,6,14,00,08,00,FE,FF,00,00
1756490934532212,00000213,false,Rx,0,4,08,00,00,00,00,00,00,00
1756490934532303,00000214,false,Rx,0,4,08,00,00,00,00,00,00,00
1756490934539489,00000193,false,Rx,0,6,14,00,08,00,07,00,00,00
1756490934540276,00000188,false,Rx,0,6,B8,FF,14,00,E1,03,00,00
1756490934540387,00000288,false,Rx,0,6,00,00,00,00,00,00,00,00
1756490934540504,00000488,false,Rx,0,8,08,27,54,00,54,01,88,00
1756490934540840,00000194,false,Rx,0,6,14,00,F9,FF,03,00,00,00
1756490934542090,00000213,false,Rx,0,4,08,00,00,00,00,00,00,00
1756490934542185,00000214,false,Rx,0,4,08,00,00,00,00,00,00,00
1756490934549311,00000193,false,Rx,0,6,14,00,FD,FF,03,00,00,00
1756490934550348,00000188,false,Rx,0,6,B8,FF,14,00,DB,03,00,00
1756490934550470,00000288,false,Rx,0,6,00,00,00,00,00,00,00,00
1756490934550593,00000488,false,Rx,0,8,08,27,54,00,54,01,88,00
1756490934550695,00000194,false,Rx,0,6,14,00,09,00,05,00,00,00
1756490934550995,00000181,false,Rx,0,8,68,10,00,E9,02,00,00,01
1756490934552094,00000213,false,Rx,0,4,08,00,00,00,00,00,00,00
1756490934552185,00000214,false,Rx,0,4,08,00,00,00,00,00,00,00
1756490934552799,00000710,false,Rx,0,1,7F,00,00,00,00,00,00,00
1756490934559134,00000193,false,Rx,0,6,14,00,07,00,02,00,00,00
1756490934560512,00000194,false,Rx,0,6,14,00,00,00,06,00,00,00
1756490934560604,00000188,false,Rx,0,6,BD,FF,13,00,F7,03,00,00
1756490934560701,00000288,false,Rx,0,6,00,00,00,00,00,00,00,00
1756490934560877,00000488,false,Rx,0,8,08,27,54,00,54,01,88,00
1756490934562131,00000213,false,Rx,0,4,08,00,00,00,00,00,00,00
1756490934562205,00000214,false,Rx,0,4,08,00,00,00,00,00,00,00
1756490934564344,00000181,false,Rx,0,8,04,10,00,E9,02,00,00,01
1756490934568967,00000193,false,Rx,0,6,14,00,05,00,05,00,00,00
1756490934570340,00000194,false,Rx,0,6,14,00,08,00,05,00,00,00
1756490934570737,00000188,false,Rx,0,6,B8,FF,09,00,E5,03,00,00
1756490934570875,00000288,false,Rx,0,6,00,00,01,00,00,00,00,00
1756490934570994,00000488,false,Rx,0,8,08,27,54,00,54,01,88,00
1756490934573107,00000213,false,Rx,0,4,08,00,00,00,00,00,00,00
1756490934573198,00000214,false,Rx,0,4,08,00,00,00,00,00,00,00
1756490934578795,00000193,false,Rx,0,6,14,00,FF,FF,09,00,00,00
1756490934580165,00000194,false,Rx,0,6,14,00,05,00,06,00,00,00
1756490934580927,00000188,false,Rx,0,6,B1,FF,1D,00,D0,03,00,00
1756490934581065,00000288,false,Rx,0,6,00,00,00,00,00,00,00,00
1756490934581194,00000488,false,Rx,0,8,08,27,54,00,54,01,88,00
1756490934583012,00000213,false,Rx,0,4,08,00,00,00,00,00,00,00
1756490934583104,00000214,false,Rx,0,4,08,00,00,00,00,00,00,00
1756490934588618,00000193,false,Rx,0,6,14,00,06,00,00,00,00,00
1756490934590028,00000194,false,Rx,0,6,14,00,00,00,02,00,00,00
1756490934591252,00000188,false,Rx,0,6,C0,FF,0F,00,F7,03,00,00
1756490934591982,00000288,false,Rx,0,6,00,00,00,00,00,00,00,00
1756490934592098,00000488,false,Rx,0,8,08,27,54,00,54,01,88,00
1756490934592939,00000213,false,Rx,0,4,08,00,00,00,00,00,00,00
1756490934593035,00000214,false,Rx,0,4,08,00,00,00,00,00,00,00
1756490934598473,00000193,false,Rx,0,6,14,00,05,00,04,00,00,00
1756490934599827,00000394,false,Rx,0,6,69,05,DD,01,1F,01,00,00
1756490934599918,00000294,false,Rx,0,4,08,A2,A7,FF,00,00,00,00
1756490934600012,00000714,false,Rx,0,1,05,00,00,00,00,00,00,00
1756490934600116,00000734,false,Rx,0,8,08,00,00,80,3F,A2,A7,05
1756490934600226,00000194,false,Rx,0,6,14,00,FF,FF,04,00,00,00
1756490934601994,00000188,false,Rx,0,6,B2,FF,1B,00,D5,03,00,00
1756490934602105,00000288,false,Rx,0,6,00,00,00,00,00,00,00,00
1756490934602263,00000488,false,Rx,0,8,08,27,54,00,54,01,88,00
1756490934603928,00000213,false,Rx,0,4,08,00,00,00,00,00,00,00
1756490934604021,00000214,false,Rx,0,4,08,00,00,00,00,00,00,00
1756490934608270,00000193,false,Rx,0,6,14,00,FD,FF,00,00,00,00
1756490934609644,00000194,false,Rx,0,6,14,00,FC,FF,06,00,00,00
1756490934610582,00000181,false,Rx,0,8,68,10,00,E9,02,00,00,00
1756490934612340,00000188,false,Rx,0,6,C4,FF,17,00,F3,03,00,00
1756490934612454,00000288,false,Rx,0,6,00,00,00,00,00,00,00,00
1756490934612570,00000488,false,Rx,0,8,08,27,54,00,54,01,88,00
1756490934613818,00000213,false,Rx,0,4,08,00,00,00,00,00,00,00
1756490934613912,00000214,false,Rx,0,4,08,00,00,00,00,00,00,00
1756490934618091,00000193,false,Rx,0,6,14,00,F6,FF,05,00,00,00
1756490934619469,00000194,false,Rx,0,6,14,00,00,00,03,00,00,00
1756490934622560,00000188,false,Rx,0,6,C3,FF,0D,00,F9,03,00,00
1756490934622659,00000288,false,Rx,0,6,FF,FF,FF,FF,00,00,00,00
1756490934622762,00000488,false,Rx,0,8,08,27,54,00,54,01,88,00
1756490934623768,00000213,false,Rx,0,4,08,00,00,00,00,00,00,00
1756490934623873,00000214,false,Rx,0,4,08,00,00,00,00,00,00,00
1756490934627919,00000393,false,Rx,0,6,13,01,D5,01,0F,01,00,00
1756490934628011,00000293,false,Rx,0,4,77,A2,00,00,00,00,00,00
1756490934628109,00000701,false,Rx,0,1,05,00,00,00,00,00,00,00
1756490934628165,00000004,false,Rx,0,8,00,01,00,00,00,00,00,00
1756490934628270,00000733,false,Rx,0,8,05,00,00,C0,3F,A2,00,05
1756490934628367,00000193,false,Rx,0,6,14,00,01,00,09,00,00,00
1756490934629297,00000194,false,Rx,0,6,14,00,03,00,03,00,00,00
1756490934630382,00000181,false,Rx,0,8,04,10,00,E9,02,00,00,00
1756490934632741,00000188,false,Rx,0,6,BB,FF,18,00,DA,03,00,00
1756490934632855,00000288,false,Rx,0,6,00,00,00,00,00,00,00,00
1756490934632972,00000488,false,Rx,0,8,08,27,55,00,54,01,88,00
1756490934633682,00000213,false,Rx,0,4,08,00,00,00,00,00,00,00
1756490934633780,00000214,false,Rx,0,4,08,00,00,00,00,00,00,00
1756490934637745,00000193,false,Rx,0,6,14,00,F9,FF,03,00,00,00
1756490934639128,00000194,false,Rx,0,6,14,00,09,00,02,00,00,00
1756490934642948,00000188,false,Rx,0,6,BE,FF,12,00,E3,03,00,00
1756490934643059,00000288,false,Rx,0,6,00,00,FF,FF,00,00,00,00
1756490934643171,00000488,false,Rx,0,8,08,27,54,00,54,01,88,00
1756490934644637,00000213,false,Rx,0,4,08,00,00,00,00,00,00,00
1756490934644727,00000214,false,Rx,0,4,08,00,00,00,00,00,00,00
1756490934647572,00000193,false,Rx,0,6,14,00,02,00,06,00,00,00
1756490934648953,00000194,false,Rx,0,6,14,00,08,00,00,00,00,00
1756490934651276,00000181,false,Rx,0,8,68,10,00,E9,02,00,00,00
1756490934653152,00000188,false,Rx,0,6,CD,FF,06,00,FF,03,00,00
1756490934653256,00000288,false,Rx,0,6,00,00,00,00,00,00,00,00
1756490934653350,00000488,false,Rx,0,8,08,27,54,00,53,01,88,00
1756490934654572,00000213,false,Rx,0,4,08,00,00,00,00,00,00,00
1756490934654665,00000214,false,Rx,0,4,08,00,00,00,00,00,00,00
1756490934657400,00000193,false,Rx,0,6,14,00,05,00,00,00,00,00
1756490934658779,00000194,false,Rx,0,6,14,00,00,00,06,00,00,00
1756490934660806,00000710,false,Rx,0,1,7F,00,00,00,00,00,00,00
1756490934663365,00000188,false,Rx,0,6,B8,FF,10,00,E1,03,00,00
1756490934663471,00000181,false,Rx,0,8,04,10,00,E9,02,00,00,00
1756490934663569,00000288,false,Rx,0,6,00,00,00,00,00,00,00,00
1756490934663666,00000488,false,Rx,0,8,08,27,54,00,53,01,88,00
1756490934664504,00000213,false,Rx,0,4,08,00,00,00,00,00,00,00
1756490934664595,00000214,false,Rx,0,4,08,00,00,00,00,00,00,00
1756490934667234,00000193,false,Rx,0,6,14,00,FE,FF,01,00,00,00
1756490934668613,00000194,false,Rx,0,6,14,00,03,00,FE,FF,00,00
1756490934673545,00000188,false,Rx,0,6,B6,FF,0D,00,D1,03,00,00
1756490934673658,00000288,false,Rx,0,6,00,00,00,00,00,00,00,00
1756490934673756,00000488,false,Rx,0,8,08,27,54,00,53,01,88,00
1756490934675448,00000213,false,Rx,0,4,08,00,00,00,00,00,00,00
1756490934675551,00000214,false,Rx,0,4,08,00,00,00,00,00,00,00
1756490934676584,00000181,false,Rx,0,8,68,10,00,E9,02,00,00,00
1756490934677050,00000193,false,Rx,0,6,14,00,FE,FF,03,00,00,00
1756490934677165,00000290,false,Rx,0,7,01,E8,00,00,00,00,00,00
1756490934677263,00000490,false,Rx,0,5,64,00,00,00,00,00,00,00
1756490934678431,00000194,false,Rx,0,6,14,00,FA,FF,FC,FF,00,00
1756490934683748,00000188,false,Rx,0,6,C4,FF,11,00,FD,03,00,00
1756490934684813,00000288,false,Rx,0,6,00,00,00,00,00,00,00,00
1756490934684925,00000488,false,Rx,0,8,08,27,54,00,53,01,88,00
1756490934685391,00000213,false,Rx,0,4,08,00,00,00,00,00,00,00
1756490934685485,00000214,false,Rx,0,4,08,00,00,00,00,00,00,00
1756490934686881,00000193,false,Rx,0,6,14,00,FB,FF,00,00,00,00
1756490934688257,00000194,false,Rx,0,6,14,00,05,00,FE,FF,00,00
1756490934689793,00000181,false,Rx,0,8,04,10,00,E9,02,00,00,00
1756490934694913,00000188,false,Rx,0,6,AD,FF,14,00,D8,03,00,00
1756490934695014,00000288,false,Rx,0,6,00,00,00,00,00,00,00,00
1756490934695073,00000488,false,Rx,0,8,08,27,54,00,53,01,88,00
1756490934695308,00000213,false,Rx,0,4,08,00,00,00,00,00,00,00
1756490934695404,00000214,false,Rx,0,4,08,00,00,00,00,00,00,00
1756490934696713,00000193,false,Rx,0,6,14,00,F9,FF,02,00,00,00
1756490934698092,00000394,false,Rx,0,6,6C,05,DD,01,0E,01,00,00
1756490934698199,00000294,false,Rx,0,4,0A,A2,28,00,00,00,00,00
1756490934698304,00000714,false,Rx,0,1,05,00,00,00,00,00,00,00
1756490934698402,00000734,false,Rx,0,8,09,00,00,00,00,A2,28,05
1756490934698498,00000194,false,Rx,0,6,14,00,03,00,FA,FF,00,00
1756490934703000,00000181,false,Rx,0,8,68,10,00,E9,02,00,00,00
1756490934705046,00000188,false,Rx,0,6,BE,FF,0F,00,F4,03,00,00
1756490934705170,00000288,false,Rx,0,6,00,00,00,00,00,00,00,00
1756490934705276,00000488,false,Rx,0,8,08,27,54,00,54,01,88,00
1756490934706293,00000213,false,Rx,0,4,08,00,00,00,00,00,00,00
1756490934706399,00000214,false,Rx,0,4,08,00,00,00,00,00,00,00
1756490934706536,00000193,false,Rx,0,6,14,00,FD,FF,00,00,00,00
1756490934707916,00000194,false,Rx,0,6,14,00,02,00,FB,FF,00,00
1756490934715252,00000188,false,Rx,0,6,BD,FF,15,00,F8,03,00,00
1756490934715437,00000288,false,Rx,0,6,00,00,00,00,00,00,00,00
1756490934715498,00000488,false,Rx,0,8,08,27,54,00,54,01,88,00
1756490934716265,00000181,false,Rx,0,8,04,10,00,E9,02,00,00,00
1756490934716354,00000213,false,Rx,0,4,08,00,00,00,00,00,00,00
1756490934716451,00000193,false,Rx,0,6,14,00,F7,FF,FF,FF,00,00
1756490934716548,00000214,false,Rx,0,4,08,00,00,00,00,00,00,00
1756490934717743,00000194,false,Rx,0,6,14,00,02,00,00,00,00,00
1756490934725510,00000188,false,Rx,0,6,B2,FF,16,00,C4,03,00,00
1756490934725607,00000288,false,Rx,0,6,01,00,FF,FF,00,00,00,00
1756490934725668,00000488,false,Rx,0,8,08,27,54,00,53,01,88,00
1756490934726176,00000393,false,Rx,0,6,15,01,D5,01,0F,01,00,00
1756490934726272,00000213,false,Rx,0,4,08,00,00,00,00,00,00,00
1756490934726369,00000214,false,Rx,0,4,08,00,00,00,00,00,00,00
1756490934726468,00000293,false,Rx,0,4,79,A2,00,00,00,00,00,00
1756490934726566,00000713,false,Rx,0,1,05,00,00,00,00,00,00,00
1756490934726684,00000733,false,Rx,0,8,06,6F,12,03,3B,A2,00,05
1756490934726787,00000193,false,Rx,0,6,14,00,0C,00,03,00,00,00
1756490934727575,00000194,false,Rx,0,6,14,00,00,00,FA,FF,00,00
1756490934728081,00000701,false,Rx,0,1,05,00,00,00,00,00,00,00
1756490934729530,00000181,false,Rx,0,8,04,10,00,E9,02,00,00,00
1756490934735656,00000188,false,Rx,0,6,BC,FF,17,00,E5,03,00,00
1756490934735764,00000288,false,Rx,0,6,00,00,00,00,00,00,00,00
1756490934735861,00000488,false,Rx,0,8,08,27,54,00,53,01,88,00
1756490934736002,00000193,false,Rx,0,6,14,00,FE,FF,FA,FF,00,00
1756490934736119,00000213,false,Rx,0,4,08,00,00,00,00,00,00,00
1756490934736219,00000214,false,Rx,0,4,08,00,00,00,00,00,00,00
1756490934737395,00000194,false,Rx,0,6,14,00,02,00,FE,FF,00,00
1756490934745852,00000193,false,Rx,0,6,14,00,F8,FF,01,00,00,00
1756490934745943,00000188,false,Rx,0,6,CA,FF,0B,00,FF,03,00,00
1756490934746038,00000288,false,Rx,0,6,00,00,00,00,FF,FF,00,00
1756490934746156,00000488,false,Rx,0,8,08,27,54,00,54,01,88,00
1756490934747231,00000194,false,Rx,0,6,14,00,00,00,FA,FF,00,00
1756490934747325,00000213,false,Rx,0,4,08,00,00,00,00,00,00,00
1756490934747423,00000214,false,Rx,0,4,08,00,00,00,00,00,00,00
1756490934755671,00000193,false,Rx,0,6,14,00,FA,FF,00,00,00,00
1756490934756041,00000188,false,Rx,0,6,C0,FF,10,00,E0,03,00,00
1756490934756156,00000288,false,Rx,0,6,00,00,00,00,00,00,00,00
1756490934756271,00000488,false,Rx,0,8,08,27,54,00,53,01,88,00
1756490934757034,00000194,false,Rx,0,6,14,00,09,00,F8,FF,00,00
1756490934757132,00000213,false,Rx,0,4,08,00,00,00,00,00,00,00
1756490934757234,00000214,false,Rx,0,4,08,00,00,00,00,00,00,00
1756490934760526,00000181,false,Rx,0,8,68,10,00,E9,02,00,00,00
1756490934765528,00000193,false,Rx,0,6,14,00,FA,FF,FC,FF,00,00
1756490934766245,00000188,false,Rx,0,6,B8,FF,18,00,D1,03,00,00
1756490934766359,00000288,false,Rx,0,6,00,00,00,00,00,00,00,00
1756490934766873,00000194,false,Rx,0,6,14,00,06,00,FE,FF,00,00
1756490934767045,00000488,false,Rx,0,8,08,27,54,00,53,01,88,00
1756490934767143,00000213,false,Rx,0,4,08,00,00,00,00,00,00,00
1756490934767243,00000214,false,Rx,0,4,08,00,00,00,00,00,00,00
1756490934768808,00000710,false,Rx,0,1,7F,00,00,00,00,00,00,00
1756490934773859,00000181,false,Rx,0,8,04,10,00,E9,02,00,00,00
1756490934775333,00000193,false,Rx,0,6,14,00,F8,FF,FE,FF,00,00
1756490934776703,00000194,false,Rx,0,6,14,00,08,00,03,00,00,00
1756490934777055,00000188,false,Rx,0,6,C6,FF,0A,00,FB,03,00,00
1756490934777155,00000213,false,Rx,0,4,08,00,00,00,00,00,00,00
1756490934777250,00000214,false,Rx,0,4,08,00,00,00,00,00,00,00
1756490934777348,00000288,false,Rx,0,6,00,00,01,00,00,00,00,00
1756490934777445,00000488,false,Rx,0,8,08,27,54,00,53,01,88,00
1756490934785160,00000193,false,Rx,0,6,14,00,FA,FF,FF,FF,00,00
1756490934786532,00000194,false,Rx,0,6,14,00,04,00,FF,FF,00,00
1756490934787219,00000188,false,Rx,0,6,B6,FF,15,00,C5,03,00,00
1756490934787366,00000288,false,Rx,0,6,00,00,00,00,00,00,00,00
1756490934787491,00000488,false,Rx,0,8,08,27,54,00,53,01,88,00
1756490934788143,00000213,false,Rx,0,4,08,00,00,00,00,00,00,00
1756490934788237,00000214,false,Rx,0,4,08,00,00,00,00,00,00,00
1756490934795096,00000193,false,Rx,0,6,14,00,F9,FF,F9,FF,00,00
1756490934796462,00000394,false,Rx,0,6,6C,05,DD,01,16,01,00,00
1756490934796575,00000294,false,Rx,0,4,00,A2,B7,FF,00,00,00,00
1756490934796643,00000714,false,Rx,0,1,05,00,00,00,00,00,00,00
1756490934796710,00000734,false,Rx,0,8,01,9A,99,19,40,A2,B7,05
1756490934796846,00000194,false,Rx,0,6,14,00,0E,00,02,00,00,00
1756490934797474,00000188,false,Rx,0,6,B7,FF,0D,00,E5,03,00,00
1756490934797576,00000288,false,Rx,0,6,01,00,00,00,00,00,00,00
1756490934797688,00000488,false,Rx,0,8,08,27,54,00,53,01,88,00
1756490934798106,00000213,false,Rx,0,4,08,00,00,00,00,00,00,00
1756490934798200,00000214,false,Rx,0,4,08,00,00,00,00,00,00,00
1756490934806192,00000193,false,Rx,0,6,14,00,02,00,01,00,00,00
1756490934806443,00000400,false,Rx,0,8,F9,C8,E8,0E,D8,B0,6F,48
1756490934806594,00000401,false,Rx,0,2,23,00,00,00,00,00,00,00
1756490934806717,00000410,false,Rx,0,8,D2,91,5C,FE,43,FA,31,40
1756490934806820,00000194,false,Rx,0,6,14,00,00,00,01,00,00,00
1756490934806902,00000411,false,Rx,0,8,00,00,00,00,00,00,00,00
1756490934807067,00000412,false,Rx,0,8,00,00,00,00,00,00,00,00
1756490934807844,00000188,false,Rx,0,6,C1,FF,0C,00,F0,03,00,00
1756490934807974,00000288,false,Rx,0,6,00,00,00,00,00,00,00,00
1756490934808042,00000413,false,Rx,0,8,00,00,00,00,00,00,00,00
1756490934808106,00000213,false,Rx,0,4,08,00,00,00,00,00,00,00
1756490934808171,00000214,false,Rx,0,4,08,00,00,00,00,00,00,00
1756490934808237,00000488,false,Rx,0,8,08,27,55,00,53,01,88,00
1756490934808568,00000414,false,Rx,0,8,D2,91,5C,FE,43,FA,31,40
1756490934810022,00000415,false,Rx,0,8,00,00,00,00,00,00,00,00
1756490934810170,00000416,false,Rx,0,8,00,00,00,00,00,00,00,00
1756490934810258,00000417,false,Rx,0,8,00,00,00,00,00,00,00,00
1756490934810556,00000418,false,Rx,0,8,D2,91,5C,FE,43,FA,71,40
1756490934810856,00000419,false,Rx,0,8,01,00,00,00,00,00,00,00
1756490934811558,00000400,false,Rx,0,8,F9,C8,E8,0E,D8,B0,6F,48
1756490934811783,00000181,false,Rx,0,8,68,10,00,E9,02,00,00,00
1756490934811897,00000401,false,Rx,0,2,00,00,00,00,00,00,00,00
1756490934811967,00000410,false,Rx,0,8,00,00,00,00,00,00,00,00
1756490934812732,00000411,false,Rx,0,8,00,00,00,00,00,00,00,00
1756490934812940,00000412,false,Rx,0,8,00,00,00,00,00,00,00,00
1756490934813281,00000413,false,Rx,0,8,00,00,00,00,00,00,00,00
1756490934813684,00000414,false,Rx,0,8,00,00,00,00,00,00,00,00
1756490934814679,00000415,false,Rx,0,8,00,00,00,00,00,00,00,00
1756490934814850,00000416,false,Rx,0,8,00,00,00,00,00,00,00,00
1756490934814943,00000193,false,Rx,0,6,14,00,FF,FF,FB,FF,00,00
1756490934815052,00000417,false,Rx,0,8,00,00,00,00,00,00,00,00
1756490934815133,00000418,false,Rx,0,8,00,00,00,00,00,00,00,00
1756490934815596,00000419,false,Rx,0,8,00,00,00,00,00,00,00,00
1756490934816484,00000402,false,Rx,0,8,FC,FF,FF,FF,00,00,00,00
1756490934816716,00000194,false,Rx,0,6,14,00,0E,00,03,00,00,00
1756490934816847,00000403,false,Rx,0,8,03,00,00,00,00,00,00,00
1756490934816946,00000404,false,Rx,0,8,00,00,00,00,00,00,00,00
1756490934818042,00000188,false,Rx,0,6,AE,FF,15,00,CF,03,00,00
1756490934818180,00000288,false,Rx,0,6,00,00,00,00,00,00,00,00
1756490934818258,00000488,false,Rx,0,8,08,27,54,00,53,01,88,00
1756490934818449,00000405,false,Rx,0,8,00,00,00,00,00,00,00,00
1756490934818746,00000406,false,Rx,0,8,00,00,00,00,00,00,00,00
1756490934819227,00000213,false,Rx,0,4,08,00,00,00,00,00,00,00
1756490934819335,00000214,false,Rx,0,4,08,00,00,00,00,00,00,00
1756490934819407,00000407,false,Rx,0,8,00,00,00,00,00,00,00,00
1756490934819471,00000408,false,Rx,0,8,05,00,00,00,00,00,00,00
1756490934824613,00000393,false,Rx,0,6,15,01,D5,01,0F,01,00,00
1756490934824749,00000293,false,Rx,0,4,92,A2,00,00,00,00,00,00
1756490934824816,00000713,false,Rx,0,1,05,00,00,00,00,00,00,00
1756490934824881,00000733,false,Rx,0,8,07,00,00,80,3F,A2,00,05
1756490934824943,00000193,false,Rx,0,6,14,00,FF,FF,FD,FF,00,00
1756490934825891,00000194,false,Rx,0,6,14,00,04,00,05,00,00,00
1756490934828210,00000188,false,Rx,0,6,BA,FF,0F,00,E3,03,00,00
1756490934828336,00000288,false,Rx,0,6,01,00,FF,FF,00,00,00,00
1756490934828410,00000488,false,Rx,0,8,08,27,54,00,53,01,88,00
1756490934828476,00000701,false,Rx,0,1,05,00,00,00,00,00,00,00
1756490934828916,00000213,false,Rx,0,4,08,00,00,00,00,00,00,00
1756490934829002,00000214,false,Rx,0,4,08,00,00,00,00,00,00,00
1756490934834582,00000193,false,Rx,0,6,14,00,FF,FF,F8,FF,00,00
1756490934835926,00000194,false,Rx,0,6,14,00,08,00,04,00,00,00
1756490934838539,00000188,false,Rx,0,6,C2,FF,10,00,F8,03,00,00
1756490934838650,00000288,false,Rx,0,6,00,00,00,00,00,00,00,00
1756490934838720,00000488,false,Rx,0,8,08,27,55,00,53,01,88,00
1756490934838892,00000213,false,Rx,0,4,08,00,00,00,00,00,00,00
1756490934838986,00000214,false,Rx,0,4,08,00,00,00,00,00,00,00
1756490934841321,00000181,false,Rx,0,8,04,10,00,E9,02,00,00,00
1756490934844317,00000193,false,Rx,0,6,14,00,F7,FF,FB,FF,00,00
1756490934845831,00000194,false,Rx,0,6,14,00,04,00,02,00,00,00
1756490934847674,00000400,false,Rx,0,8,F9,C8,E8,0E,D8,B0,6F,48
1756490934847819,00000401,false,Rx,0,2,23,00,00,00,00,00,00,00
1756490934848113,00000410,false,Rx,0,8,0A,D7,A3,70,3D,0A,37,40
1756490934848698,00000188,false,Rx,0,6,B7,FF,19,00,D4,03,00,00
1756490934848825,00000411,false,Rx,0,8,00,00,00,00,00,00,00,00
1756490934848913,00000288,false,Rx,0,6,00,00,00,00,00,00,00,00
1756490934848983,00000488,false,Rx,0,8,08,27,55,00,53,01,88,00
1756490934849052,00000412,false,Rx,0,8,00,00,00,00,00,00,00,00
1756490934849124,00000213,false,Rx,0,4,08,00,00,00,00,00,00,00
1756490934849189,00000214,false,Rx,0,4,08,00,00,00,00,00,00,00
1756490934849354,00000413,false,Rx,0,8,00,00,00,00,00,00,00,00
1756490934849774,00000414,false,Rx,0,8,0A,D7,A3,70,3D,0A,37,40
1756490934850658,00000415,false,Rx,0,8,00,00,00,00,00,00,00,00
1756490934851042,00000416,false,Rx,0,8,00,00,00,00,00,00,00,00
1756490934851605,00000417,false,Rx,0,8,00,00,00,00,00,00,00,00
1756490934851774,00000418,false,Rx,0,8,0A,D7,A3,70,3D,0A,77,40
1756490934851973,00000419,false,Rx,0,8,01,00,00,00,00,00,00,00
1756490934852269,00000400,false,Rx,0,8,F9,C8,E8,0E,D8,B0,6F,48
1756490934852477,00000401,false,Rx,0,2,00,00,00,00,00,00,00,00
1756490934852881,00000410,false,Rx,0,8,00,00,00,00,00,00,00,00
1756490934853778,00000411,false,Rx,0,8,00,00,00,00,00,00,00,00
1756490934854027,00000412,false,Rx,0,8,00,00,00,00,00,00,00,00
1756490934854175,00000193,false,Rx,0,6,14,00,FA,FF,00,00,00,00
1756490934854721,00000413,false,Rx,0,8,00,00,00,00,00,00,00,00
1756490934854919,00000181,false,Rx,0,8,68,10,00,E9,02,00,00,00
1756490934854997,00000414,false,Rx,0,8,00,00,00,00,00,00,00,00
1756490934855270,00000415,false,Rx,0,8,00,00,00,00,00,00,00,00
1756490934855359,00000194,false,Rx,0,6,14,00,0C,00,05,00,00,00
1756490934855696,00000416,false,Rx,0,8,00,00,00,00,00,00,00,00
1756490934855995,00000417,false,Rx,0,8,00,00,00,00,00,00,00,00
1756490934856285,00000418,false,Rx,0,8,00,00,00,00,00,00,00,00
1756490934856809,00000419,false,Rx,0,8,00,00,00,00,00,00,00,00
1756490934857107,00000402,false,Rx,0,8,FE,FF,FF,FF,00,00,00,00
1756490934857410,00000403,false,Rx,0,8,01,00,00,00,00,00,00,00
1756490934858478,00000404,false,Rx,0,8,00,00,00,00,00,00,00,00
1756490934858661,00000188,false,Rx,0,6,BB,FF,16,00,D9,03,00,00
1756490934858733,00000405,false,Rx,0,8,00,00,00,00,00,00,00,00
1756490934858948,00000213,false,Rx,0,4,08,00,00,00,00,00,00,00
1756490934859027,00000214,false,Rx,0,4,08,00,00,00,00,00,00,00
1756490934859135,00000288,false,Rx,0,6,00,00,FF,FF,00,00,00,00
1756490934859226,00000406,false,Rx,0,8,00,00,00,00,00,00,00,00
1756490934859328,00000488,false,Rx,0,8,08,27,55,00,53,01,88,00
1756490934859631,00000407,false,Rx,0,8,00,00,00,00,00,00,00,00
1756490934859924,00000408,false,Rx,0,8,02,00,00,00,00,00,00,00
1756490934863899,00000193,false,Rx,0,6,14,00,08,00,FF,FF,00,00
1756490934865188,00000194,false,Rx,0,6,14,00,FC,FF,01,00,00,00
1756490934868202,00000710,false,Rx,0,1,7F,00,00,00,00,00,00,00
1756490934869902,00000213,false,Rx,0,4,08,00,00,00,00,00,00,00
1756490934870000,00000214,false,Rx,0,4,08,00,00,00,00,00,00,00
1756490934870068,00000188,false,Rx,0,6,C7,FF,0F,00,F5,03,00,00
1756490934870166,00000288,false,Rx,0,6,00,00,00,00,00,00,00,00
1756490934870264,00000488,false,Rx,0,8,08,27,55,00,53,01,88,00
1756490934871022,00000181,false,Rx,0,8,04,10,00,E9,02,00,00,00
1756490934873622,00000193,false,Rx,0,6,14,00,FF,FF,FA,FF,00,00
1756490934874986,00000194,false,Rx,0,6,14,00,FE,FF,05,00,00,00
1756490934877140,00000290,false,Rx,0,7,01,E8,00,00,00,00,00,00
1756490934877235,00000490,false,Rx,0,5,64,00,00,00,00,00,00,00
1756490934879739,00000213,false,Rx,0,4,08,00,00,00,00,00,00,00
1756490934879832,00000214,false,Rx,0,4,08,00,00,00,00,00,00,00
1756490934880113,00000188,false,Rx,0,6,B9,FF,14,00,D0,03,00,00
1756490934880269,00000288,false,Rx,0,6,00,00,00,00,00,00,00,00
1756490934880389,00000488,false,Rx,0,8,08,27,55,00,53,01,88,00
1756490934883527,00000193,false,Rx,0,6,14,00,01,00,FE,FF,00,00
1756490934884229,00000181,false,Rx,0,8,68,10,00,E9,02,00,00,00
1756490934884868,00000194,false,Rx,0,6,14,00,08,00,05,00,00,00
1756490934889708,00000213,false,Rx,0,4,08,00,00,00,00,00,00,00
1756490934889818,00000214,false,Rx,0,4,08,00,00,00,00,00,00,00
1756490934890349,00000188,false,Rx,0,6,C2,FF,11,00,EC,03,00,00
1756490934890458,00000288,false,Rx,0,6,00,00,00,00,00,00,00,00
1756490934890577,00000488,false,Rx,0,8,08,27,54,00,53,01,88,00
1756490934893342,00000193,false,Rx,0,6,14,00,07,00,00,00,00,00
1756490934894686,00000394,false,Rx,0,6,6C,05,DD,01,0E,01,00,00
1756490934894783,00000294,false,Rx,0,4,F8,A1,30,00,00,00,00,00
1756490934894848,00000714,false,Rx,0,1,05,00,00,00,00,00,00,00
1756490934894956,00000734,false,Rx,0,8,02,00,00,C0,3F,A1,30,05
1756490934895054,00000194,false,Rx,0,6,14,00,02,00,01,00,00,00
1756490934897426,00000181,false,Rx,0,8,04,10,00,E9,02,00,00,00
1756490934900596,00000188,false,Rx,0,6,C6,FF,0F,00,FD,03,00,00
1756490934900694,00000288,false,Rx,0,6,00,00,01,00,00,00,00,00
1756490934900788,00000213,false,Rx,0,4,08,00,00,00,00,00,00,00
1756490934900884,00000214,false,Rx,0,4,08,00,00,00,00,00,00,00
1756490934900982,00000488,false,Rx,0,8,08,27,54,00,53,01,88,00
1756490934903081,00000193,false,Rx,0,6,14,00,08,00,FE,FF,00,00
1756490934904458,00000194,false,Rx,0,6,14,00,0E,00,00,00,00,00
1756490934910633,00000213,false,Rx,0,4,08,00,00,00,00,00,00,00
1756490934910745,00000214,false,Rx,0,4,08,00,00,00,00,00,00,00
1756490934910806,00000188,false,Rx,0,6,B7,FF,15,00,CC,03,00,00
1756490934910875,00000288,false,Rx,0,6,00,00,00,00,00,00,00,00
1756490934910986,00000488,false,Rx,0,8,08,27,54,00,53,01,88,00
1756490934912929,00000193,false,Rx,0,6,14,00,FC,FF,FD,FF,00,00
1756490934914332,00000194,false,Rx,0,6,14,00,07,00,03,00,00,00
1756490934920534,00000213,false,Rx,0,4,08,00,00,00,00,00,00,00
1756490934920635,00000214,false,Rx,0,4,08,00,00,00,00,00,00,00
1756490934920937,00000188,false,Rx,0,6,C0,FF,12,00,E7,03,00,00
1756490934921077,00000288,false,Rx,0,6,00,00,FF,FF,00,00,00,00
1756490934921195,00000488,false,Rx,0,8,08,27,54,00,53,01,88,00
1756490934922735,00000393,false,Rx,0,6,15,01,D5,01,0F,01,00,00
1756490934922865,00000293,false,Rx,0,4,62,A2,00,00,00,00,00,00
1756490934922934,00000713,false,Rx,0,1,05,00,00,00,00,00,00,00
1756490934923035,00000733,false,Rx,0,8,08,00,00,80,3F,A2,00,05
1756490934923148,00000193,false,Rx,0,6,14,00,0A,00,FA,FF,00,00
1756490934924131,00000194,false,Rx,0,6,14,00,FE,FF,FE,FF,00,00
1756490934928524,00000701,false,Rx,0,1,05,00,00,00,00,00,00,00
1756490934930349,00000213,false,Rx,0,4,08,00,00,00,00,00,00,00
1756490934930447,00000214,false,Rx,0,4,08,00,00,00,00,00,00,00
1756490934931141,00000188,false,Rx,0,6,C2,FF,09,00,FC,03,00,00
1756490934931300,00000288,false,Rx,0,6,00,00,00,00,00,00,00,00
1756490934931395,00000488,false,Rx,0,8,08,27,54,00,53,01,88,00
1756490934932557,00000193,false,Rx,0,6,14,00,FE,FF,05,00,00,00
1756490934933943,00000194,false,Rx,0,6,14,00,12,00,FF,FF,00,00
1756490934941339,00000188,false,Rx,0,6,B6,FF,18,00,E6,03,00,00
1756490934941434,00000213,false,Rx,0,4,08,00,00,00,00,00,00,00
1756490934941615,00000214,false,Rx,0,4,08,00,00,00,00,00,00,00
1756490934942098,00000288,false,Rx,0,6,00,00,01,00,00,00,00,00
1756490934942213,00000488,false,Rx,0,8,08,27,54,00,53,01,88,00
1756490934942381,00000193,false,Rx,0,6,14,00,00,00,FE,FF,00,00
1756490934943773,00000194,false,Rx,0,6,14,00,0C,00,01,00,00,00
1756490934951265,00000213,false,Rx,0,4,08,00,00,00,00,00,00,00
1756490934951359,00000214,false,Rx,0,4,08,00,00,00,00,00,00,00
1756490934952172,00000188,false,Rx,0,6,C0,FF,0F,00,F7,03,00,00
1756490934952284,00000193,false,Rx,0,6,14,00,04,00,FE,FF,00,00
1756490934952383,00000288,false,Rx,0,6,00,00,00,00,00,00,00,00
1756490934952481,00000488,false,Rx,0,8,08,27,55,00,53,01,88,00
1756490934953593,00000194,false,Rx,0,6,14,00,04,00,FD,FF,00,00
1756490934961215,00000181,false,Rx,0,8,68,10,00,E9,02,00,00,00
1756490934961300,00000213,false,Rx,0,4,08,00,00,00,00,00,00,00
1756490934961401,00000214,false,Rx,0,4,08,00,00,00,00,00,00,00
1756490934962028,00000193,false,Rx,0,6,14,00,08,00,05,00,00,00
1756490934962361,00000188,false,Rx,0,6,B8,FF,11,00,E2,03,00,00
1756490934962468,00000288,false,Rx,0,6,00,00,00,00,00,00,00,00
1756490934962586,00000488,false,Rx,0,8,08,27,55,00,53,01,88,00
1756490934963420,00000194,false,Rx,0,6,14,00,07,00,FF,FF,00,00
1756490934968033,00000710,false,Rx,0,1,7F,00,00,00,00,00,00,00
1756490934971070,00000213,false,Rx,0,4,08,00,00,00,00,00,00,00
1756490934971190,00000214,false,Rx,0,4,08,00,00,00,00,00,00,00
1756490934971866,00000193,false,Rx,0,6,14,00,FE,FF,07,00,00,00
1756490934972512,00000188,false,Rx,0,6,B0,FF,1B,00,D3,03,00,00
1756490934972669,00000288,false,Rx,0,6,00,00,00,00,00,00,00,00
1756490934972794,00000488,false,Rx,0,8,08,27,55,00,53,01,88,00
1756490934973240,00000194,false,Rx,0,6,14,00,02,00,FF,FF,00,00
1756490934974417,00000181,false,Rx,0,8,04,10,00,E9,02,00,00,00
1756490934981738,00000193,false,Rx,0,6,14,00,FC,FF,FF,FF,00,00
1756490934982085,00000213,false,Rx,0,4,08,00,00,00,00,00,00,00
1756490934982186,00000214,false,Rx,0,4,08,00,00,00,00,00,00,00
1756490934982714,00000188,false,Rx,0,6,BF,FF,0F,00,ED,03,00,00
1756490934982868,00000288,false,Rx,0,6,FF,FF,00,00,00,00,00,00
1756490934982985,00000488,false,Rx,0,8,08,27,55,00,54,01,88,00
1756490934983103,00000194,false,Rx,0,6,14,00,00,00,FB,FF,00,00
1756490934987619,00000181,false,Rx,0,8,68,10,00,E9,02,00,00,00
1756490934991536,00000193,false,Rx,0,6,14,00,FD,FF,03,00,00,00
1756490934991993,00000213,false,Rx,0,4,08,00,00,00,00,00,00,00
1756490934992090,00000214,false,Rx,0,4,08,00,00,00,00,00,00,00
1756490934992897,00000394,false,Rx,0,6,6F,05,DD,01,1F,01,00,00
1756490934993011,00000188,false,Rx,0,6,C1,FF,0E,00,FF,03,00,00
1756490934993109,00000288,false,Rx,0,6,FF,FF,00,00,00,00,00,00
1756490934993207,00000294,false,Rx,0,4,0C,A2,93,FF,00,00,00,00
1756490934993306,00000488,false,Rx,0,8,08,27,54,00,54,01,88,00
1756490934993404,00000714,false,Rx,0,1,05,00,00,00,00,00,00,00
1756490934993504,00000734,false,Rx,0,8,03,6F,12,03,3B,A2,93,05
1756490934993604,00000194,false,Rx,0,6,14,00,03,00,02,00,00,00
1756490934999868,00000181,false,Rx,0,8,04,10,00,E9,02,00,00,00
1756490935001356,00000193,false,Rx,0,6,14,00,08,00,FE,FF,00,00
1756490935001996,00000213,false,Rx,0,4,08,00,00,00,00,00,00,00
1756490935002090,00000214,false,Rx,0,4,08,00,00,00,00,00,00,00
1756490935002718,00000194,false,Rx,0,6,14,00,FD,FF,FB,FF,00,00
1756490935003119,00000188,false,Rx,0,6,B7,FF,11,00,D5,03,00,00
1756490935003282,00000288,false,Rx,0,6,00,00,00,00,00,00,00,00
1756490935003395,00000488,false,Rx,0,8,08,27,54,00,54,01,88,00
1756490935011197,00000193,false,Rx,0,6,14,00,05,00,03,00,00,00
1756490935011899,00000213,false,Rx,0,4,08,00,00,00,00,00,00,00
1756490935011994,00000214,false,Rx,0,4,08,00,00,00,00,00,00,00
1756490935012552,00000194,false,Rx,0,6,14,00,0F,00,FB,FF,00,00
1756490935013312,00000188,false,Rx,0,6,B9,FF,19,00,DA,03,00,00
1756490935013471,00000288,false,Rx,0,6,00,00,00,00,00,00,00,00
1756490935013587,00000488,false,Rx,0,8,08,27,54,00,54,01,88,00
1756490935020728,00000181,false,Rx,0,8,68,10,00,E9,02,00,00,00
1756490935020986,00000393,false,Rx,0,6,15,01,D5,01,0F,01,00,00
1756490935021082,00000293,false,Rx,0,4,9C,A2,00,00,00,00,00,00
1756490935021179,00000713,false,Rx,0,1,05,00,00,00,00,00,00,00
1756490935021284,00000733,false,Rx,0,8,09,00,00,00,00,A2,00,05
1756490935021381,00000193,false,Rx,0,6,14,00,FF,FF,04,00,00,00
1756490935022376,00000194,false,Rx,0,6,14,00,FF,FF,FE,FF,00,00
1756490935022898,00000213,false,Rx,0,4,08,00,00,00,00,00,00,00
1756490935022992,00000214,false,Rx,0,4,08,00,00,00,00,00,00,00
1756490935023538,00000188,false,Rx,0,6,C9,FF,0E,00,FE,03,00,00
1756490935023669,00000288,false,Rx,0,6,FF,FF,00,00,00,00,00,00
1756490935023786,00000488,false,Rx,0,8,08,27,54,00,54,01,88,00
1756490935028669,00000701,false,Rx,0,1,05,00,00,00,00,00,00,00
1756490935030830,00000193,false,Rx,0,6,14,00,F6,FF,02,00,00,00
1756490935032208,00000194,false,Rx,0,6,14,00,04,00,FE,FF,00,00
1756490935032804,00000213,false,Rx,0,4,08,00,00,00,00,00,00,00
1756490935032902,00000214,false,Rx,0,4,08,00,00,00,00,00,00,00
1756490935033719,00000188,false,Rx,0,6,BD,FF,0C,00,DA,03,00,00
1756490935033871,00000288,false,Rx,0,6,00,00,00,00,00,00,00,00
1756490935033987,00000488,false,Rx,0,8,08,27,54,00,54,01,88,00
1756490935040674,00000193,false,Rx,0,6,14,00,04,00,05,00,00,00
1756490935042034,00000194,false,Rx,0,6,14,00,0D,00,FB,FF,00,00
1756490935042714,00000213,false,Rx,0,4,08,00,00,00,00,00,00,00
1756490935042809,00000214,false,Rx,0,4,08,00,00,00,00,00,00,00
1756490935044893,00000188,false,Rx,0,6,BC,FF,1F,00,DB,03,00,00
1756490935045009,00000288,false,Rx,0,6,FF,FF,00,00,00,00,00,00
1756490935045127,00000488,false,Rx,0,8,08,27,54,00,54,01,88,00
1756490935050489,00000193,false,Rx,0,6,14,00,FE,FF,FE,FF,00,00
1756490935051866,00000194,false,Rx,0,6,14,00,05,00,02,00,00,00
1756490935053704,00000213,false,Rx,0,4,08,00,00,00,00,00,00,00
1756490935053800,00000214,false,Rx,0,4,08,00,00,00,00,00,00,00
1756490935054976,00000188,false,Rx,0,6,C0,FF,10,00,F4,03,00,00
1756490935055189,00000288,false,Rx,0,6,00,00,00,00,00,00,00,00
1756490935055302,00000488,false,Rx,0,8,08,27,54,00,54,01,88,00
1756490935060331,00000193,false,Rx,0,6,14,00,00,00,00,00,00,00
1756490935061461,00000181,false,Rx,0,8,04,10,00,E9,02,00,00,00
1756490935061684,00000194,false,Rx,0,6,14,00,FB,FF,FC,FF,00,00
1756490935063634,00000213,false,Rx,0,4,08,00,00,00,00,00,00,00
1756490935063713,00000214,false,Rx,0,4,08,00,00,00,00,00,00,00
1756490935065128,00000188,false,Rx,0,6,B8,FF,16,00,CD,03,00,00
1756490935065367,00000288,false,Rx,0,6,FF,FF,00,00,00,00,00,00
1756490935065485,00000488,false,Rx,0,8,08,27,54,00,53,01,88,00
1756490935068071,00000710,false,Rx,0,1,7F,00,00,00,00,00,00,00
1756490935070140,00000193,false,Rx,0,6,14,00,07,00,03,00,00,00
1756490935071517,00000194,false,Rx,0,6,14,00,0A,00,FF,FF,00,00
1756490935073508,00000213,false,Rx,0,4,08,00,00,00,00,00,00,00
1756490935073605,00000214,false,Rx,0,4,08,00,00,00,00,00,00,00
1756490935075330,00000188,false,Rx,0,6,C3,FF,10,00,F4,03,00,00
1756490935075567,00000288,false,Rx,0,6,00,00,00,00,00,00,00,00
1756490935075686,00000488,false,Rx,0,8,08,27,54,00,53,01,88,00
1756490935077207,00000290,false,Rx,0,7,01,E8,00,00,00,00,00,00
1756490935077303,00000490,false,Rx,0,5,64,00,00,00,00,00,00,00
1756490935079963,00000193,false,Rx,0,6,14,00,09,00,00,00,00,00
1756490935081340,00000194,false,Rx,0,6,14,00,08,00,00,00,00,00
1756490935083419,00000213,false,Rx,0,4,08,00,00,00,00,00,00,00
1756490935083513,00000214,false,Rx,0,4,08,00,00,00,00,00,00,00
1756490935085528,00000188,false,Rx,0,6,C1,FF,0D,00,F2,03,00,00
1756490935085775,00000288,false,Rx,0,6,00,00,00,00,00,00,00,00
1756490935085889,00000488,false,Rx,0,8,08,27,54,00,53,01,88,00
1756490935089791,00000193,false,Rx,0,6,14,00,F8,FF,00,00,00,00
1756490935091149,00000181,false,Rx,0,8,68,10,00,E9,02,00,00,00
1756490935091283,00000394,false,Rx,0,6,6F,05,DD,01,1F,01,00,00
1756490935091386,00000294,false,Rx,0,4,ED,A1,EC,FF,00,00,00,00
1756490935091484,00000714,false,Rx,0,1,05,00,00,00,00,00,00,00
1756490935091581,00000734,false,Rx,0,8,04,8F,C2,F5,3F,A1,EC,05
1756490935091766,00000194,false,Rx,0,6,14,00,06,00,00,00,00,00
1756490935094449,00000213,false,Rx,0,4,08,00,00,00,00,00,00,00
1756490935094527,00000214,false,Rx,0,4,08,00,00,00,00,00,00,00
1756490935095732,00000188,false,Rx,0,6,B5,FF,1A,00,CF,03,00,00
1756490935095971,00000288,false,Rx,0,6,00,00,FF,FF,00,00,00,00
1756490935096095,00000488,false,Rx,0,8,08,27,54,00,53,01,88,00
1756490935099668,00000193,false,Rx,0,6,14,00,F5,FF,01,00,00,00
1756490935101003,00000194,false,Rx,0,6,14,00,04,00,01,00,00,00
1756490935104590,00000181,false,Rx,0,8,04,10,00,EA,02,00,00,00
1756490935104825,00000213,false,Rx,0,4,08,00,00,00,00,00,00,00
1756490935104909,00000214,false,Rx,0,4,08,00,00,00,00,00,00,00
1756490935106128,00000188,false,Rx,0,6,B8,FF,0D,00,DF,03,00,00
1756490935106270,00000288,false,Rx,0,6,FF,FF,00,00,00,00,00,00
1756490935106345,00000488,false,Rx,0,8,08,27,54,00,53,01,88,00
1756490935107730,00000400,false,Rx,0,8,F9,C8,E8,0E,D7,B0,6F,48
1756490935108005,00000401,false,Rx,0,2,23,00,00,00,00,00,00,00
1756490935109578,00000410,false,Rx,0,8,0A,D7,A3,70,3D,0A,37,40
1756490935109885,00000411,false,Rx,0,8,00,00,00,00,00,00,00,00
1756490935109982,00000412,false,Rx,0,8,00,00,00,00,00,00,00,00
1756490935110052,00000193,false,Rx,0,6,14,00,FE,FF,FF,FF,00,00
1756490935110119,00000413,false,Rx,0,8,00,00,00,00,00,00,00,00
1756490935110864,00000414,false,Rx,0,8,0A,D7,A3,70,3D,0A,37,40
1756490935111069,00000194,false,Rx,0,6,14,00,02,00,07,00,00,00
1756490935111317,00000415,false,Rx,0,8,00,00,00,00,00,00,00,00
1756490935111457,00000416,false,Rx,0,8,00,00,00,00,00,00,00,00
1756490935111936,00000417,false,Rx,0,8,00,00,00,00,00,00,00,00
1756490935112105,00000418,false,Rx,0,8,0A,D7,A3,70,3D,0A,77,40
1756490935112447,00000419,false,Rx,0,8,01,00,00,00,00,00,00,00
1756490935112775,00000400,false,Rx,0,8,F9,C8,E8,0E,D7,B0,6F,48
1756490935113096,00000401,false,Rx,0,2,00,00,00,00,00,00,00,00
1756490935113387,00000410,false,Rx,0,8,00,00,00,00,00,00,00,00
1756490935113710,00000411,false,Rx,0,8,00,00,00,00,00,00,00,00
1756490935114052,00000412,false,Rx,0,8,00,00,00,00,00,00,00,00
1756490935116139,00000213,false,Rx,0,4,08,00,00,00,00,00,00,00
1756490935116769,00000214,false,Rx,0,4,08,00,00,00,00,00,00,00
1756490935117068,00000413,false,Rx,0,8,00,00,00,00,00,00,00,00
1756490935117165,00000414,false,Rx,0,8,00,00,00,00,00,00,00,00
1756490935117246,00000415,false,Rx,0,8,00,00,00,00,00,00,00,00
1756490935117320,00000416,false,Rx,0,8,00,00,00,00,00,00,00,00
1756490935117391,00000188,false,Rx,0,6,C2,FF,10,00,07,04,00,00
1756490935117453,00000417,false,Rx,0,8,00,00,00,00,00,00,00,00
1756490935117517,00000288,false,Rx,0,6,FF,FF,FF,FF,00,00,00,00
1756490935117578,00000488,false,Rx,0,8,08,27,54,00,53,01,88,00
1756490935117644,00000418,false,Rx,0,8,00,00,00,00,00,00,00,00
1756490935118203,00000419,false,Rx,0,8,00,00,00,00,00,00,00,00
1756490935118595,00000402,false,Rx,0,8,FB,FF,FF,FF,00,00,00,00
1756490935119136,00000403,false,Rx,0,8,04,00,00,00,00,00,00,00
1756490935119989,00000404,false,Rx,0,8,00,00,00,00,00,00,00,00
1756490935120835,00000393,false,Rx,0,6,15,01,D5,01,17,01,00,00
1756490935121010,00000293,false,Rx,0,4,58,A2,00,00,00,00,00,00
1756490935121078,00000004,false,Rx,0,8,00,01,00,00,00,00,00,00
1756490935121146,00000405,false,Rx,0,8,00,00,00,00,00,00,00,00
1756490935121218,00000733,false,Rx,0,8,01,9A,99,19,40,A2,00,05
1756490935121291,00000193,false,Rx,0,6,14,00,08,00,04,00,00,00
1756490935121359,00000406,false,Rx,0,8,00,00,00,00,00,00,00,00
1756490935121425,00000407,false,Rx,0,8,00,00,00,00,00,00,00,00
1756490935121493,00000194,false,Rx,0,6,14,00,FF,FF,00,00,00,00
1756490935121556,00000408,false,Rx,0,8,06,00,00,00,00,00,00,00
1756490935121616,00000181,false,Rx,0,8,68,10,00,E9,02,00,00,00
1756490935125373,00000213,false,Rx,0,4,08,00,00,00,00,00,00,00
1756490935125473,00000214,false,Rx,0,4,08,00,00,00,00,00,00,00
1756490935126439,00000188,false,Rx,0,6,B6,FF,17,00,D7,03,00,00
1756490935127276,00000288,false,Rx,0,6,00,00,00,00,00,00,00,00
1756490935127356,00000488,false,Rx,0,8,08,27,54,00,53,01,88,00
1756490935128831,00000701,false,Rx,0,1,05,00,00,00,00,00,00,00
1756490935129101,00000193,false,Rx,0,6,14,00,FB,FF,FB,FF,00,00
1756490935130530,00000194,false,Rx,0,6,14,00,00,00,04,00,00,00
1756490935135246,00000213,false,Rx,0,4,08,00,00,00,00,00,00,00
1756490935135352,00000214,false,Rx,0,4,08,00,00,00,00,00,00,00
1756490935137418,00000188,false,Rx,0,6,C5,FF,0B,00,0A,04,00,00
1756490935137617,00000288,false,Rx,0,6,00,00,00,00,00,00,00,00
1756490935137686,00000488,false,Rx,0,8,08,27,54,00,53,01,88,00
1756490935139030,00000193,false,Rx,0,6,14,00,F1,FF,01,00,00,00
1756490935140364,00000194,false,Rx,0,6,14,00,00,00,04,00,00,00
1756490935140735,00000181,false,Rx,0,8,04,10,00,E9,02,00,00,00
1756490935145173,00000213,false,Rx,0,4,08,00,00,00,00,00,00,00
1756490935145273,00000214,false,Rx,0,4,08,00,00,00,00,00,00,00
1756490935147583,00000188,false,Rx,0,6,B8,FF,14,00,E5,03,00,00
1756490935147737,00000288,false,Rx,0,6,00,00,00,00,00,00,00,00
1756490935147802,00000488,false,Rx,0,8,08,27,54,00,53,01,88,00
1756490935148888,00000193,false,Rx,0,6,14,00,F5,FF,02,00,00,00
1756490935150216,00000194,false,Rx,0,6,14,00,05,00,02,00,00,00
1756490935155082,00000213,false,Rx,0,4,08,00,00,00,00,00,00,00
1756490935155218,00000214,false,Rx,0,4,08,00,00,00,00,00,00,00
1756490935157692,00000188,false,Rx,0,6,B1,FF,15,00,CB,03,00,00
1756490935157897,00000288,false,Rx,0,6,00,00,01,00,00,00,00,00
1756490935157960,00000488,false,Rx,0,8,08,27,54,00,53,01,88,00
1756490935158654,00000193,false,Rx,0,6,14,00,01,00,FD,FF,00,00
1756490935160107,00000194,false,Rx,0,6,14,00,08,00,03,00,00,00
1756490935166161,00000213,false,Rx,0,4,08,00,00,00,00,00,00,00
1756490935166288,00000214,false,Rx,0,4,08,00,00,00,00,00,00,00
1756490935167893,00000188,false,Rx,0,6,C3,FF,0E,00,F5,03,00,00
1756490935168083,00000288,false,Rx,0,6,00,00,00,00,00,00,00,00
1756490935168148,00000488,false,Rx,0,8,08,27,54,00,53,01,88,00
1756490935168447,00000193,false,Rx,0,6,14,00,F9,FF,FF,FF,00,00
1756490935169921,00000194,false,Rx,0,6,14,00,0A,00,01,00,00,00
1756490935171203,00000710,false,Rx,0,1,7F,00,00,00,00,00,00,00
1756490935175991,00000213,false,Rx,0,4,08,00,00,00,00,00,00,00
1756490935176095,00000214,false,Rx,0,4,08,00,00,00,00,00,00,00
1756490935178084,00000188,false,Rx,0,6,C2,FF,0D,00,F9,03,00,00
1756490935178213,00000288,false,Rx,0,6,00,00,00,00,00,00,00,00
1756490935178337,00000193,false,Rx,0,6,14,00,05,00,01,00,00,00
1756490935178466,00000488,false,Rx,0,8,08,27,54,00,53,01,88,00
1756490935179669,00000194,false,Rx,0,6,14,00,06,00,00,00,00,00
1756490935185889,00000213,false,Rx,0,4,08,00,00,00,00,00,00,00
1756490935186001,00000214,false,Rx,0,4,08,00,00,00,00,00,00,00
1756490935188143,00000193,false,Rx,0,6,14,00,04,00,FC,FF,00,00
1756490935188300,00000188,false,Rx,0,6,B5,FF,0C,00,CA,03,00,00
1756490935188420,00000288,false,Rx,0,6,00,00,01,00,00,00,00,00
1756490935188543,00000488,false,Rx,0,8,08,27,54,00,53,01,88,00
1756490935189468,00000394,false,Rx,0,6,6F,05,DD,01,28,01,00,00
1756490935189576,00000294,false,Rx,0,4,FC,A1,83,FF,00,00,00,00
1756490935189675,00000714,false,Rx,0,1,05,00,00,00,00,00,00,00
1756490935189772,00000734,false,Rx,0,8,05,00,00,C0,3F,A1,83,05
1756490935189887,00000194,false,Rx,0,6,14,00,0D,00,02,00,00,00
1756490935195896,00000213,false,Rx,0,4,08,00,00,00,00,00,00,00
1756490935196009,00000214,false,Rx,0,4,08,00,00,00,00,00,00,00
1756490935197934,00000193,false,Rx,0,6,14,00,02,00,01,00,00,00
1756490935198498,00000188,false,Rx,0,6,BF,FF,0E,00,E3,03,00,00
1756490935198623,00000288,false,Rx,0,6,00,00,00,00,00,00,00,00
1756490935198738,00000488,false,Rx,0,8,08,27,54,00,54,01,88,00
1756490935199310,00000194,false,Rx,0,6,14,00,FF,FF,00,00,00,00
1756490935207086,00000213,false,Rx,0,4,08,00,00,00,00,00,00,00
1756490935207221,00000214,false,Rx,0,4,08,00,00,00,00,00,00,00
1756490935207772,00000193,false,Rx,0,6,14,00,FC,FF,FD,FF,00,00
1756490935208707,00000188,false,Rx,0,6,C5,FF,07,00,FA,03,00,00
1756490935208841,00000288,false,Rx,0,6,FF,FF,00,00,00,00,00,00
1756490935208992,00000488,false,Rx,0,8,08,27,54,00,54,01,88,00
1756490935209230,00000194,false,Rx,0,6,14,00,00,00,FE,FF,00,00
1756490935216810,00000213,false,Rx,0,4,08,00,00,00,00,00,00,00
1756490935216927,00000214,false,Rx,0,4,08,00,00,00,00,00,00,00
1756490935217555,00000393,false,Rx,0,6,15,01,D5,01,17,01,00,00
1756490935217656,00000293,false,Rx,0,4,70,A2,00,00,00,00,00,00
1756490935217754,00000713,false,Rx,0,1,05,00,00,00,00,00,00,00
1756490935217859,00000733,false,Rx,0,8,02,00,00,C0,3F,A2,00,05
1756490935217984,00000193,false,Rx,0,6,14,00,F8,FF,FE,FF,00,00
1756490935218862,00000188,false,Rx,0,6,B8,FF,17,00,E2,03,00,00
1756490935218979,00000194,false,Rx,0,6,14,00,02,00,FE,FF,00,00
1756490935220260,00000288,false,Rx,0,6,00,00,00,00,00,00,00,00
1756490935220396,00000488,false,Rx,0,8,08,27,54,00,54,01,88,00
1756490935225262,00000190,false,Rx,0,8,00,C9,C9,C9,C9,C9,C8,C9
1756490935225429,00000190,false,Rx,0,8,07,C9,C9,C9,C9,C9,C9,C9
1756490935225550,00000190,false,Rx,0,8,15,C9,C9,C9,C9,C9,C9,C9
1756490935225669,00000190,false,Rx,0,8,1C,C9,C8,C8,C9,C9,C9,C9
1756490935225788,00000190,false,Rx,0,8,23,C9,C9,C8,C9,C9,C9,C9
1756490935225888,00000190,false,Rx,0,8,0E,C9,C8,C9,C9,C9,C9,C9
1756490935225988,00000190,false,Rx,0,8,2A,C9,C9,C8,C9,C9,C9,C9
1756490935226114,00000190,false,Rx,0,8,31,C9,C9,C9,C9,C9,C9,C9
1756490935226248,00000190,false,Rx,0,8,3F,C9,C9,C9,C9,C9,C9,C9
1756490935226368,00000190,false,Rx,0,8,46,C9,C9,C9,C9,C9,C9,C9
1756490935226467,00000190,false,Rx,0,8,38,C9,C9,C9,C8,C9,C9,C7
1756490935226565,00000190,false,Rx,0,8,4D,C9,C9,C9,C9,C9,C9,C9
1756490935226683,00000190,false,Rx,0,8,54,C9,C9,C9,C9,C9,C9,C9
1756490935226782,00000190,false,Rx,0,8,62,C9,C7,C9,C9,C9,C9,C9
1756490935226881,00000190,false,Rx,0,8,5B,C9,C9,C9,C9,C9,C9,C9
1756490935226996,00000213,false,Rx,0,4,08,00,00,00,00,00,00,00
1756490935227054,00000214,false,Rx,0,4,08,00,00,00,00,00,00,00
1756490935227421,00000193,false,Rx,0,6,14,00,04,00,FA,FF,00,00
1756490935228828,00000194,false,Rx,0,6,14,00,0B,00,F9,FF,00,00
1756490935228977,00000701,false,Rx,0,1,05,00,00,00,00,00,00,00
1756490935230255,00000188,false,Rx,0,6,C8,FF,14,00,04,04,00,00
1756490935230362,00000288,false,Rx,0,6,00,00,00,00,00,00,00,00
1756490935230460,00000390,false,Rx,0,8,07,3D,3D,3D,3D,3D,3D,3D
1756490935230579,00000390,false,Rx,0,8,15,3D,3D,3D,3D,3D,3D,3D
1756490935230696,00000390,false,Rx,0,8,1C,3D,3D,3D,3D,3D,3D,3D
1756490935230819,00000390,false,Rx,0,8,23,3D,3D,3D,3D,3D,3D,3D
1756490935230949,00000390,false,Rx,0,8,2A,3D,3D,3D,3D,3D,3D,3D
1756490935231050,00000390,false,Rx,0,8,0E,3D,3D,3D,3D,3D,3D,3D
1756490935231149,00000390,false,Rx,0,8,31,3D,3D,3D,3D,3D,3D,3D
1756490935231331,00000390,false,Rx,0,8,38,3D,3D,3D,3D,3D,3D,3D
1756490935231431,00000390,false,Rx,0,8,46,3D,3D,3D,3D,3D,3D,3D
1756490935231548,00000390,false,Rx,0,8,4D,3D,3D,3D,13,13,13,13
1756490935231665,00000390,false,Rx,0,8,3F,3D,3D,3D,3D,3D,3D,3D
1756490935231783,00000390,false,Rx,0,8,54,13,13,13,13,3D,3D,3D
1756490935231900,00000390,false,Rx,0,8,5B,3D,3D,3D,3D,3D,3D,3D
1756490935232025,00000390,false,Rx,0,8,69,3D,3D,3D,3D,3D,3D,3D
1756490935232136,00000390,false,Rx,0,8,70,3D,3D,3D,3D,3D,3D,3D
1756490935232238,00000390,false,Rx,0,8,62,3D,3D,3D,3D,3D,3D,3D
1756490935232358,00000390,false,Rx,0,8,77,3D,3D,3D,3D,3D,3D,3D
1756490935232477,00000390,false,Rx,0,8,7E,3D,3D,13,13,13,13,13
1756490935232596,00000390,false,Rx,0,8,8C,3D,3D,3D,3D,3D,3D,3D
1756490935232716,00000390,false,Rx,0,8,85,13,13,13,3D,3D,3D,3D
1756490935232816,00000390,false,Rx,0,8,93,3D,3D,3D,3D,3D,3D,3D
1756490935232916,00000390,false,Rx,0,8,9A,3D,3D,3D,3D,3D,3D,3D
1756490935233034,00000390,false,Rx,0,8,A8,3D,3D,3D,3D,3D,3D,3D
1756490935233155,00000390,false,Rx,0,8,AF,3D,3D,3D,3D,3D,3D,3D
1756490935233283,00000390,false,Rx,0,8,A1,3D,3D,3D,3D,3D,3D,3D
1756490935233404,00000390,false,Rx,0,8,B6,3D,3D,3D,3D,3D,3D,3D
1756490935233504,00000390,false,Rx,0,8,BD,3D,3D,3D,3D,3D,3D,3D
1756490935233602,00000390,false,Rx,0,8,CB,13,13,13,13,13,3D,3D
1756490935233719,00000390,false,Rx,0,8,C4,3D,3D,3D,3D,13,13,13
1756490935233835,00000390,false,Rx,0,8,D2,3D,3D,3D,3D,3D,3D,3D
1756490935233951,00000390,false,Rx,0,8,D9,3D,3D,3D,3D,3D,3D,3D
1756490935234012,00000488,false,Rx,0,8,08,27,54,00,54,01,88,00
1756490935236614,00000213,false,Rx,0,4,08,00,00,00,00,00,00,00
1756490935236732,00000214,false,Rx,0,4,08,00,00,00,00,00,00,00
1756490935237239,00000193,false,Rx,0,6,14,00,02,00,FC,FF,00,00
1756490935238622,00000194,false,Rx,0,6,14,00,0C,00,FB,FF,00,00
1756490935240374,00000188,false,Rx,0,6,BB,FF,0B,00,D4,03,00,00
1756490935240614,00000288,false,Rx,0,6,00,00,01,00,00,00,00,00
1756490935241077,00000181,false,Rx,0,8,68,10,00,E9,02,00,00,00
1756490935242266,00000488,false,Rx,0,8,08,27,54,00,54,01,88,00
1756490935247072,00000193,false,Rx,0,6,14,00,FC,FF,02,00,00,00
1756490935247626,00000213,false,Rx,0,4,08,00,00,00,00,00,00,00
1756490935247728,00000214,false,Rx,0,4,08,00,00,00,00,00,00,00
1756490935248449,00000194,false,Rx,0,6,14,00,05,00,FE,FF,00,00
1756490935250342,00000188,false,Rx,0,6,C6,FF,10,00,F5,03,00,00
1756490935250493,00000288,false,Rx,0,6,00,00,00,00,00,00,00,00
1756490935252555,00000488,false,Rx,0,8,08,27,54,00,54,01,88,00
1756490935254262,00000181,false,Rx,0,8,04,10,00,E9,02,00,00,00
1756490935256900,00000193,false,Rx,0,6,14,00,FC,FF,FD,FF,00,00
1756490935257527,00000213,false,Rx,0,4,08,00,00,00,00,00,00,00
1756490935257637,00000214,false,Rx,0,4,08,00,00,00,00,00,00,00
1756490935258271,00000194,false,Rx,0,6,14,00,04,00,FC,FF,00,00
1756490935260575,00000188,false,Rx,0,6,C0,FF,0F,00,F3,03,00,00
1756490935260800,00000288,false,Rx,0,6,00,00,00,00,00,00,00,00
1756490935262846,00000488,false,Rx,0,8,08,27,54,00,54,01,88,00
1756490935266770,00000193,false,Rx,0,6,14,00,00,00,FD,FF,00,00
1756490935267485,00000181,false,Rx,0,8,68,10,00,E9,02,00,00,00
1756490935267657,00000213,false,Rx,0,4,08,00,00,00,00,00,00,00
1756490935267718,00000214,false,Rx,0,4,08,00,00,00,00,00,00,00
1756490935268102,00000194,false,Rx,0,6,14,00,01,00,FC,FF,00,00
1756490935270878,00000188,false,Rx,0,6,B6,FF,15,00,C9,03,00,00
1756490935271096,00000288,false,Rx,0,6,00,00,00,00,00,00,00,00
1756490935273150,00000488,false,Rx,0,8,08,27,54,00,54,01,88,00
1756490935276555,00000193,false,Rx,0,6,14,00,FB,FF,FF,FF,00,00
1756490935277931,00000194,false,Rx,0,6,14,00,10,00,FA,FF,00,00
1756490935278431,00000213,false,Rx,0,4,08,00,00,00,00,00,00,00
1756490935278535,00000214,false,Rx,0,4,08,00,00,00,00,00,00,00
1756490935279078,00000710,false,Rx,0,1,7F,00,00,00,00,00,00,00
1756490935279239,00000290,false,Rx,0,7,01,E8,00,00,00,00,00,00
1756490935279301,00000490,false,Rx,0,5,64,00,00,00,00,00,00,00
1756490935280677,00000181,false,Rx,0,8,04,10,00,E9,02,00,00,00
1756490935281177,00000188,false,Rx,0,6,BC,FF,14,00,E5,03,00,00
1756490935281394,00000288,false,Rx,0,6,00,00,00,00,00,00,00,00
1756490935283448,00000488,false,Rx,0,8,08,27,54,00,54,01,88,00
1756490935286382,00000193,false,Rx,0,6,14,00,FD,FF,FF,FF,00,00
1756490935287737,00000394,false,Rx,0,6,6F,05,DD,01,28,01,00,00
1756490935287848,00000294,false,Rx,0,4,E8,A1,9F,FF,00,00,00,00
1756490935287962,00000714,false,Rx,0,1,05,00,00,00,00,00,00,00
1756490935288061,00000734,false,Rx,0,8,06,6F,12,03,3B,A1,9F,05
1756490935288179,00000194,false,Rx,0,6,14,00,05,00,FB,FF,00,00
1756490935288375,00000213,false,Rx,0,4,08,00,00,00,00,00,00,00
1756490935288471,00000214,false,Rx,0,4,08,00,00,00,00,00,00,00
1756490935291486,00000188,false,Rx,0,6,C5,FF,10,00,FA,03,00,00
1756490935292260,00000288,false,Rx,0,6,00,00,00,00,00,00,00,00
1756490935293815,00000488,false,Rx,0,8,08,27,54,00,54,01,88,00
1756490935296210,00000193,false,Rx,0,6,14,00,07,00,00,00,00,00
1756490935297580,00000194,false,Rx,0,6,14,00,0B,00,FE,FF,00,00
1756490935298344,00000213,false,Rx,0,4,08,00,00,00,00,00,00,00
1756490935298450,00000214,false,Rx,0,4,08,00,00,00,00,00,00,00
1756490935302355,00000188,false,Rx,0,6,B8,FF,18,00,CE,03,00,00
1756490935302494,00000288,false,Rx,0,6,00,00,00,00,00,00,00,00
1756490935305120,00000488,false,Rx,0,8,08,27,54,00,54,01,88,00
1756490935306030,00000193,false,Rx,0,6,14,00,06,00,FE,FF,00,00
1756490935307408,00000194,false,Rx,0,6,14,00,0D,00,FB,FF,00,00
1756490935308272,00000213,false,Rx,0,4,08,00,00,00,00,00,00,00
1756490935308381,00000214,false,Rx,0,4,08,00,00,00,00,00,00,00
1756490935312308,00000188,false,Rx,0,6,C6,FF,0E,00,FA,03,00,00
1756490935312418,00000288,false,Rx,0,6,00,00,00,00,00,00,00,00
1756490935315134,00000488,false,Rx,0,8,08,27,54,00,54,01,88,00
1756490935315836,00000393,false,Rx,0,6,15,01,D5,01,0F,01,00,00
1756490935315943,00000293,false,Rx,0,4,63,A2,00,00,00,00,00,00
1756490935316041,00000713,false,Rx,0,1,05,00,00,00,00,00,00,00
1756490935316136,00000733,false,Rx,0,8,03,6F,12,03,3B,A2,00,05
1756490935316252,00000193,false,Rx,0,6,14,00,0B,00,FC,FF,00,00
1756490935317240,00000194,false,Rx,0,6,14,00,04,00,F9,FF,00,00
1756490935319251,00000213,false,Rx,0,4,08,00,00,00,00,00,00,00
1756490935319364,00000214,false,Rx,0,4,08,00,00,00,00,00,00,00
1756490935321494,00000181,false,Rx,0,8,68,10,00,E9,02,00,00,00
1756490935322312,00000188,false,Rx,0,6,B8,FF,0E,00,DF,03,00,00
1756490935322435,00000288,false,Rx,0,6,00,00,00,00,00,00,00,00
1756490935325173,00000488,false,Rx,0,8,08,27,54,00,54,01,88,00
1756490935325681,00000193,false,Rx,0,6,14,00,F3,FF,04,00,00,00
1756490935327063,00000194,false,Rx,0,6,14,00,FE,FF,04,00,00,00
1756490935329142,00000213,false,Rx,0,4,08,00,00,00,00,00,00,00
1756490935329248,00000214,false,Rx,0,4,08,00,00,00,00,00,00,00
1756490935329362,00000701,false,Rx,0,1,05,00,00,00,00,00,00,00
1756490935332487,00000188,false,Rx,0,6,B1,FF,0B,00,D5,03,00,00
1756490935332611,00000288,false,Rx,0,6,00,00,00,00,00,00,00,00
1756490935334694,00000181,false,Rx,0,8,04,10,00,E9,02,00,00,00
1756490935335474,00000488,false,Rx,0,8,08,27,54,00,53,01,88,00
1756490935335601,00000193,false,Rx,0,6,14,00,FD,FF,FF,FF,00,00
1756490935336892,00000194,false,Rx,0,6,14,00,FD,FF,02,00,00,00
1756490935339042,00000213,false,Rx,0,4,08,00,00,00,00,00,00,00
1756490935339146,00000214,false,Rx,0,4,08,00,00,00,00,00,00,00
1756490935342774,00000188,false,Rx,0,6,BF,FF,0C,00,FA,03,00,00
1756490935342897,00000288,false,Rx,0,6,00,00,00,00,00,00,00,00
1756490935345338,00000193,false,Rx,0,6,14,00,0D,00,00,00,00,00
1756490935345767,00000488,false,Rx,0,8,08,27,54,00,53,01,88,00
1756490935346721,00000194,false,Rx,0,6,14,00,06,00,02,00,00,00
1756490935350050,00000213,false,Rx,0,4,08,00,00,00,00,00,00,00
1756490935350153,00000214,false,Rx,0,4,08,00,00,00,00,00,00,00
1756490935353076,00000188,false,Rx,0,6,BB,FF,0C,00,F6,03,00,00
1756490935353199,00000288,false,Rx,0,6,00,00,FF,FF,00,00,00,00
1756490935355184,00000193,false,Rx,0,6,14,00,04,00,05,00,00,00
1756490935356328,00000488,false,Rx,0,8,08,27,54,00,54,01,88,00
1756490935356450,00000100,false,Rx,0,6,3B,F0,E4,03,70,3B,00,00
1756490935356889,00000194,false,Rx,0,6,14,00,04,00,FA,FF,00,00
1756490935360159,00000213,false,Rx,0,4,08,00,00,00,00,00,00,00
1756490935360279,00000214,false,Rx,0,4,08,00,00,00,00,00,00,00
1756490935363555,00000188,false,Rx,0,6,AA,FF,15,00,CE,03,00,00
1756490935363647,00000288,false,Rx,0,6,00,00,00,00,00,00,00,00
1756490935365296,00000193,false,Rx,0,6,14,00,F6,FF,FD,FF,00,00
1756490935366396,00000488,false,Rx,0,8,08,27,54,00,53,01,88,00
1756490935366642,00000194,false,Rx,0,6,14,00,05,00,FB,FF,00,00
1756490935369868,00000213,false,Rx,0,4,08,00,00,00,00,00,00,00
1756490935369980,00000214,false,Rx,0,4,08,00,00,00,00,00,00,00
1756490935371014,00000181,false,Rx,0,8,68,10,00,E9,02,00,00,00
1756490935373749,00000188,false,Rx,0,6,B8,FF,0E,00,F4,03,00,00
1756490935373837,00000288,false,Rx,0,6,00,00,00,00,00,00,00,00
1756490935375094,00000193,false,Rx,0,6,14,00,FF,FF,FD,FF,00,00
1756490935376461,00000194,false,Rx,0,6,14,00,01,00,FD,FF,00,00
1756490935377336,00000488,false,Rx,0,8,08,27,54,00,54,01,88,00
1756490935379083,00000710,false,Rx,0,1,7F,00,00,00,00,00,00,00
1756490935379768,00000213,false,Rx,0,4,08,00,00,00,00,00,00,00
1756490935379871,00000214,false,Rx,0,4,08,00,00,00,00,00,00,00
1756490935383374,00000188,false,Rx,0,6,B4,FF,15,00,CF,03,00,00
1756490935383501,00000288,false,Rx,0,6,FF,FF,01,00,00,00,00,00
1756490935384911,00000193,false,Rx,0,6,14,00,03,00,FC,FF,00,00
1756490935386268,00000394,false,Rx,0,6,6F,05,DD,01,0E,01,00,00
1756490935386382,00000294,false,Rx,0,4,E4,A1,7D,00,00,00,00,00
1756490935386487,00000714,false,Rx,0,1,05,00,00,00,00,00,00,00
1756490935386656,00000734,false,Rx,0,8,07,00,00,80,3F,A1,7D,05
1756490935386718,00000194,false,Rx,0,6,14,00,00,00,FC,FF,00,00
1756490935387572,00000488,false,Rx,0,8,08,27,53,00,54,01,88,00
1756490935390898,00000181,false,Rx,0,8,04,10,00,E9,02,00,00,00
1756490935391040,00000213,false,Rx,0,4,08,00,00,00,00,00,00,00
1756490935391101,00000214,false,Rx,0,4,08,00,00,00,00,00,00,00
1756490935393695,00000188,false,Rx,0,6,BE,FF,17,00,E8,03,00,00
1756490935393989,00000288,false,Rx,0,6,00,00,01,00,00,00,00,00
1756490935394744,00000193,false,Rx,0,6,14,00,FC,FF,FA,FF,00,00
1756490935396143,00000194,false,Rx,0,6,14,00,FC,FF,FC,FF,00,00
1756490935397900,00000488,false,Rx,0,8,08,27,53,00,54,01,88,00
1756490935400757,00000213,false,Rx,0,4,08,00,00,00,00,00,00,00
1756490935400844,00000214,false,Rx,0,4,08,00,00,00,00,00,00,00
1756490935403972,00000188,false,Rx,0,6,C7,FF,10,00,F8,03,00,00
1756490935404111,00000181,false,Rx,0,8,68,10,00,E9,02,00,00,00
1756490935404726,00000193,false,Rx,0,6,14,00,EB,FF,02,00,00,00
1756490935405135,00000288,false,Rx,0,6,00,00,00,00,00,00,00,00
1756490935406021,00000194,false,Rx,0,6,14,00,FB,FF,00,00,00,00
1756490935408173,00000488,false,Rx,0,8,08,27,53,00,54,01,88,00
1756490935410774,00000213,false,Rx,0,4,08,00,00,00,00,00,00,00
1756490935410861,00000214,false,Rx,0,4,08,00,00,00,00,00,00,00
1756490935414467,00000393,false,Rx,0,6,15,01,D5,01,0F,01,00,00
1756490935414586,00000293,false,Rx,0,4,54,A2,00,00,00,00,00,00
1756490935414688,00000713,false,Rx,0,1,05,00,00,00,00,00,00,00
1756490935414806,00000733,false,Rx,0,8,04,8F,C2,F5,3F,A2,00,05
1756490935414866,00000193,false,Rx,0,6,14,00,F5,FF,FD,FF,00,00
1756490935415148,00000188,false,Rx,0,6,B8,FF,1A,00,CF,03,00,00
1756490935415393,00000288,false,Rx,0,6,01,00,FF,FF,00,00,00,00
1756490935415789,00000194,false,Rx,0,6,14,00,00,00,05,00,00,00
1756490935417249,00000181,false,Rx,0,8,04,10,00,E9,02,00,00,00
1756490935418468,00000488,false,Rx,0,8,08,27,54,00,54,01,88,00
1756490935420570,00000213,false,Rx,0,4,08,00,00,00,00,00,00,00
1756490935420646,00000214,false,Rx,0,4,08,00,00,00,00,00,00,00
1756490935424239,00000193,false,Rx,0,6,14,00,0A,00,00,00,00,00
1756490935425488,00000188,false,Rx,0,6,B8,FF,13,00,D2,03,00,00
1756490935425649,00000194,false,Rx,0,6,14,00,01,00,04,00,00,00
1756490935425711,00000288,false,Rx,0,6,01,00,00,00,00,00,00,00
1756490935428829,00000488,false,Rx,0,8,08,27,54,00,54,01,88,00
1756490935429471,00000701,false,Rx,0,1,05,00,00,00,00,00,00,00
1756490935431502,00000213,false,Rx,0,4,08,00,00,00,00,00,00,00
1756490935431619,00000214,false,Rx,0,4,08,00,00,00,00,00,00,00
1756490935434056,00000193,false,Rx,0,6,14,00,FC,FF,09,00,00,00
1756490935435437,00000194,false,Rx,0,6,14,00,0A,00,06,00,00,00
1756490935435769,00000188,false,Rx,0,6,C9,FF,13,00,FD,03,00,00
1756490935436093,00000288,false,Rx,0,6,00,00,00,00,00,00,00,00
1756490935439091,00000488,false,Rx,0,8,08,27,54,00,54,01,88,00
1756490935441411,00000213,false,Rx,0,4,08,00,00,00,00,00,00,00
1756490935441531,00000214,false,Rx,0,4,08,00,00,00,00,00,00,00
1756490935443889,00000193,false,Rx,0,6,14,00,FD,FF,03,00,00,00
1756490935445271,00000194,false,Rx,0,6,14,00,03,00,06,00,00,00
1756490935446082,00000188,false,Rx,0,6,C2,FF,0A,00,F3,03,00,00
1756490935446302,00000288,false,Rx,0,6,00,00,00,00,00,00,00,00
1756490935450405,00000488,false,Rx,0,8,08,27,54,00,54,01,88,00
1756490935451360,00000181,false,Rx,0,8,04,10,00,E9,02,00,00,00
1756490935451703,00000213,false,Rx,0,4,08,00,00,00,00,00,00,00
1756490935451771,00000214,false,Rx,0,4,08,00,00,00,00,00,00,00
1756490935453717,00000193,false,Rx,0,6,14,00,FE,FF,01,00,00,00
1756490935455098,00000194,false,Rx,0,6,14,00,07,00,01,00,00,00
1756490935455488,00000188,false,Rx,0,6,C7,FF,0D,00,FA,03,00,00
1756490935455628,00000288,false,Rx,0,6,00,00,00,00,00,00,00,00
1756490935460720,00000488,false,Rx,0,8,08,27,54,00,54,01,88,00
1756490935462375,00000213,false,Rx,0,4,08,00,00,00,00,00,00,00
1756490935462458,00000214,false,Rx,0,4,08,00,00,00,00,00,00,00
1756490935463546,00000193,false,Rx,0,6,14,00,08,00,02,00,00,00
1756490935464616,00000181,false,Rx,0,8,04,10,00,E9,02,00,00,00
1756490935464912,00000194,false,Rx,0,6,14,00,FC,FF,08,00,00,00
1756490935465675,00000188,false,Rx,0,6,C3,FF,0D,00,ED,03,00,00
1756490935465904,00000288,false,Rx,0,6,00,00,00,00,00,00,00,00
1756490935471073,00000488,false,Rx,0,8,08,27,54,00,54,01,88,00
1756490935472319,00000213,false,Rx,0,4,08,00,00,00,00,00,00,00
1756490935472389,00000214,false,Rx,0,4,08,00,00,00,00,00,00,00
1756490935473372,00000193,false,Rx,0,6,14,00,00,00,02,00,00,00
1756490935474776,00000194,false,Rx,0,6,14,00,FA,FF,04,00,00,00
1756490935475978,00000188,false,Rx,0,6,B5,FF,17,00,C8,03,00,00
1756490935476320,00000288,false,Rx,0,6,00,00,00,00,00,00,00,00
1756490935479291,00000710,false,Rx,0,1,7F,00,00,00,00,00,00,00
1756490935479411,00000290,false,Rx,0,7,01,E8,00,00,00,00,00,00
1756490935479474,00000490,false,Rx,0,5,64,00,00,00,00,00,00,00
1756490935481166,00000181,false,Rx,0,8,68,10,00,E9,02,00,00,00
1756490935481344,00000488,false,Rx,0,8,08,27,54,00,54,01,88,00
1756490935482131,00000213,false,Rx,0,4,08,00,00,00,00,00,00,00
1756490935482234,00000214,false,Rx,0,4,08,00,00,00,00,00,00,00
1756490935483220,00000193,false,Rx,0,6,14,00,F5,FF,08,00,00,00
1756490935484558,00000394,false,Rx,0,6,73,05,DD,01,16,01,00,00
1756490935484732,00000294,false,Rx,0,4,E2,A1,D8,FF,00,00,00,00
1756490935484962,00000714,false,Rx,0,1,05,00,00,00,00,00,00,00
1756490935485032,00000734,false,Rx,0,8,08,00,00,80,3F,A1,D8,05
1756490935485094,00000194,false,Rx,0,6,14,00,0B,00,05,00,00,00
1756490935486463,00000188,false,Rx,0,6,BB,FF,11,00,E4,03,00,00
1756490935486548,00000288,false,Rx,0,6,00,00,00,00,00,00,00,00
1756490935491596,00000488,false,Rx,0,8,08,27,54,00,54,01,88,00
1756490935492035,00000213,false,Rx,0,4,08,00,00,00,00,00,00,00
1756490935492136,00000214,false,Rx,0,4,08,00,00,00,00,00,00,00
1756490935493022,00000193,false,Rx,0,6,14,00,FF,FF,05,00,00,00
1756490935494282,00000181,false,Rx,0,8,04,10,00,E9,02,00,00,00
1756490935494419,00000194,false,Rx,0,6,14,00,FF,FF,07,00,00,00
1756490935496571,00000188,false,Rx,0,6,C6,FF,18,00,06,04,00,00
1756490935497455,00000288,false,Rx,0,6,00,00,00,00,00,00,00,00
1756490935502416,00000488,false,Rx,0,8,08,27,54,00,54,01,88,00
1756490935502829,00000193,false,Rx,0,6,14,00,08,00,03,00,00,00
1756490935503054,00000213,false,Rx,0,4,08,00,00,00,00,00,00,00
1756490935503180,00000214,false,Rx,0,4,08,00,00,00,00,00,00,00
1756490935504231,00000194,false,Rx,0,6,14,00,09,00,01,00,00,00
1756490935506558,00000188,false,Rx,0,6,BB,FF,16,00,E4,03,00,00
1756490935507365,00000288,false,Rx,0,6,01,00,00,00,00,00,00,00
1756490935507491,00000181,false,Rx,0,8,68,10,00,E9,02,00,00,00
1756490935512551,00000488,false,Rx,0,8,08,27,54,00,54,01,88,00
1756490935512668,00000393,false,Rx,0,6,17,01,D5,01,0F,01,00,00
1756490935512825,00000293,false,Rx,0,4,62,A2,00,00,00,00,00,00
1756490935512925,00000713,false,Rx,0,1,05,00,00,00,00,00,00,00
1756490935513022,00000733,false,Rx,0,8,05,00,00,C0,3F,A2,00,05
1756490935513103,00000193,false,Rx,0,6,14,00,04,00,04,00,00,00
1756490935513200,00000213,false,Rx,0,4,08,00,00,00,00,00,00,00
1756490935513260,00000214,false,Rx,0,4,08,00,00,00,00,00,00,00
1756490935514038,00000194,false,Rx,0,6,14,00,05,00,06,00,00,00
1756490935517380,00000188,false,Rx,0,6,CA,FF,08,00,01,04,00,00
1756490935517597,00000288,false,Rx,0,6,00,00,00,00,00,00,00,00
1756490935520781,00000181,false,Rx,0,8,04,10,00,E9,02,00,00,00
1756490935522489,00000193,false,Rx,0,6,14,00,F4,FF,00,00,00,00
1756490935522838,00000488,false,Rx,0,8,08,27,54,00,54,01,88,00
1756490935522943,00000213,false,Rx,0,4,08,00,00,00,00,00,00,00
1756490935523062,00000214,false,Rx,0,4,08,00,00,00,00,00,00,00
1756490935523866,00000194,false,Rx,0,6,14,00,04,00,08,00,00,00
1756490935527658,00000188,false,Rx,0,6,B9,FF,11,00,DB,03,00,00
1756490935527902,00000288,false,Rx,0,6,00,00,00,00,00,00,00,00
1756490935529710,00000701,false,Rx,0,1,05,00,00,00,00,00,00,00
1756490935532312,00000193,false,Rx,0,6,14,00,08,00,03,00,00,00
1756490935532844,00000213,false,Rx,0,4,08,00,00,00,00,00,00,00
1756490935532948,00000214,false,Rx,0,4,08,00,00,00,00,00,00,00
1756490935533157,00000488,false,Rx,0,8,08,27,54,00,54,01,88,00
1756490935533691,00000194,false,Rx,0,6,14,00,FC,FF,FD,FF,00,00
1756490935537958,00000188,false,Rx,0,6,B3,FF,17,00,C5,03,00,00
1756490935538199,00000288,false,Rx,0,6,00,00,00,00,00,00,00,00
1756490935542144,00000193,false,Rx,0,6,14,00,F8,FF,05,00,00,00
1756490935543450,00000488,false,Rx,0,8,08,27,54,00,54,01,88,00
1756490935543557,00000194,false,Rx,0,6,14,00,0D,00,00,00,00,00
1756490935543863,00000213,false,Rx,0,4,08,00,00,00,00,00,00,00
1756490935543962,00000214,false,Rx,0,4,08,00,00,00,00,00,00,00
1756490935548260,00000188,false,Rx,0,6,C2,FF,14,00,F5,03,00,00
1756490935548492,00000288,false,Rx,0,6,00,00,00,00,00,00,00,00
1756490935551588,00000181,false,Rx,0,8,68,10,00,E9,02,00,00,00
1756490935551962,00000193,false,Rx,0,6,14,00,09,00,02,00,00,00
1756490935553346,00000194,false,Rx,0,6,14,00,03,00,00,00,00,00
1756490935553743,00000488,false,Rx,0,8,08,27,54,00,54,01,88,00
1756490935553846,00000213,false,Rx,0,4,08,00,00,00,00,00,00,00
1756490935553961,00000214,false,Rx,0,4,08,00,00,00,00,00,00,00
1756490935558559,00000188,false,Rx,0,6,C3,FF,0C,00,F4,03,00,00
1756490935558789,00000288,false,Rx,0,6,00,00,00,00,00,00,00,00
1756490935561797,00000193,false,Rx,0,6,14,00,F3,FF,05,00,00,00
1756490935563196,00000194,false,Rx,0,6,14,00,05,00,FC,FF,00,00
1756490935563660,00000213,false,Rx,0,4,08,00,00,00,00,00,00,00
1756490935563769,00000214,false,Rx,0,4,08,00,00,00,00,00,00,00
1756490935564057,00000488,false,Rx,0,8,08,27,54,00,54,01,88,00
1756490935564854,00000181,false,Rx,0,8,04,10,00,E9,02,00,00,00
1756490935568871,00000188,false,Rx,0,6,B4,FF,17,00,C6,03,00,00
1756490935569097,00000288,false,Rx,0,6,FF,FF,00,00,00,00,00,00
1756490935571628,00000193,false,Rx,0,6,14,00,F6,FF,03,00,00,00
1756490935573002,00000194,false,Rx,0,6,14,00,06,00,02,00,00,00
1756490935574648,00000213,false,Rx,0,4,08,00,00,00,00,00,00,00
1756490935574752,00000214,false,Rx,0,4,08,00,00,00,00,00,00,00
1756490935575233,00000488,false,Rx,0,8,08,27,54,00,54,01,88,00
1756490935578335,00000188,false,Rx,0,6,C5,FF,0F,00,05,04,00,00
1756490935578591,00000288,false,Rx,0,6,01,00,00,00,00,00,00,00
1756490935579103,00000710,false,Rx,0,1,7F,00,00,00,00,00,00,00
1756490935581327,00000181,false,Rx,0,8,68,10,00,E9,02,00,00,00
1756490935581452,00000193,false,Rx,0,6,14,00,00,00,03,00,00,00
1756490935582807,00000394,false,Rx,0,6,73,05,DD,01,1F,01,00,00
1756490935582914,00000294,false,Rx,0,4,12,A2,AB,FF,00,00,00,00
1756490935583013,00000714,false,Rx,0,1,05,00,00,00,00,00,00,00
1756490935583109,00000734,false,Rx,0,8,09,00,00,00,00,A2,AB,05
1756490935583245,00000194,false,Rx,0,6,14,00,07,00,FE,FF,00,00
1756490935584552,00000213,false,Rx,0,4,08,00,00,00,00,00,00,00
1756490935584659,00000214,false,Rx,0,4,08,00,00,00,00,00,00,00
1756490935585490,00000488,false,Rx,0,8,08,27,54,00,54,01,88,00
1756490935588629,00000188,false,Rx,0,6,B6,FF,12,00,D5,03,00,00
1756490935588888,00000288,false,Rx,0,6,00,00,FF,FF,01,00,00,00
1756490935591278,00000193,false,Rx,0,6,14,00,0C,00,03,00,00,00
1756490935592654,00000194,false,Rx,0,6,14,00,00,00,FC,FF,00,00
1756490935594449,00000213,false,Rx,0,4,08,00,00,00,00,00,00,00
1756490935594554,00000214,false,Rx,0,4,08,00,00,00,00,00,00,00
1756490935595791,00000488,false,Rx,0,8,08,27,54,00,54,01,88,00
1756490935598930,00000188,false,Rx,0,6,BE,FF,11,00,ED,03,00,00
1756490935600418,00000288,false,Rx,0,6,FF,FF,02,00,00,00,00,00
1756490935601105,00000193,false,Rx,0,6,14,00,FC,FF,FF,FF,00,00
1756490935601231,00000181,false,Rx,0,8,04,10,00,E9,02,00,00,00
1756490935602481,00000194,false,Rx,0,6,14,00,09,00,FD,FF,00,00
1756490935605454,00000213,false,Rx,0,4,08,00,00,00,00,00,00,00
1756490935605561,00000214,false,Rx,0,4,08,00,00,00,00,00,00,00
1756490935607432,00000488,false,Rx,0,8,08,27,54,00,54,01,88,00
1756490935610443,00000188,false,Rx,0,6,B8,FF,14,00,E6,03,00,00
1756490935610558,00000288,false,Rx,0,6,00,00,00,00,00,00,00,00
1756490935610903,00000393,false,Rx,0,6,17,01,D5,01,0F,01,00,00
1756490935611006,00000293,false,Rx,0,4,46,A2,00,00,00,00,00,00
1756490935611104,00000713,false,Rx,0,1,05,00,00,00,00,00,00,00
1756490935611222,00000733,false,Rx,0,8,06,6F,12,03,3B,A2,00,05
1756490935611345,00000193,false,Rx,0,6,14,00,FC,FF,05,00,00,00
1756490935612311,00000194,false,Rx,0,6,14,00,FE,FF,FB,FF,00,00
1756490935615364,00000213,false,Rx,0,4,08,00,00,00,00,00,00,00
1756490935615470,00000214,false,Rx,0,4,08,00,00,00,00,00,00,00
1756490935616477,00000488,false,Rx,0,8,08,27,54,00,54,01,88,00
1756490935620672,00000188,false,Rx,0,6,B5,FF,0F,00,E0,03,00,00
1756490935620786,00000193,false,Rx,0,6,14,00,FC,FF,00,00,00,00
1756490935620915,00000288,false,Rx,0,6,00,00,00,00,00,00,00,00
1756490935622131,00000194,false,Rx,0,6,14,00,0D,00,FC,FF,00,00
1756490935625432,00000213,false,Rx,0,4,08,00,00,00,00,00,00,00
1756490935625560,00000214,false,Rx,0,4,08,00,00,00,00,00,00,00
1756490935626712,00000488,false,Rx,0,8,08,27,54,00,54,01,88,00
1756490935629932,00000701,false,Rx,0,1,05,00,00,00,00,00,00,00
1756490935630547,00000193,false,Rx,0,6,14,00,03,00,FF,FF,00,00
1756490935630805,00000188,false,Rx,0,6,B2,FF,18,00,D8,03,00,00
1756490935630946,00000288,false,Rx,0,6,00,00,00,00,00,00,00,00
1756490935631919,00000194,false,Rx,0,6,14,00,04,00,FE,FF,00,00
1756490935635140,00000213,false,Rx,0,4,08,00,00,00,00,00,00,00
1756490935635243,00000214,false,Rx,0,4,08,00,00,00,00,00,00,00
1756490935637449,00000488,false,Rx,0,8,08,27,54,00,54,01,88,00
1756490935640377,00000193,false,Rx,0,6,14,00,F5,FF,00,00,00,00
1756490935640615,00000188,false,Rx,0,6,B9,FF,0F,00,ED,03,00,00
1756490935640729,00000288,false,Rx,0,6,01,00,00,00,00,00,00,00
1756490935641741,00000194,false,Rx,0,6,14,00,0D,00,FE,FF,00,00
1756490935646160,00000213,false,Rx,0,4,08,00,00,00,00,00,00,00
1756490935646250,00000214,false,Rx,0,4,08,00,00,00,00,00,00,00
1756490935647731,00000488,false,Rx,0,8,08,27,54,00,54,01,88,00
1756490935650201,00000193,false,Rx,0,6,14,00,FF,FF,FF,FF,00,00
1756490935650907,00000188,false,Rx,0,6,B8,FF,0E,00,CE,03,00,00
1756490935651050,00000288,false,Rx,0,6,FF,FF,00,00,00,00,00,00
1756490935651569,00000194,false,Rx,0,6,14,00,03,00,FD,FF,00,00
1756490935651721,00000181,false,Rx,0,8,04,10,00,E9,02,00,00,00
1756490935656047,00000213,false,Rx,0,4,08,00,00,00,00,00,00,00
1756490935656141,00000214,false,Rx,0,4,08,00,00,00,00,00,00,00
1756490935658025,00000488,false,Rx,0,8,08,27,54,00,54,01,88,00
1756490935660034,00000193,false,Rx,0,6,14,00,0B,00,02,00,00,00
1756490935661206,00000188,false,Rx,0,6,C7,FF,15,00,F9,03,00,00
1756490935661349,00000288,false,Rx,0,6,00,00,00,00,00,00,00,00
1756490935661466,00000194,false,Rx,0,6,14,00,07,00,00,00,00,00
1756490935663787,00000181,false,Rx,0,8,68,10,00,E9,02,00,00,00
1756490935665983,00000213,false,Rx,0,4,08,00,00,00,00,00,00,00
1756490935666060,00000214,false,Rx,0,4,08,00,00,00,00,00,00,00
1756490935668331,00000488,false,Rx,0,8,08,27,54,00,54,01,88,00
1756490935669849,00000193,false,Rx,0,6,14,00,08,00,FF,FF,00,00
1756490935671230,00000194,false,Rx,0,6,14,00,FB,FF,FD,FF,00,00
1756490935671501,00000188,false,Rx,0,6,C6,FF,09,00,F2,03,00,00
1756490935672343,00000288,false,Rx,0,6,00,00,00,00,00,00,00,00
1756490935675863,00000213,false,Rx,0,4,08,00,00,00,00,00,00,00
1756490935675960,00000214,false,Rx,0,4,08,00,00,00,00,00,00,00
1756490935676988,00000181,false,Rx,0,8,04,10,00,E9,02,00,00,00
1756490935678630,00000488,false,Rx,0,8,08,27,54,00,54,01,88,00
1756490935679088,00000710,false,Rx,0,1,7F,00,00,00,00,00,00,00
1756490935679208,00000290,false,Rx,0,7,01,E8,00,00,00,00,00,00
1756490935679307,00000490,false,Rx,0,5,64,00,00,00,00,00,00,00
1756490935679674,00000193,false,Rx,0,6,14,00,F8,FF,FC,FF,00,00
1756490935681046,00000394,false,Rx,0,6,73,05,DD,01,0E,01,00,00
1756490935681139,00000294,false,Rx,0,4,23,A2,28,00,00,00,00,00
1756490935681236,00000714,false,Rx,0,1,05,00,00,00,00,00,00,00
1756490935681335,00000734,false,Rx,0,8,01,9A,99,19,40,A2,28,05
1756490935681432,00000194,false,Rx,0,6,14,00,0C,00,00,00,00,00
1756490935682600,00000188,false,Rx,0,6,B2,FF,18,00,CD,03,00,00
1756490935682717,00000288,false,Rx,0,6,00,00,FF,FF,00,00,00,00
1756490935686858,00000213,false,Rx,0,4,08,00,00,00,00,00,00,00
1756490935686952,00000214,false,Rx,0,4,08,00,00,00,00,00,00,00
1756490935688028,00000488,false,Rx,0,8,08,27,54,00,54,01,88,00
1756490935689502,00000193,false,Rx,0,6,14,00,FB,FF,FF,FF,00,00
1756490935690217,00000181,false,Rx,0,8,04,10,00,EA,02,00,00,00
1756490935690870,00000194,false,Rx,0,6,14,00,09,00,00,00,00,00
1756490935692811,00000188,false,Rx,0,6,C0,FF,0F,00,E8,03,00,00
1756490935692927,00000288,false,Rx,0,6,00,00,00,00,00,00,00,00
1756490935696766,00000213,false,Rx,0,4,08,00,00,00,00,00,00,00
1756490935696862,00000214,false,Rx,0,4,08,00,00,00,00,00,00,00
1756490935698227,00000488,false,Rx,0,8,08,27,54,00,54,01,88,00
1756490935699328,00000193,false,Rx,0,6,14,00,04,00,FD,FF,00,00
1756490935700704,00000194,false,Rx,0,6,14,00,05,00,FC,FF,00,00
1756490935703011,00000188,false,Rx,0,6,C9,FF,13,00,06,04,00,00
1756490935703126,00000288,false,Rx,0,6,00,00,00,00,00,00,00,00
1756490935706668,00000213,false,Rx,0,4,08,00,00,00,00,00,00,00
1756490935706764,00000214,false,Rx,0,4,08,00,00,00,00,00,00,00
1756490935708433,00000488,false,Rx,0,8,08,27,54,00,54,01,88,00
1756490935709146,00000393,false,Rx,0,6,17,01,D5,01,17,01,00,00
1756490935709243,00000293,false,Rx,0,4,75,A2,00,00,00,00,00,00
1756490935709340,00000713,false,Rx,0,1,05,00,00,00,00,00,00,00
1756490935709440,00000733,false,Rx,0,8,07,00,00,80,3F,A2,00,05
1756490935709541,00000193,false,Rx,0,6,14,00,08,00,01,00,00,00
1756490935710529,00000194,false,Rx,0,6,14,00,04,00,04,00,00,00
1756490935711126,00000181,false,Rx,0,8,68,10,00,E9,02,00,00,00
1756490935713215,00000188,false,Rx,0,6,BB,FF,09,00,DB,03,00,00
1756490935713326,00000288,false,Rx,0,6,00,00,00,00,00,00,00,00
1756490935717673,00000213,false,Rx,0,4,08,00,00,00,00,00,00,00
1756490935717768,00000214,false,Rx,0,4,08,00,00,00,00,00,00,00
1756490935718621,00000488,false,Rx,0,8,08,27,54,00,54,01,88,00
1756490935718983,00000193,false,Rx,0,6,14,00,F6,FF,FF,FF,00,00
1756490935720360,00000194,false,Rx,0,6,14,00,FB,FF,00,00,00,00
1756490935723411,00000188,false,Rx,0,6,B8,FF,17,00,CC,03,00,00
1756490935723527,00000288,false,Rx,0,6,00,00,FF,FF,00,00,00,00
1756490935724355,00000181,false,Rx,0,8,04,10,00,E9,02,00,00,00
1756490935727589,00000213,false,Rx,0,4,08,00,00,00,00,00,00,00
1756490935727681,00000214,false,Rx,0,4,08,00,00,00,00,00,00,00
1756490935728809,00000193,false,Rx,0,6,14,00,0B,00,FC,FF,00,00
1756490935728921,00000488,false,Rx,0,8,08,27,54,00,54,01,88,00
1756490935730187,00000194,false,Rx,0,6,14,00,0E,00,00,00,00,00
1756490935730281,00000701,false,Rx,0,1,05,00,00,00,00,00,00,00
1756490935733613,00000188,false,Rx,0,6,C7,FF,0F,00,F7,03,00,00
1756490935733726,00000288,false,Rx,0,6,00,00,00,00,00,00,00,00
1756490935737488,00000213,false,Rx,0,4,08,00,00,00,00,00,00,00
1756490935737581,00000214,false,Rx,0,4,08,00,00,00,00,00,00,00
1756490935738635,00000193,false,Rx,0,6,14,00,06,00,FC,FF,00,00
1756490935739022,00000488,false,Rx,0,8,08,27,54,00,54,01,88,00
1756490935740018,00000194,false,Rx,0,6,14,00,00,00,02,00,00,00
1756490935743816,00000188,false,Rx,0,6,BD,FF,12,00,F0,03,00,00
1756490935743927,00000288,false,Rx,0,6,00,00,00,00,00,00,00,00
1756490935747399,00000213,false,Rx,0,4,08,00,00,00,00,00,00,00
1756490935747493,00000214,false,Rx,0,4,08,00,00,00,00,00,00,00
1756490935748463,00000193,false,Rx,0,6,14,00,FC,FF,FF,FF,00,00
1756490935749837,00000194,false,Rx,0,6,14,00,08,00,06,00,00,00
1756490935750409,00000488,false,Rx,0,8,08,27,54,00,53,01,88,00
1756490935754010,00000188,false,Rx,0,6,CB,FF,0A,00,FE,03,00,00
1756490935754124,00000288,false,Rx,0,6,FF,FF,00,00,00,00,00,00
1756490935758292,00000193,false,Rx,0,6,14,00,EF,FF,FC,FF,00,00
1756490935758406,00000213,false,Rx,0,4,08,00,00,00,00,00,00,00
1756490935758504,00000214,false,Rx,0,4,08,00,00,00,00,00,00,00
1756490935759681,00000194,false,Rx,0,6,14,00,03,00,02,00,00,00
1756490935760492,00000488,false,Rx,0,8,08,27,54,00,53,01,88,00
1756490935761728,00000181,false,Rx,0,8,68,10,00,E9,02,00,00,00
1756490935763219,00000188,false,Rx,0,6,BE,FF,10,00,EA,03,00,00
1756490935763345,00000288,false,Rx,0,6,00,00,01,00,00,00,00,00
1756490935768146,00000193,false,Rx,0,6,14,00,07,00,FB,FF,00,00
1756490935768310,00000213,false,Rx,0,4,08,00,00,00,00,00,00,00
1756490935768407,00000214,false,Rx,0,4,08,00,00,00,00,00,00,00
1756490935769502,00000194,false,Rx,0,6,14,00,04,00,03,00,00,00
1756490935770753,00000488,false,Rx,0,8,08,27,54,00,53,01,88,00
1756490935773403,00000188,false,Rx,0,6,B2,FF,15,00,CA,03,00,00
1756490935773517,00000288,false,Rx,0,6,FF,FF,00,00,00,00,00,00
1756490935774932,00000181,false,Rx,0,8,04,10,00,E9,02,00,00,00
1756490935777954,00000193,false,Rx,0,6,14,00,FE,FF,FA,FF,00,00
1756490935778226,00000213,false,Rx,0,4,08,00,00,00,00,00,00,00
1756490935778319,00000214,false,Rx,0,4,08,00,00,00,00,00,00,00
1756490935779125,00000710,false,Rx,0,1,7F,00,00,00,00,00,00,00
1756490935779324,00000394,false,Rx,0,6,73,05,DD,01,0E,01,00,00
1756490935779422,00000294,false,Rx,0,4,16,A2,6D,00,00,00,00,00
1756490935779519,00000714,false,Rx,0,1,05,00,00,00,00,00,00,00
1756490935779616,00000734,false,Rx,0,8,02,00,00,C0,3F,A2,6D,05
1756490935779722,00000194,false,Rx,0,6,14,00,00,00,02,00,00,00
1756490935780951,00000488,false,Rx,0,8,08,27,54,00,53,01,88,00
1756490935783596,00000188,false,Rx,0,6,B8,FF,14,00,E5,03,00,00
1756490935783708,00000288,false,Rx,0,6,00,00,00,00,00,00,00,00
1756490935787777,00000193,false,Rx,0,6,14,00,04,00,FC,FF,00,00
1756490935788110,00000213,false,Rx,0,4,08,00,00,00,00,00,00,00
