Time Stamp,ID,Extended,Dir,Bus,LEN,D1,D2,D3,D4,D5,D6,D7,D8,D9,D10,D11,D12
1756487808518347,00000281,false,Rx,0,1,60,00,00,00,00,00,00,00
1756487808519003,00000488,false,Rx,0,8,0A,27,52,00,4A,01,0A,00
1756487808522992,00000194,false,Rx,0,6,14,00,FA,FF,07,00,00,00
1756487808523439,00000213,false,Rx,0,4,08,00,00,00,00,00,00,00
1756487808524192,00000393,false,Rx,0,6,FE,00,C5,01,07,01,00,00
1756487808524296,00000293,false,Rx,0,4,B1,A3,00,00,00,00,00,00
1756487808524400,00000713,false,Rx,0,1,05,00,00,00,00,00,00,00
1756487808524527,00000733,false,Rx,0,8,08,00,00,80,3F,A3,00,05
1756487808524632,00000181,false,Rx,0,8,04,10,00,E9,02,00,00,00
1756487808524731,00000193,false,Rx,0,6,14,00,FE,FF,02,00,00,00
1756487808525541,00000188,false,Rx,0,6,C2,FF,0D,00,EE,03,00,00
1756487808525695,00000288,false,Rx,0,6,00,00,00,00,00,00,00,00
1756487808525757,00000214,false,Rx,0,4,08,00,00,00,00,00,00,00
1756487808529148,00000488,false,Rx,0,8,0A,27,52,00,4A,01,0A,00
1756487808532218,00000213,false,Rx,0,4,08,00,00,00,00,00,00,00
1756487808532803,00000194,false,Rx,0,6,14,00,FA,FF,00,00,00,00
1756487808533337,00000214,false,Rx,0,4,08,00,00,00,00,00,00,00
1756487808534045,00000193,false,Rx,0,6,14,00,00,00,04,00,00,00
1756487808535741,00000188,false,Rx,0,6,BF,FF,07,00,F0,03,00,00
1756487808535866,00000288,false,Rx,0,6,00,00,00,00,00,00,00,00
1756487808539343,00000488,false,Rx,0,8,0A,27,52,00,4A,01,0A,00
1756487808542109,00000213,false,Rx,0,4,08,00,00,00,00,00,00,00
1756487808542215,00000214,false,Rx,0,4,08,00,00,00,00,00,00,00
1756487808542623,00000194,false,Rx,0,6,14,00,04,00,02,00,00,00
1756487808543875,00000193,false,Rx,0,6,14,00,F7,FF,03,00,00,00
1756487808545912,00000188,false,Rx,0,6,B7,FF,17,00,D3,03,00,00
1756487808546016,00000288,false,Rx,0,6,00,00,00,00,00,00,00,00
1756487808549567,00000488,false,Rx,0,8,0A,27,51,00,4A,01,0A,00
1756487808552053,00000181,false,Rx,0,8,04,10,00,E9,02,00,00,00
1756487808552162,00000213,false,Rx,0,4,08,00,00,00,00,00,00,00
1756487808552314,00000214,false,Rx,0,4,08,00,00,00,00,00,00,00
1756487808552463,00000194,false,Rx,0,6,14,00,04,00,04,00,00,00
1756487808553710,00000193,false,Rx,0,6,14,00,F8,FF,01,00,00,00
1756487808556251,00000188,false,Rx,0,6,C3,FF,0F,00,EA,03,00,00
1756487808556365,00000288,false,Rx,0,6,00,00,00,00,00,00,00,00
1756487808560410,00000488,false,Rx,0,8,0A,27,51,00,4A,01,0A,00
1756487808561915,00000213,false,Rx,0,4,08,00,00,00,00,00,00,00
1756487808562023,00000214,false,Rx,0,4,08,00,00,00,00,00,00,00
1756487808562266,00000394,false,Rx,0,6,45,05,CD,01,F9,00,00,00
1756487808562370,00000294,false,Rx,0,4,4E,A3,AF,FF,00,00,00,00
1756487808562470,00000714,false,Rx,0,1,05,00,00,00,00,00,00,00
1756487808562566,00000734,false,Rx,0,8,09,00,00,00,00,A3,AF,05
1756487808562683,00000194,false,Rx,0,6,14,00,05,00,01,00,00,00
1756487808563526,00000193,false,Rx,0,6,14,00,00,00,02,00,00,00
1756487808565273,00000181,false,Rx,0,8,04,10,00,E9,02,00,00,00
1756487808565785,00000188,false,Rx,0,6,BC,FF,15,00,DD,03,00,00
1756487808565906,00000288,false,Rx,0,6,00,00,00,00,00,00,00,00
1756487808570555,00000488,false,Rx,0,8,0A,27,51,00,4A,01,0A,00
1756487808572117,00000194,false,Rx,0,6,14,00,F0,FF,03,00,00,00
1756487808572938,00000213,false,Rx,0,4,08,00,00,00,00,00,00,00
1756487808573043,00000214,false,Rx,0,4,08,00,00,00,00,00,00,00
1756487808573346,00000193,false,Rx,0,6,14,00,F5,FF,07,00,00,00
1756487808575936,00000188,false,Rx,0,6,BE,FF,12,00,E0,03,00,00
1756487808576064,00000288,false,Rx,0,6,00,00,00,00,00,00,00,00
1756487808580747,00000488,false,Rx,0,8,0A,27,51,00,4A,01,0A,00
1756487808581945,00000194,false,Rx,0,6,14,00,F8,FF,00,00,00,00
1756487808582840,00000213,false,Rx,0,4,08,00,00,00,00,00,00,00
1756487808582937,00000214,false,Rx,0,4,08,00,00,00,00,00,00,00
1756487808583181,00000193,false,Rx,0,6,14,00,F4,FF,04,00,00,00
1756487808586119,00000188,false,Rx,0,6,C5,FF,04,00,F8,03,00,00
1756487808586222,00000288,false,Rx,0,6,00,00,00,00,00,00,00,00
1756487808590994,00000488,false,Rx,0,8,0A,27,51,00,4A,01,0A,00
1756487808591341,00000701,false,Rx,0,1,05,00,00,00,00,00,00,00
1756487808591808,00000194,false,Rx,0,6,14,00,F9,FF,00,00,00,00
1756487808592752,00000213,false,Rx,0,4,08,00,00,00,00,00,00,00
1756487808592894,00000214,false,Rx,0,4,08,00,00,00,00,00,00,00
1756487808593010,00000193,false,Rx,0,6,14,00,02,00,05,00,00,00
1756487808593503,00000710,false,Rx,0,1,7F,00,00,00,00,00,00,00
1756487808596342,00000188,false,Rx,0,6,BB,FF,18,00,E2,03,00,00
1756487808596470,00000288,false,Rx,0,6,00,00,00,00,00,00,00,00
1756487808601158,00000488,false,Rx,0,8,0A,27,51,00,4A,01,0A,00
1756487808601591,00000194,false,Rx,0,6,14,00,F9,FF,02,00,00,00
1756487808602843,00000193,false,Rx,0,6,14,00,01,00,01,00,00,00
1756487808603744,00000213,false,Rx,0,4,08,00,00,00,00,00,00,00
1756487808603848,00000214,false,Rx,0,4,08,00,00,00,00,00,00,00
1756487808606522,00000188,false,Rx,0,6,BE,FF,0F,00,DC,03,00,00
1756487808606636,00000288,false,Rx,0,6,00,00,00,00,00,00,00,00
1756487808611354,00000488,false,Rx,0,8,0A,27,51,00,4A,01,0A,00
1756487808611473,00000194,false,Rx,0,6,14,00,F9,FF,FF,FF,00,00
1756487808612602,00000181,false,Rx,0,8,04,10,00,E9,02,00,00,00
1756487808612708,00000193,false,Rx,0,6,14,00,FC,FF,FF,FF,00,00
1756487808613656,00000213,false,Rx,0,4,08,00,00,00,00,00,00,00
1756487808613759,00000214,false,Rx,0,4,08,00,00,00,00,00,00,00
1756487808616742,00000188,false,Rx,0,6,C4,FF,0D,00,F5,03,00,00
1756487808616864,00000288,false,Rx,0,6,00,00,00,00,00,00,00,00
1756487808621255,00000194,false,Rx,0,6,14,00,FE,FF,01,00,00,00
1756487808621550,00000488,false,Rx,0,8,0A,27,51,00,4A,01,0A,00
1756487808622473,00000393,false,Rx,0,6,FE,00,C5,01,07,01,00,00
1756487808622581,00000293,false,Rx,0,4,AA,A3,00,00,00,00,00,00
1756487808622680,00000713,false,Rx,0,1,05,00,00,00,00,00,00,00
1756487808622779,00000733,false,Rx,0,8,09,00,00,00,00,A3,00,05
1756487808622902,00000193,false,Rx,0,6,14,00,06,00,05,00,00,00
1756487808623567,00000213,false,Rx,0,4,08,00,00,00,00,00,00,00
1756487808623664,00000214,false,Rx,0,4,08,00,00,00,00,00,00,00
1756487808625796,00000181,false,Rx,0,8,04,10,00,E9,02,00,00,00
1756487808626929,00000188,false,Rx,0,6,BD,FF,11,00,E7,03,00,00
1756487808627052,00000288,false,Rx,0,6,00,00,00,00,00,00,00,00
1756487808631097,00000194,false,Rx,0,6,14,00,FB,FF,00,00,00,00
1756487808631739,00000488,false,Rx,0,8,0A,27,51,00,4A,01,0A,00
1756487808632319,00000193,false,Rx,0,6,14,00,06,00,FD,FF,00,00
1756487808633470,00000213,false,Rx,0,4,08,00,00,00,00,00,00,00
1756487808633592,00000214,false,Rx,0,4,08,00,00,00,00,00,00,00
1756487808637140,00000188,false,Rx,0,6,BD,FF,12,00,DB,03,00,00
1756487808637267,00000288,false,Rx,0,6,00,00,00,00,00,00,00,00
1756487808639003,00000181,false,Rx,0,8,04,10,00,E9,02,00,00,00
1756487808640907,00000194,false,Rx,0,6,14,00,FA,FF,FE,FF,00,00
1756487808641945,00000488,false,Rx,0,8,0A,27,51,00,4A,01,0A,00
1756487808642140,00000193,false,Rx,0,6,14,00,02,00,04,00,00,00
1756487808644454,00000213,false,Rx,0,4,08,00,00,00,00,00,00,00
1756487808644559,00000214,false,Rx,0,4,08,00,00,00,00,00,00,00
1756487808648260,00000188,false,Rx,0,6,C0,FF,0F,00,F4,03,00,00
1756487808648386,00000288,false,Rx,0,6,00,00,00,00,00,00,00,00
1756487808650749,00000194,false,Rx,0,6,14,00,F7,FF,01,00,00,00
1756487808651135,00000181,false,Rx,0,8,04,10,00,E9,02,00,00,00
1756487808651257,00000488,false,Rx,0,8,0A,27,51,00,4A,01,0A,00
1756487808651968,00000193,false,Rx,0,6,14,00,05,00,01,00,00,00
1756487808654359,00000213,false,Rx,0,4,08,00,00,00,00,00,00,00
1756487808654466,00000214,false,Rx,0,4,08,00,00,00,00,00,00,00
1756487808658460,00000188,false,Rx,0,6,CB,FF,08,00,F1,03,00,00
1756487808658583,00000288,false,Rx,0,6,00,00,00,00,00,00,00,00
1756487808660541,00000394,false,Rx,0,6,48,05,CD,01,16,01,00,00
1756487808660650,00000294,false,Rx,0,4,3B,A3,24,00,00,00,00,00
1756487808660749,00000714,false,Rx,0,1,05,00,00,00,00,00,00,00
1756487808660844,00000734,false,Rx,0,8,01,9A,99,19,40,A3,24,05
1756487808660961,00000194,false,Rx,0,6,14,00,00,00,01,00,00,00
1756487808661419,00000488,false,Rx,0,8,0A,27,51,00,4A,01,0A,00
1756487808661793,00000193,false,Rx,0,6,14,00,0A,00,FB,FF,00,00
1756487808664383,00000181,false,Rx,0,8,04,10,00,E9,02,00,00,00
1756487808664528,00000213,false,Rx,0,4,08,00,00,00,00,00,00,00
1756487808664589,00000214,false,Rx,0,4,08,00,00,00,00,00,00,00
1756487808668648,00000188,false,Rx,0,6,B3,FF,15,00,D2,03,00,00
1756487808668760,00000288,false,Rx,0,6,00,00,00,00,00,00,00,00
1756487808670446,00000194,false,Rx,0,6,14,00,FD,FF,FB,FF,00,00
1756487808671617,00000488,false,Rx,0,8,0A,27,51,00,4A,01,0A,00
1756487808671728,00000193,false,Rx,0,6,14,00,06,00,FB,FF,00,00
1756487808675271,00000213,false,Rx,0,4,08,00,00,00,00,00,00,00
1756487808675385,00000214,false,Rx,0,4,08,00,00,00,00,00,00,00
1756487808678847,00000188,false,Rx,0,6,C8,FF,14,00,DC,03,00,00
1756487808678958,00000288,false,Rx,0,6,00,00,00,00,00,00,00,00
1756487808680218,00000194,false,Rx,0,6,14,00,FE,FF,FF,FF,00,00
1756487808681455,00000193,false,Rx,0,6,14,00,01,00,FC,FF,00,00
1756487808681815,00000488,false,Rx,0,8,0A,27,51,00,4A,01,0A,00
1756487808681935,00000181,false,Rx,0,8,04,10,00,E9,02,00,00,00
1756487808685173,00000213,false,Rx,0,4,08,00,00,00,00,00,00,00
1756487808685278,00000214,false,Rx,0,4,08,00,00,00,00,00,00,00
1756487808689067,00000188,false,Rx,0,6,BE,FF,0C,00,F9,03,00,00
1756487808689190,00000288,false,Rx,0,6,00,00,00,00,00,00,00,00
1756487808690048,00000194,false,Rx,0,6,14,00,FB,FF,FA,FF,00,00
1756487808691282,00000193,false,Rx,0,6,14,00,FE,FF,F8,FF,00,00
1756487808691549,00000701,false,Rx,0,1,05,00,00,00,00,00,00,00
1756487808692054,00000488,false,Rx,0,8,0A,27,51,00,4A,01,0A,00
1756487808695218,00000181,false,Rx,0,8,04,10,00,E9,02,00,00,00
1756487808695394,00000213,false,Rx,0,4,08,00,00,00,00,00,00,00
1756487808695455,00000214,false,Rx,0,4,08,00,00,00,00,00,00,00
1756487808699254,00000188,false,Rx,0,6,BD,FF,0D,00,D9,03,00,00
1756487808699371,00000288,false,Rx,0,6,00,00,00,00,00,00,00,00
1756487808699866,00000194,false,Rx,0,6,14,00,FB,FF,FD,FF,00,00
1756487808701115,00000193,false,Rx,0,6,14,00,08,00,FF,FF,00,00
1756487808701531,00000710,false,Rx,0,1,7F,00,00,00,00,00,00,00
1756487808701634,00000290,false,Rx,0,7,01,E8,00,00,00,00,00,00
1756487808701734,00000490,false,Rx,0,5,64,00,00,00,00,00,00,00
1756487808703392,00000488,false,Rx,0,8,0A,27,51,00,4A,01,0A,00
1756487808704979,00000213,false,Rx,0,4,08,00,00,00,00,00,00,00
1756487808705082,00000214,false,Rx,0,4,08,00,00,00,00,00,00,00
1756487808709440,00000188,false,Rx,0,6,C0,FF,08,00,F8,03,00,00
1756487808709583,00000288,false,Rx,0,6,00,00,00,00,00,00,00,00
1756487808709702,00000194,false,Rx,0,6,14,00,F4,FF,FB,FF,00,00
1756487808710979,00000193,false,Rx,0,6,14,00,07,00,FB,FF,00,00
1756487808712746,00000181,false,Rx,0,8,04,10,00,EA,02,00,00,00
1756487808713463,00000488,false,Rx,0,8,0A,27,51,00,4A,01,0A,00
1756487808715983,00000213,false,Rx,0,4,08,00,00,00,00,00,00,00
1756487808716090,00000214,false,Rx,0,4,08,00,00,00,00,00,00,00
1756487808718650,00000188,false,Rx,0,6,BA,FF,14,00,DD,03,00,00
1756487808718782,00000288,false,Rx,0,6,00,00,00,00,00,00,00,00
1756487808719520,00000194,false,Rx,0,6,14,00,F8,FF,FA,FF,00,00
1756487808720749,00000393,false,Rx,0,6,FE,00,C5,01,07,01,00,00
1756487808720854,00000293,false,Rx,0,4,A8,A3,00,00,00,00,00,00
1756487808720957,00000713,false,Rx,0,1,05,00,00,00,00,00,00,00
1756487808721061,00000733,false,Rx,0,8,01,9A,99,19,40,A3,00,05
1756487808721181,00000193,false,Rx,0,6,14,00,FE,FF,FC,FF,00,00
1756487808723641,00000488,false,Rx,0,8,0A,27,51,00,4A,01,0A,00
1756487808725923,00000181,false,Rx,0,8,04,10,00,E9,02,00,00,00
1756487808726028,00000213,false,Rx,0,4,08,00,00,00,00,00,00,00
1756487808726143,00000214,false,Rx,0,4,08,00,00,00,00,00,00,00
1756487808728852,00000188,false,Rx,0,6,BD,FF,14,00,DB,03,00,00
1756487808728974,00000288,false,Rx,0,6,00,00,00,00,00,00,00,00
1756487808729349,00000194,false,Rx,0,6,14,00,FC,FF,FD,FF,00,00
1756487808730591,00000193,false,Rx,0,6,14,00,07,00,FB,FF,00,00
1756487808733847,00000488,false,Rx,0,8,0A,27,51,00,4A,01,0A,00
1756487808735800,00000213,false,Rx,0,4,08,00,00,00,00,00,00,00
1756487808735901,00000214,false,Rx,0,4,08,00,00,00,00,00,00,00
1756487808738053,00000181,false,Rx,0,8,04,10,00,E9,02,00,00,00
1756487808739044,00000188,false,Rx,0,6,C3,FF,0A,00,F1,03,00,00
1756487808739152,00000288,false,Rx,0,6,00,00,00,00,00,00,00,00
1756487808739250,00000194,false,Rx,0,6,14,00,FD,FF,04,00,00,00
1756487808740420,00000193,false,Rx,0,6,14,00,05,00,F7,FF,00,00
1756487808744044,00000488,false,Rx,0,8,0A,27,51,00,4A,01,0A,00
1756487808746797,00000213,false,Rx,0,4,08,00,00,00,00,00,00,00
1756487808746901,00000214,false,Rx,0,4,08,00,00,00,00,00,00,00
1756487808749015,00000194,false,Rx,0,6,14,00,00,00,00,00,00,00
1756487808749238,00000188,false,Rx,0,6,BB,FF,1A,00,E8,03,00,00
1756487808749355,00000288,false,Rx,0,6,00,00,00,00,00,00,00,00
1756487808750250,00000193,false,Rx,0,6,14,00,06,00,00,00,00,00
1756487808754244,00000488,false,Rx,0,8,0A,27,51,00,4A,01,0A,00
1756487808756699,00000213,false,Rx,0,4,08,00,00,00,00,00,00,00
1756487808756804,00000214,false,Rx,0,4,08,00,00,00,00,00,00,00
1756487808758815,00000394,false,Rx,0,6,4B,05,CD,01,16,01,00,00
1756487808758921,00000294,false,Rx,0,4,34,A3,2C,00,00,00,00,00
1756487808759020,00000714,false,Rx,0,1,05,00,00,00,00,00,00,00
1756487808759118,00000734,false,Rx,0,8,02,00,00,C0,3F,A3,2C,05
1756487808759236,00000194,false,Rx,0,6,14,00,06,00,00,00,00,00
1756487808759426,00000188,false,Rx,0,6,B9,FF,15,00,D7,03,00,00
1756487808759527,00000288,false,Rx,0,6,00,00,00,00,00,00,00,00
1756487808760069,00000193,false,Rx,0,6,14,00,00,00,00,00,00,00
1756487808764443,00000488,false,Rx,0,8,0A,27,51,00,4A,01,0A,00
1756487808766606,00000213,false,Rx,0,4,08,00,00,00,00,00,00,00
1756487808766710,00000214,false,Rx,0,4,08,00,00,00,00,00,00,00
1756487808768662,00000194,false,Rx,0,6,14,00,01,00,05,00,00,00
1756487808769626,00000188,false,Rx,0,6,C3,FF,0F,00,EB,03,00,00
1756487808769766,00000288,false,Rx,0,6,00,00,00,00,00,00,00,00
1756487808769906,00000193,false,Rx,0,6,14,00,0F,00,00,00,00,00
1756487808772169,00000181,false,Rx,0,8,04,10,00,E9,02,00,00,00
1756487808774646,00000488,false,Rx,0,8,0A,27,51,00,4A,01,0A,00
1756487808776509,00000213,false,Rx,0,4,08,00,00,00,00,00,00,00
1756487808776613,00000214,false,Rx,0,4,08,00,00,00,00,00,00,00
1756487808778490,00000194,false,Rx,0,6,14,00,FD,FF,03,00,00,00
1756487808779729,00000193,false,Rx,0,6,14,00,12,00,00,00,00,00
1756487808780486,00000188,false,Rx,0,6,C2,FF,0E,00,F3,03,00,00
1756487808780614,00000288,false,Rx,0,6,00,00,00,00,00,00,00,00
1756487808784257,00000488,false,Rx,0,8,0A,27,51,00,4A,01,0A,00
1756487808787519,00000213,false,Rx,0,4,08,00,00,00,00,00,00,00
1756487808787626,00000214,false,Rx,0,4,08,00,00,00,00,00,00,00
1756487808788309,00000194,false,Rx,0,6,14,00,FE,FF,04,00,00,00
1756487808789580,00000193,false,Rx,0,6,14,00,08,00,FE,FF,00,00
1756487808790631,00000188,false,Rx,0,6,B7,FF,16,00,DB,03,00,00
1756487808790761,00000288,false,Rx,0,6,00,00,00,00,00,00,00,00
1756487808791700,00000701,false,Rx,0,1,05,00,00,00,00,00,00,00
1756487808794576,00000488,false,Rx,0,8,0A,27,51,00,4A,01,0A,00
1756487808797530,00000213,false,Rx,0,4,08,00,00,00,00,00,00,00
1756487808797640,00000214,false,Rx,0,4,08,00,00,00,00,00,00,00
1756487808798156,00000194,false,Rx,0,6,14,00,02,00,02,00,00,00
1756487808799390,00000193,false,Rx,0,6,14,00,04,00,00,00,00,00
1756487808800933,00000188,false,Rx,0,6,C0,FF,11,00,E6,03,00,00
1756487808801061,00000288,false,Rx,0,6,00,00,00,00,00,00,00,00
1756487808801537,00000710,false,Rx,0,1,7F,00,00,00,00,00,00,00
1756487808805468,00000488,false,Rx,0,8,0A,27,51,00,4A,01,0A,00
1756487808807322,00000213,false,Rx,0,4,08,00,00,00,00,00,00,00
1756487808807425,00000214,false,Rx,0,4,08,00,00,00,00,00,00,00
1756487808807961,00000194,false,Rx,0,6,14,00,04,00,01,00,00,00
1756487808809213,00000193,false,Rx,0,6,14,00,01,00,FF,FF,00,00
1756487808810655,00000188,false,Rx,0,6,BA,FF,12,00,D3,03,00,00
1756487808810789,00000288,false,Rx,0,6,00,00,00,00,00,00,00,00
1756487808812908,00000181,false,Rx,0,8,04,10,00,E9,02,00,00,00
1756487808815750,00000488,false,Rx,0,8,0A,27,51,00,4A,01,0A,00
1756487808817246,00000213,false,Rx,0,4,08,00,00,00,00,00,00,00
1756487808817360,00000214,false,Rx,0,4,08,00,00,00,00,00,00,00
1756487808817809,00000194,false,Rx,0,6,14,00,02,00,04,00,00,00
1756487808819026,00000393,false,Rx,0,6,00,01,C5,01,07,01,00,00
1756487808819132,00000293,false,Rx,0,4,9D,A3,00,00,00,00,00,00
1756487808819233,00000713,false,Rx,0,1,05,00,00,00,00,00,00,00
1756487808819331,00000733,false,Rx,0,8,02,00,00,C0,3F,A3,00,05
1756487808819447,00000193,false,Rx,0,6,14,00,04,00,FF,FF,00,00
1756487808820936,00000188,false,Rx,0,6,C0,FF,15,00,E6,03,00,00
1756487808821058,00000288,false,Rx,0,6,00,00,00,00,00,00,00,00
1756487808826074,00000488,false,Rx,0,8,0A,27,51,00,4A,01,0A,00
1756487808826202,00000181,false,Rx,0,8,04,10,00,E9,02,00,00,00
1756487808827622,00000194,false,Rx,0,6,14,00,FF,FF,03,00,00,00
1756487808828245,00000213,false,Rx,0,4,08,00,00,00,00,00,00,00
1756487808828348,00000214,false,Rx,0,4,08,00,00,00,00,00,00,00
1756487808828858,00000193,false,Rx,0,6,14,00,03,00,FF,FF,00,00
1756487808831236,00000188,false,Rx,0,6,C7,FF,07,00,F8,03,00,00
1756487808831361,00000288,false,Rx,0,6,00,00,00,00,00,00,00,00
1756487808836344,00000488,false,Rx,0,8,0A,27,51,00,4A,01,0A,00
1756487808837453,00000194,false,Rx,0,6,14,00,01,00,01,00,00,00
1756487808838155,00000213,false,Rx,0,4,08,00,00,00,00,00,00,00
1756487808838252,00000214,false,Rx,0,4,08,00,00,00,00,00,00,00
1756487808838690,00000193,false,Rx,0,6,14,00,05,00,FD,FF,00,00
1756487808839663,00000190,false,Rx,0,8,00,CA,CA,CA,CA,CA,CA,CB
1756487808839786,00000190,false,Rx,0,8,07,CA,CB,CB,CB,CA,CB,CB
1756487808839895,00000190,false,Rx,0,8,15,CA,CA,CA,CA,CA,CA,CA
1756487808839996,00000190,false,Rx,0,8,1C,CA,CA,CA,CA,CA,CA,CA
1756487808840114,00000190,false,Rx,0,8,23,CA,CA,CA,CA,CA,CA,CA
1756487808840232,00000190,false,Rx,0,8,0E,CA,CA,CA,CA,CA,CA,CA
1756487808840351,00000190,false,Rx,0,8,2A,CA,CA,CA,CA,CA,CA,CA
1756487808840469,00000190,false,Rx,0,8,31,CA,CA,CA,CA,CA,CA,CA
1756487808840567,00000190,false,Rx,0,8,3F,CA,CA,CB,CB,CB,CA,CB
1756487808840667,00000190,false,Rx,0,8,46,CB,CB,CB,CB,CA,CA,CB
1756487808840788,00000190,false,Rx,0,8,38,CA,CA,CA,CA,CA,CA,C9
1756487808840910,00000190,false,Rx,0,8,4D,CA,CB,CB,CB,CB,CB,CB
1756487808841039,00000190,false,Rx,0,8,54,CB,CB,CB,CB,CB,CA,CA
1756487808841142,00000190,false,Rx,0,8,62,CA,C9,CA,CB,CB,CB,CA
1756487808841273,00000190,false,Rx,0,8,5B,CA,CA,CB,CA,CB,CA,CB
1756487808841393,00000390,false,Rx,0,8,00,13,13,13,13,13,13,13
1756487808841492,00000390,false,Rx,0,8,07,13,3C,3C,3C,3C,3C,3C
1756487808841606,00000188,false,Rx,0,6,B9,FF,15,00,DF,03,00,00
1756487808841727,00000288,false,Rx,0,6,00,00,00,00,00,00,00,00
1756487808841827,00000390,false,Rx,0,8,23,3D,3D,3D,3D,3D,3D,3D
1756487808841927,00000390,false,Rx,0,8,2A,3D,3D,3D,3D,3D,3D,3C
1756487808842047,00000390,false,Rx,0,8,31,3C,3C,3C,3C,3C,3C,3C
1756487808842171,00000390,false,Rx,0,8,38,13,13,13,13,13,13,13
1756487808842293,00000390,false,Rx,0,8,3F,13,3C,3C,3C,3C,3C,3C
1756487808842411,00000390,false,Rx,0,8,15,3D,3D,3D,3C,3C,3C,3C
1756487808842527,00000390,false,Rx,0,8,46,3C,3C,3D,3D,3D,3D,3D
1756487808842624,00000390,false,Rx,0,8,4D,3D,3D,3D,3C,3C,3C,3C
1756487808842722,00000390,false,Rx,0,8,5B,13,13,13,13,13,3D,3D
1756487808842841,00000390,false,Rx,0,8,54,3C,3C,3C,3C,13,13,13
1756487808842959,00000390,false,Rx,0,8,62,3D,3D,3D,3D,3D,3D,13
1756487808843077,00000390,false,Rx,0,8,69,13,13,13,13,13,13,13
1756487808843195,00000390,false,Rx,0,8,77,13,3D,3D,3D,3D,3D,3D
1756487808843317,00000390,false,Rx,0,8,7E,3D,3D,3D,3D,3D,3D,3D
1756487808843423,00000390,false,Rx,0,8,70,13,13,13,13,13,13,13
1756487808843521,00000390,false,Rx,0,8,85,3D,3D,3D,3D,3D,3D,3D
1756487808843639,00000390,false,Rx,0,8,8C,3D,3D,3D,3D,3D,3D,3D
1756487808843756,00000390,false,Rx,0,8,9A,3C,3C,3C,3C,3C,3C,13
1756487808843875,00000390,false,Rx,0,8,A1,13,13,13,13,13,13,13
1756487808843992,00000390,false,Rx,0,8,93,3D,3D,3D,3D,3D,3C,3C
1756487808844091,00000390,false,Rx,0,8,A8,3D,3D,3D,3D,3D,3D,3D
1756487808844190,00000390,false,Rx,0,8,AF,3D,3D,3D,3D,3D,3D,3D
1756487808844307,00000390,false,Rx,0,8,BD,3D,3D,3D,13,13,13,13
1756487808844428,00000390,false,Rx,0,8,B6,3D,3D,3D,3D,3D,3D,3D
1756487808844555,00000390,false,Rx,0,8,C4,13,13,13,13,3D,3D,3D
1756487808844676,00000390,false,Rx,0,8,CB,3D,3D,3D,3D,3D,13,13
1756487808844776,00000390,false,Rx,0,8,D9,3D,3D,3D,3D,3D,3D,3D
1756487808844874,00000390,false,Rx,0,8,D2,13,13,13,13,13,13,3D
1756487808846647,00000488,false,Rx,0,8,0A,27,51,00,4A,01,0A,00
1756487808847279,00000194,false,Rx,0,6,14,00,FD,FF,01,00,00,00
1756487808848054,00000213,false,Rx,0,4,08,00,00,00,00,00,00,00
1756487808848161,00000214,false,Rx,0,4,08,00,00,00,00,00,00,00
1756487808848514,00000193,false,Rx,0,6,14,00,04,00,00,00,00,00
1756487808851836,00000188,false,Rx,0,6,C0,FF,10,00,E0,03,00,00
1756487808851961,00000288,false,Rx,0,6,00,00,00,00,00,00,00,00
1756487808856978,00000488,false,Rx,0,8,0A,27,51,00,4A,01,0A,00
1756487808857089,00000394,false,Rx,0,6,4B,05,CD,01,16,01,00,00
1756487808857189,00000294,false,Rx,0,4,3C,A3,18,00,00,00,00,00
1756487808857291,00000714,false,Rx,0,1,05,00,00,00,00,00,00,00
1756487808857396,00000734,false,Rx,0,8,03,6F,12,03,3B,A3,18,05
1756487808857530,00000194,false,Rx,0,6,14,00,FF,FF,FF,FF,00,00
1756487808858342,00000193,false,Rx,0,6,14,00,FD,FF,03,00,00,00
1756487808859054,00000213,false,Rx,0,4,08,00,00,00,00,00,00,00
1756487808859155,00000214,false,Rx,0,4,08,00,00,00,00,00,00,00
1756487808862132,00000188,false,Rx,0,6,C5,FF,10,00,F9,03,00,00
1756487808863475,00000288,false,Rx,0,6,00,00,00,00,00,00,00,00
1756487808866937,00000194,false,Rx,0,6,14,00,04,00,01,00,00,00
1756487808867219,00000488,false,Rx,0,8,0A,27,51,00,4A,01,0A,00
1756487808868175,00000193,false,Rx,0,6,14,00,FE,FF,FF,FF,00,00
1756487808868958,00000213,false,Rx,0,4,08,00,00,00,00,00,00,00
1756487808869063,00000214,false,Rx,0,4,08,00,00,00,00,00,00,00
1756487808873565,00000188,false,Rx,0,6,BD,FF,0F,00,EB,03,00,00
1756487808873697,00000288,false,Rx,0,6,00,00,00,00,00,00,00,00
1756487808876764,00000194,false,Rx,0,6,14,00,05,00,01,00,00,00
1756487808878005,00000193,false,Rx,0,6,14,00,03,00,00,00,00,00
1756487808878342,00000488,false,Rx,0,8,0A,27,51,00,4A,01,0A,00
1756487808878886,00000213,false,Rx,0,4,08,00,00,00,00,00,00,00
1756487808878983,00000214,false,Rx,0,4,08,00,00,00,00,00,00,00
1756487808883526,00000188,false,Rx,0,6,C5,FF,0C,00,F6,03,00,00
1756487808883650,00000288,false,Rx,0,6,00,00,00,00,00,00,00,00
1756487808886590,00000194,false,Rx,0,6,14,00,03,00,00,00,00,00
1756487808887830,00000193,false,Rx,0,6,14,00,0A,00,02,00,00,00
1756487808888347,00000488,false,Rx,0,8,0A,27,51,00,4A,01,0A,00
1756487808888811,00000213,false,Rx,0,4,08,00,00,00,00,00,00,00
1756487808888914,00000214,false,Rx,0,4,08,00,00,00,00,00,00,00
1756487808891943,00000701,false,Rx,0,1,05,00,00,00,00,00,00,00
1756487808893508,00000188,false,Rx,0,6,BC,FF,10,00,ED,03,00,00
1756487808893631,00000288,false,Rx,0,6,00,00,00,00,00,00,00,00
1756487808896449,00000194,false,Rx,0,6,14,00,FC,FF,02,00,00,00
1756487808897763,00000193,false,Rx,0,6,14,00,04,00,FF,FF,00,00
1756487808898468,00000488,false,Rx,0,8,0A,27,51,00,4A,01,0A,00
1756487808899774,00000213,false,Rx,0,4,08,00,00,00,00,00,00,00
1756487808899880,00000214,false,Rx,0,4,08,00,00,00,00,00,00,00
1756487808901583,00000490,false,Rx,0,5,64,00,00,00,00,00,00,00
1756487808901740,00000290,false,Rx,0,7,01,E8,00,00,00,00,00,00
1756487808901804,00000710,false,Rx,0,1,7F,00,00,00,00,00,00,00
1756487808903743,00000188,false,Rx,0,6,B7,FF,12,00,D4,03,00,00
1756487808903868,00000288,false,Rx,0,6,00,00,00,00,00,00,00,00
1756487808906249,00000194,false,Rx,0,6,14,00,FE,FF,02,00,00,00
1756487808907492,00000193,false,Rx,0,6,14,00,02,00,03,00,00,00
1756487808908646,00000488,false,Rx,0,8,0A,27,51,00,4A,01,0A,00
1756487808909693,00000213,false,Rx,0,4,08,00,00,00,00,00,00,00
1756487808909796,00000214,false,Rx,0,4,08,00,00,00,00,00,00,00
1756487808913046,00000181,false,Rx,0,8,04,10,00,E9,02,00,00,00
1756487808913929,00000188,false,Rx,0,6,BF,FF,0A,00,EC,03,00,00
1756487808914034,00000288,false,Rx,0,6,00,00,00,00,00,00,00,00
1756487808916091,00000194,false,Rx,0,6,14,00,FA,FF,00,00,00,00
1756487808917298,00000393,false,Rx,0,6,00,01,C5,01,FF,00,00,00
1756487808917406,00000293,false,Rx,0,4,B1,A3,00,00,00,00,00,00
1756487808917506,00000713,false,Rx,0,1,05,00,00,00,00,00,00,00
1756487808917624,00000733,false,Rx,0,8,03,6F,12,03,3B,A3,00,05
1756487808917742,00000193,false,Rx,0,6,14,00,09,00,FF,FF,00,00
1756487808918856,00000488,false,Rx,0,8,0A,27,51,00,4A,01,0A,00
1756487808919602,00000213,false,Rx,0,4,08,00,00,00,00,00,00,00
1756487808919708,00000214,false,Rx,0,4,08,00,00,00,00,00,00,00
1756487808924129,00000188,false,Rx,0,6,BC,FF,0E,00,F4,03,00,00
1756487808924236,00000288,false,Rx,0,6,00,00,00,00,00,00,00,00
1756487808925175,00000181,false,Rx,0,8,04,10,00,E9,02,00,00,00
1756487808925897,00000194,false,Rx,0,6,14,00,FB,FF,01,00,00,00
1756487808927141,00000193,false,Rx,0,6,14,00,FC,FF,02,00,00,00
1756487808929049,00000488,false,Rx,0,8,0A,27,51,00,4A,01,0A,00
1756487808930574,00000213,false,Rx,0,4,08,00,00,00,00,00,00,00
1756487808930676,00000214,false,Rx,0,4,08,00,00,00,00,00,00,00
1756487808934335,00000188,false,Rx,0,6,B7,FF,0F,00,D8,03,00,00
1756487808934446,00000288,false,Rx,0,6,00,00,00,00,00,00,00,00
1756487808935725,00000194,false,Rx,0,6,14,00,FD,FF,01,00,00,00
1756487808936966,00000193,false,Rx,0,6,14,00,05,00,02,00,00,00
1756487808939251,00000488,false,Rx,0,8,0A,27,51,00,4A,01,0A,00
1756487808940479,00000213,false,Rx,0,4,08,00,00,00,00,00,00,00
1756487808940579,00000214,false,Rx,0,4,08,00,00,00,00,00,00,00
1756487808944545,00000188,false,Rx,0,6,BD,FF,11,00,E3,03,00,00
1756487808944674,00000288,false,Rx,0,6,00,00,00,00,00,00,00,00
1756487808945576,00000194,false,Rx,0,6,14,00,FD,FF,FF,FF,00,00
1756487808946798,00000193,false,Rx,0,6,14,00,02,00,FF,FF,00,00
1756487808949455,00000488,false,Rx,0,8,0A,27,51,00,4A,01,0A,00
1756487808950406,00000213,false,Rx,0,4,08,00,00,00,00,00,00,00
1756487808950507,00000214,false,Rx,0,4,08,00,00,00,00,00,00,00
1756487808954730,00000188,false,Rx,0,6,C3,FF,0A,00,F8,03,00,00
1756487808954834,00000288,false,Rx,0,6,00,00,00,00,00,00,00,00
1756487808955360,00000394,false,Rx,0,6,4E,05,CD,01,0E,01,00,00
1756487808955465,00000294,false,Rx,0,4,29,A3,E4,FF,00,00,00,00
1756487808955562,00000714,false,Rx,0,1,05,00,00,00,00,00,00,00
1756487808955657,00000734,false,Rx,0,8,04,8F,C2,F5,3F,A3,E4,05
1756487808955774,00000194,false,Rx,0,6,14,00,FD,FF,01,00,00,00
1756487808956624,00000193,false,Rx,0,6,14,00,03,00,00,00,00,00
1756487808959649,00000488,false,Rx,0,8,0A,27,51,00,4A,01,0A,00
1756487808960420,00000213,false,Rx,0,4,08,00,00,00,00,00,00,00
1756487808960524,00000214,false,Rx,0,4,08,00,00,00,00,00,00,00
1756487808962643,00000181,false,Rx,0,8,04,10,00,E9,02,00,00,00
1756487808965207,00000194,false,Rx,0,6,14,00,F6,FF,FD,FF,00,00
1756487808965536,00000188,false,Rx,0,6,B5,FF,14,00,D2,03,00,00
1756487808965663,00000288,false,Rx,0,6,00,00,00,00,00,00,00,00
1756487808966449,00000193,false,Rx,0,6,14,00,00,00,04,00,00,00
1756487808969252,00000488,false,Rx,0,8,0A,27,51,00,4A,01,0A,00
1756487808971394,00000213,false,Rx,0,4,08,00,00,00,00,00,00,00
1756487808971502,00000214,false,Rx,0,4,08,00,00,00,00,00,00,00
1756487808975038,00000194,false,Rx,0,6,14,00,F5,FF,FC,FF,00,00
1756487808975731,00000188,false,Rx,0,6,C1,FF,11,00,E0,03,00,00
1756487808975849,00000288,false,Rx,0,6,00,00,00,00,00,00,00,00
1756487808975968,00000181,false,Rx,0,8,04,10,00,E9,02,00,00,00
1756487808976278,00000193,false,Rx,0,6,14,00,00,00,06,00,00,00
1756487808979451,00000488,false,Rx,0,8,0A,27,51,00,4A,01,0A,00
1756487808981298,00000213,false,Rx,0,4,08,00,00,00,00,00,00,00
1756487808981401,00000214,false,Rx,0,4,08,00,00,00,00,00,00,00
1756487808984862,00000194,false,Rx,0,6,14,00,F4,FF,FD,FF,00,00
1756487808985939,00000188,false,Rx,0,6,C1,FF,0C,00,F9,03,00,00
1756487808986043,00000288,false,Rx,0,6,00,00,00,00,00,00,00,00
1756487808986140,00000193,false,Rx,0,6,14,00,00,00,06,00,00,00
1756487808989650,00000488,false,Rx,0,8,0A,27,51,00,4A,01,0A,00
1756487808991202,00000213,false,Rx,0,4,08,00,00,00,00,00,00,00
1756487808991308,00000214,false,Rx,0,4,08,00,00,00,00,00,00,00
1756487808992185,00000701,false,Rx,0,1,05,00,00,00,00,00,00,00
1756487808994693,00000194,false,Rx,0,6,14,00,FB,FF,FE,FF,00,00
1756487808995932,00000193,false,Rx,0,6,14,00,02,00,01,00,00,00
1756487808996135,00000188,false,Rx,0,6,B8,FF,10,00,DD,03,00,00
1756487808996251,00000288,false,Rx,0,6,00,00,00,00,00,00,00,00
1756487809000600,00000488,false,Rx,0,8,0A,27,51,00,4A,01,0A,00
1756487809001568,00000710,false,Rx,0,1,7F,00,00,00,00,00,00,00
1756487809002215,00000213,false,Rx,0,4,08,00,00,00,00,00,00,00
1756487809002321,00000214,false,Rx,0,4,08,00,00,00,00,00,00,00
1756487809004519,00000194,false,Rx,0,6,14,00,FC,FF,FD,FF,00,00
1756487809005765,00000193,false,Rx,0,6,14,00,03,00,01,00,00,00
1756487809006336,00000188,false,Rx,0,6,C1,FF,0B,00,F3,03,00,00
1756487809006475,00000288,false,Rx,0,6,00,00,00,00,00,00,00,00
1756487809010595,00000488,false,Rx,0,8,0A,27,51,00,4A,01,0A,00
1756487809012183,00000181,false,Rx,0,8,04,10,00,E9,02,00,00,00
1756487809012379,00000213,false,Rx,0,4,08,00,00,00,00,00,00,00
1756487809012440,00000214,false,Rx,0,4,08,00,00,00,00,00,00,00
1756487809014355,00000194,false,Rx,0,6,14,00,F7,FF,FE,FF,00,00
1756487809015570,00000393,false,Rx,0,6,00,01,C5,01,07,01,00,00
1756487809015674,00000293,false,Rx,0,4,A6,A3,00,00,00,00,00,00
1756487809015777,00000713,false,Rx,0,1,05,00,00,00,00,00,00,00
1756487809015883,00000733,false,Rx,0,8,04,8F,C2,F5,3F,A3,00,05
1756487809016035,00000193,false,Rx,0,6,14,00,0C,00,02,00,00,00
1756487809016174,00000188,false,Rx,0,6,BE,FF,12,00,E5,03,00,00
1756487809016290,00000288,false,Rx,0,6,00,00,00,00,00,00,00,00
1756487809020677,00000488,false,Rx,0,8,0A,27,51,00,4A,01,0A,00
1756487809022019,00000213,false,Rx,0,4,08,00,00,00,00,00,00,00
1756487809022126,00000214,false,Rx,0,4,08,00,00,00,00,00,00,00
1756487809024176,00000194,false,Rx,0,6,14,00,FB,FF,FD,FF,00,00
1756487809025372,00000181,false,Rx,0,8,04,10,00,E9,02,00,00,00
1756487809025476,00000193,false,Rx,0,6,14,00,FD,FF,01,00,00,00
1756487809026352,00000188,false,Rx,0,6,BC,FF,0F,00,DB,03,00,00
1756487809026478,00000288,false,Rx,0,6,00,00,00,00,00,00,00,00
1756487809030956,00000488,false,Rx,0,8,0A,27,51,00,4A,01,0A,00
1756487809031948,00000213,false,Rx,0,4,08,00,00,00,00,00,00,00
1756487809032051,00000214,false,Rx,0,4,08,00,00,00,00,00,00,00
1756487809034005,00000194,false,Rx,0,6,14,00,F6,FF,00,00,00,00
1756487809035247,00000193,false,Rx,0,6,14,00,FF,FF,06,00,00,00
1756487809036653,00000188,false,Rx,0,6,C7,FF,0C,00,EA,03,00,00
1756487809036781,00000288,false,Rx,0,6,00,00,00,00,00,00,00,00
1756487809041257,00000488,false,Rx,0,8,0A,27,51,00,4A,01,0A,00
1756487809042970,00000181,false,Rx,0,8,04,10,00,E9,02,00,00,00
1756487809043076,00000213,false,Rx,0,4,08,00,00,00,00,00,00,00
1756487809043190,00000214,false,Rx,0,4,08,00,00,00,00,00,00,00
1756487809043825,00000194,false,Rx,0,6,14,00,FC,FF,01,00,00,00
1756487809045070,00000193,false,Rx,0,6,14,00,F7,FF,01,00,00,00
1756487809046956,00000188,false,Rx,0,6,BC,FF,0F,00,F2,03,00,00
1756487809047080,00000288,false,Rx,0,6,00,00,00,00,00,00,00,00
1756487809051566,00000488,false,Rx,0,8,0A,27,51,00,4A,01,0A,00
1756487809052835,00000213,false,Rx,0,4,08,00,00,00,00,00,00,00
1756487809052939,00000214,false,Rx,0,4,08,00,00,00,00,00,00,00
1756487809053636,00000394,false,Rx,0,6,4E,05,CD,01,0E,01,00,00
1756487809053742,00000294,false,Rx,0,4,4D,A3,A1,00,00,00,00,00
1756487809053838,00000714,false,Rx,0,1,05,00,00,00,00,00,00,00
1756487809053934,00000734,false,Rx,0,8,05,00,00,C0,3F,A3,A1,05
1756487809054051,00000194,false,Rx,0,6,14,00,FB,FF,FC,FF,00,00
1756487809054894,00000193,false,Rx,0,6,14,00,FC,FF,F9,FF,00,00
1756487809055107,00000181,false,Rx,0,8,A0,0F,00,E9,02,00,00,00
1756487809057223,00000188,false,Rx,0,6,B9,FF,0E,00,D1,03,00,00
1756487809058389,00000288,false,Rx,0,6,00,00,00,00,00,00,00,00
1756487809062735,00000213,false,Rx,0,4,08,00,00,00,00,00,00,00
1756487809062838,00000214,false,Rx,0,4,08,00,00,00,00,00,00,00
1756487809063474,00000194,false,Rx,0,6,14,00,03,00,FF,FF,00,00
1756487809063721,00000488,false,Rx,0,8,0A,27,51,00,4A,01,0A,00
1756487809064737,00000193,false,Rx,0,6,14,00,03,00,FE,FF,00,00
1756487809067220,00000188,false,Rx,0,6,C3,FF,06,00,F1,03,00,00
1756487809068310,00000181,false,Rx,0,8,04,10,00,E9,02,00,00,00
1756487809068435,00000288,false,Rx,0,6,00,00,00,00,00,00,00,00
1756487809073409,00000194,false,Rx,0,6,14,00,00,00,04,00,00,00
1756487809073773,00000213,false,Rx,0,4,08,00,00,00,00,00,00,00
1756487809073883,00000214,false,Rx,0,4,08,00,00,00,00,00,00,00
1756487809074589,00000193,false,Rx,0,6,14,00,F9,FF,FA,FF,00,00
1756487809074741,00000488,false,Rx,0,8,0A,27,51,00,4A,01,0A,00
1756487809078454,00000188,false,Rx,0,6,B4,FF,12,00,D4,03,00,00
1756487809078585,00000288,false,Rx,0,6,00,00,00,00,00,00,00,00
1756487809081498,00000181,false,Rx,0,8,04,10,00,E9,02,00,00,00
1756487809083143,00000194,false,Rx,0,6,14,00,FE,FF,04,00,00,00
1756487809083669,00000213,false,Rx,0,4,08,00,00,00,00,00,00,00
1756487809083774,00000214,false,Rx,0,4,08,00,00,00,00,00,00,00
1756487809084369,00000193,false,Rx,0,6,14,00,F7,FF,FA,FF,00,00
1756487809085582,00000488,false,Rx,0,8,0A,27,51,00,4A,01,0A,00
1756487809088443,00000188,false,Rx,0,6,C4,FF,0B,00,F7,03,00,00
1756487809088567,00000288,false,Rx,0,6,00,00,00,00,00,00,00,00
1756487809092471,00000701,false,Rx,0,1,05,00,00,00,00,00,00,00
1756487809092963,00000194,false,Rx,0,6,14,00,02,00,02,00,00,00
1756487809093572,00000213,false,Rx,0,4,08,00,00,00,00,00,00,00
1756487809093674,00000214,false,Rx,0,4,08,00,00,00,00,00,00,00
1756487809094204,00000193,false,Rx,0,6,14,00,F8,FF,FD,FF,00,00
1756487809094716,00000181,false,Rx,0,8,04,10,00,E9,02,00,00,00
1756487809095871,00000488,false,Rx,0,8,0A,27,51,00,4A,01,0A,00
1756487809098452,00000188,false,Rx,0,6,B7,FF,11,00,D8,03,00,00
1756487809098586,00000288,false,Rx,0,6,00,00,00,00,00,00,00,00
1756487809101703,00000710,false,Rx,0,1,7F,00,00,00,00,00,00,00
1756487809101860,00000290,false,Rx,0,7,01,E8,00,00,00,00,00,00
1756487809101920,00000490,false,Rx,0,5,64,00,00,00,00,00,00,00
1756487809102796,00000194,false,Rx,0,6,14,00,01,00,03,00,00,00
1756487809103459,00000213,false,Rx,0,4,08,00,00,00,00,00,00,00
1756487809103558,00000214,false,Rx,0,4,08,00,00,00,00,00,00,00
1756487809104050,00000193,false,Rx,0,6,14,00,FF,FF,FD,FF,00,00
1756487809105858,00000488,false,Rx,0,8,0A,27,51,00,4A,01,0A,00
1756487809107919,00000181,false,Rx,0,8,04,10,00,E9,02,00,00,00
1756487809108649,00000188,false,Rx,0,6,BC,FF,13,00,DD,03,00,00
1756487809108775,00000288,false,Rx,0,6,00,00,00,00,00,00,00,00
1756487809112648,00000194,false,Rx,0,6,14,00,FA,FF,00,00,00,00
1756487809113852,00000393,false,Rx,0,6,00,01,C5,01,07,01,00,00
1756487809113964,00000293,false,Rx,0,4,A9,A3,00,00,00,00,00,00
1756487809114064,00000713,false,Rx,0,1,05,00,00,00,00,00,00,00
1756487809114163,00000733,false,Rx,0,8,05,00,00,C0,3F,A3,00,05
1756487809114292,00000193,false,Rx,0,6,14,00,03,00,FF,FF,00,00
1756487809114501,00000213,false,Rx,0,4,08,00,00,00,00,00,00,00
1756487809114599,00000214,false,Rx,0,4,08,00,00,00,00,00,00,00
1756487809116180,00000488,false,Rx,0,8,0A,27,51,00,4A,01,0A,00
1756487809118754,00000188,false,Rx,0,6,C1,FF,04,00,F8,03,00,00
1756487809118881,00000288,false,Rx,0,6,00,00,00,00,00,00,00,00
1756487809121114,00000181,false,Rx,0,8,04,10,00,E9,02,00,00,00
1756487809122451,00000194,false,Rx,0,6,14,00,03,00,01,00,00,00
1756487809123689,00000193,false,Rx,0,6,14,00,FA,FF,FB,FF,00,00
1756487809124374,00000213,false,Rx,0,4,08,00,00,00,00,00,00,00
1756487809124472,00000214,false,Rx,0,4,08,00,00,00,00,00,00,00
1756487809126351,00000488,false,Rx,0,8,0A,27,52,00,4A,01,0A,00
1756487809128950,00000188,false,Rx,0,6,B9,FF,15,00,EB,03,00,00
1756487809129074,00000288,false,Rx,0,6,00,00,00,00,00,00,00,00
1756487809132275,00000194,false,Rx,0,6,14,00,01,00,FF,FF,00,00
1756487809133533,00000193,false,Rx,0,6,14,00,FF,FF,F8,FF,00,00
1756487809134314,00000181,false,Rx,0,8,04,10,00,E9,02,00,00,00
1756487809134420,00000213,false,Rx,0,4,08,00,00,00,00,00,00,00
1756487809134534,00000214,false,Rx,0,4,08,00,00,00,00,00,00,00
1756487809136557,00000488,false,Rx,0,8,0A,27,51,00,4A,01,0A,00
1756487809139151,00000188,false,Rx,0,6,BA,FF,0E,00,D6,03,00,00
1756487809139272,00000288,false,Rx,0,6,00,00,00,00,00,00,00,00
1756487809142147,00000194,false,Rx,0,6,14,00,01,00,FF,FF,00,00
1756487809143352,00000193,false,Rx,0,6,14,00,F9,FF,03,00,00,00
1756487809145272,00000213,false,Rx,0,4,08,00,00,00,00,00,00,00
1756487809145377,00000214,false,Rx,0,4,08,00,00,00,00,00,00,00
1756487809146748,00000488,false,Rx,0,8,0A,27,52,00,4A,01,0A,00
1756487809147558,00000181,false,Rx,0,8,04,10,00,E9,02,00,00,00
1756487809149347,00000188,false,Rx,0,6,C0,FF,12,00,EA,03,00,00
1756487809149464,00000288,false,Rx,0,6,00,00,00,00,00,00,00,00
1756487809151910,00000394,false,Rx,0,6,52,05,CD,01,0E,01,00,00
1756487809152018,00000294,false,Rx,0,4,2F,A3,1C,00,00,00,00,00
1756487809152124,00000714,false,Rx,0,1,05,00,00,00,00,00,00,00
1756487809152223,00000734,false,Rx,0,8,06,6F,12,03,3B,A3,1C,05
1756487809152340,00000194,false,Rx,0,6,14,00,FF,FF,03,00,00,00
1756487809153172,00000193,false,Rx,0,6,14,00,FF,FF,00,00,00,00
1756487809155178,00000213,false,Rx,0,4,08,00,00,00,00,00,00,00
1756487809155291,00000214,false,Rx,0,4,08,00,00,00,00,00,00,00
1756487809156958,00000488,false,Rx,0,8,0A,27,51,00,4A,01,0A,00
1756487809159552,00000188,false,Rx,0,6,BE,FF,0D,00,EC,03,00,00
1756487809159676,00000288,false,Rx,0,6,00,00,00,00,00,00,00,00
1756487809160774,00000181,false,Rx,0,8,04,10,00,E9,02,00,00,00
1756487809161754,00000194,false,Rx,0,6,14,00,03,00,FF,FF,00,00
1756487809162996,00000193,false,Rx,0,6,14,00,01,00,02,00,00,00
1756487809165076,00000213,false,Rx,0,4,08,00,00,00,00,00,00,00
1756487809165178,00000214,false,Rx,0,4,08,00,00,00,00,00,00,00
1756487809167143,00000488,false,Rx,0,8,0A,27,51,00,4A,01,0A,00
1756487809169997,00000188,false,Rx,0,6,BC,FF,19,00,DD,03,00,00
1756487809170236,00000288,false,Rx,0,6,00,00,00,00,00,00,00,00
1756487809171915,00000194,false,Rx,0,6,14,00,FD,FF,FF,FF,00,00
1756487809172105,00000100,false,Rx,0,6,90,3C,B5,03,70,3B,00,00
1756487809173434,00000193,false,Rx,0,6,14,00,FE,FF,03,00,00,00
1756487809174005,00000181,false,Rx,0,8,04,10,00,E9,02,00,00,00
1756487809174998,00000213,false,Rx,0,4,08,00,00,00,00,00,00,00
1756487809175111,00000214,false,Rx,0,4,08,00,00,00,00,00,00,00
1756487809177375,00000488,false,Rx,0,8,0A,27,51,00,4A,01,0A,00
1756487809180606,00000188,false,Rx,0,6,C0,FF,0C,00,EA,03,00,00
1756487809180723,00000288,false,Rx,0,6,00,00,00,00,00,00,00,00
1756487809181647,00000194,false,Rx,0,6,14,00,07,00,04,00,00,00
1756487809182871,00000193,false,Rx,0,6,14,00,F3,FF,FF,FF,00,00
1756487809186003,00000213,false,Rx,0,4,08,00,00,00,00,00,00,00
1756487809186110,00000214,false,Rx,0,4,08,00,00,00,00,00,00,00
1756487809187148,00000181,false,Rx,0,8,A0,0F,00,E9,02,00,00,00
1756487809188488,00000488,false,Rx,0,8,0A,27,52,00,4A,01,0A,00
1756487809189780,00000188,false,Rx,0,6,B8,FF,15,00,D8,03,00,00
1756487809190635,00000288,false,Rx,0,6,00,00,00,00,00,00,00,00
1756487809191470,00000194,false,Rx,0,6,14,00,0C,00,07,00,00,00
1756487809192677,00000193,false,Rx,0,6,14,00,F8,FF,06,00,00,00
1756487809192781,00000701,false,Rx,0,1,05,00,00,00,00,00,00,00
1756487809195905,00000213,false,Rx,0,4,08,00,00,00,00,00,00,00
1756487809196010,00000214,false,Rx,0,4,08,00,00,00,00,00,00,00
1756487809199257,00000181,false,Rx,0,8,04,10,00,E9,02,00,00,00
1756487809199386,00000488,false,Rx,0,8,0A,27,52,00,4B,01,0A,00
1756487809200772,00000188,false,Rx,0,6,C4,FF,06,00,F0,03,00,00
1756487809200919,00000288,false,Rx,0,6,00,00,00,00,00,00,00,00
1756487809201299,00000194,false,Rx,0,6,14,00,0C,00,03,00,00,00
1756487809201654,00000710,false,Rx,0,1,7F,00,00,00,00,00,00,00
1756487809202542,00000193,false,Rx,0,6,14,00,F7,FF,FF,FF,00,00
1756487809205693,00000400,false,Rx,0,8,89,CA,E8,0E,79,B7,6F,48
1756487809206111,00000401,false,Rx,0,2,2C,00,00,00,00,00,00,00
1756487809206197,00000213,false,Rx,0,4,08,00,00,00,00,00,00,00
1756487809206260,00000214,false,Rx,0,4,08,00,00,00,00,00,00,00
1756487809206320,00000410,false,Rx,0,8,DB,D7,81,73,46,94,26,40
1756487809206895,00000411,false,Rx,0,8,00,00,00,00,00,00,00,00
1756487809207303,00000412,false,Rx,0,8,00,00,00,00,00,00,00,00
1756487809207842,00000413,false,Rx,0,8,00,00,00,00,00,00,00,00
1756487809208942,00000414,false,Rx,0,8,DB,D7,81,73,46,94,26,40
1756487809209287,00000415,false,Rx,0,8,00,00,00,00,00,00,00,00
1756487809209358,00000416,false,Rx,0,8,00,00,00,00,00,00,00,00
1756487809209500,00000417,false,Rx,0,8,00,00,00,00,00,00,00,00
1756487809209700,00000418,false,Rx,0,8,DB,D7,81,73,46,94,66,40
1756487809209770,00000419,false,Rx,0,8,01,00,00,00,00,00,00,00
1756487809209834,00000488,false,Rx,0,8,0A,27,51,00,4B,01,0A,00
1756487809211022,00000188,false,Rx,0,6,B8,FF,11,00,F2,03,00,00
1756487809211211,00000194,false,Rx,0,6,14,00,0D,00,05,00,00,00
1756487809211273,00000288,false,Rx,0,6,00,00,00,00,00,00,00,00
1756487809212337,00000393,false,Rx,0,6,00,01,C5,01,FF,00,00,00
1756487809212445,00000293,false,Rx,0,4,BF,A3,00,00,00,00,00,00
1756487809212544,00000713,false,Rx,0,1,05,00,00,00,00,00,00,00
1756487809212640,00000181,false,Rx,0,8,04,10,00,E9,02,00,00,00
1756487809212740,00000733,false,Rx,0,8,06,6F,12,03,3B,A3,00,05
1756487809212837,00000193,false,Rx,0,6,14,00,FE,FF,FE,FF,00,00
1756487809215822,00000213,false,Rx,0,4,08,00,00,00,00,00,00,00
1756487809215937,00000214,false,Rx,0,4,08,00,00,00,00,00,00,00
1756487809220640,00000488,false,Rx,0,8,0A,27,51,00,4B,01,0A,00
1756487809220946,00000194,false,Rx,0,6,14,00,07,00,02,00,00,00
1756487809221273,00000188,false,Rx,0,6,C2,FF,14,00,E5,03,00,00
1756487809221476,00000288,false,Rx,0,6,00,00,00,00,00,00,00,00
1756487809222183,00000193,false,Rx,0,6,14,00,FF,FF,05,00,00,00
1756487809225765,00000181,false,Rx,0,8,04,10,00,E9,02,00,00,00
1756487809226819,00000213,false,Rx,0,4,08,00,00,00,00,00,00,00
1756487809226927,00000214,false,Rx,0,4,08,00,00,00,00,00,00,00
1756487809230822,00000194,false,Rx,0,6,14,00,04,00,02,00,00,00
1756487809230985,00000488,false,Rx,0,8,0A,27,51,00,4B,01,0A,00
1756487809231568,00000188,false,Rx,0,6,CD,FF,05,00,F9,03,00,00
1756487809231773,00000288,false,Rx,0,6,00,00,00,00,00,00,00,00
1756487809231997,00000193,false,Rx,0,6,14,00,03,00,FE,FF,00,00
1756487809236824,00000213,false,Rx,0,4,08,00,00,00,00,00,00,00
1756487809236934,00000214,false,Rx,0,4,08,00,00,00,00,00,00,00
1756487809239074,00000181,false,Rx,0,8,04,10,00,E9,02,00,00,00
1756487809240612,00000194,false,Rx,0,6,14,00,05,00,00,00,00,00
1756487809241266,00000488,false,Rx,0,8,0A,27,51,00,4B,01,0A,00
1756487809241814,00000193,false,Rx,0,6,14,00,FF,FF,FA,FF,00,00
1756487809241949,00000188,false,Rx,0,6,BF,FF,12,00,E2,03,00,00
1756487809242067,00000288,false,Rx,0,6,00,00,00,00,00,00,00,00
1756487809246722,00000213,false,Rx,0,4,08,00,00,00,00,00,00,00
1756487809246827,00000214,false,Rx,0,4,08,00,00,00,00,00,00,00
1756487809250429,00000394,false,Rx,0,6,52,05,CD,01,0E,01,00,00
1756487809250543,00000294,false,Rx,0,4,2E,A3,61,00,00,00,00,00
1756487809250643,00000714,false,Rx,0,1,05,00,00,00,00,00,00,00
1756487809250810,00000734,false,Rx,0,8,07,00,00,80,3F,A3,61,05
1756487809250875,00000194,false,Rx,0,6,14,00,03,00,01,00,00,00
1756487809251550,00000488,false,Rx,0,8,0A,27,51,00,4B,01,0A,00
1756487809251650,00000193,false,Rx,0,6,14,00,FD,FF,FA,FF,00,00
1756487809252178,00000188,false,Rx,0,6,BC,FF,13,00,DA,03,00,00
1756487809252302,00000181,false,Rx,0,8,04,10,00,E9,02,00,00,00
1756487809252420,00000288,false,Rx,0,6,00,00,00,00,00,00,00,00
1756487809256631,00000213,false,Rx,0,4,08,00,00,00,00,00,00,00
1756487809256741,00000214,false,Rx,0,4,08,00,00,00,00,00,00,00
1756487809260268,00000194,false,Rx,0,6,14,00,09,00,01,00,00,00
1756487809261485,00000193,false,Rx,0,6,14,00,FE,FF,FD,FF,00,00
1756487809261864,00000488,false,Rx,0,8,0A,27,51,00,4A,01,0A,00
1756487809263681,00000188,false,Rx,0,6,C4,FF,11,00,F5,03,00,00
1756487809263809,00000288,false,Rx,0,6,00,00,00,00,00,00,00,00
1756487809267632,00000213,false,Rx,0,4,08,00,00,00,00,00,00,00
1756487809267738,00000214,false,Rx,0,4,08,00,00,00,00,00,00,00
1756487809270094,00000194,false,Rx,0,6,14,00,09,00,00,00,00,00
1756487809271317,00000193,false,Rx,0,6,14,00,FA,FF,FE,FF,00,00
1756487809272361,00000488,false,Rx,0,8,0A,27,51,00,4A,01,0A,00
1756487809273854,00000188,false,Rx,0,6,C1,FF,0D,00,F0,03,00,00
1756487809273981,00000288,false,Rx,0,6,00,00,00,00,00,00,00,00
1756487809277553,00000213,false,Rx,0,4,08,00,00,00,00,00,00,00
1756487809277667,00000214,false,Rx,0,4,08,00,00,00,00,00,00,00
1756487809279925,00000194,false,Rx,0,6,14,00,0D,00,FF,FF,00,00
1756487809281144,00000193,false,Rx,0,6,14,00,01,00,FF,FF,00,00
1756487809283719,00000488,false,Rx,0,8,0A,27,52,00,4A,01,0A,00
1756487809284067,00000188,false,Rx,0,6,C5,FF,11,00,ED,03,00,00
1756487809284275,00000288,false,Rx,0,6,00,00,00,00,00,00,00,00
1756487809287436,00000213,false,Rx,0,4,08,00,00,00,00,00,00,00
1756487809287544,00000214,false,Rx,0,4,08,00,00,00,00,00,00,00
1756487809289753,00000194,false,Rx,0,6,14,00,04,00,00,00,00,00
1756487809290965,00000193,false,Rx,0,6,14,00,0A,00,F9,FF,00,00
1756487809292948,00000701,false,Rx,0,1,05,00,00,00,00,00,00,00
1756487809293983,00000488,false,Rx,0,8,0A,27,52,00,4A,01,0A,00
1756487809294369,00000188,false,Rx,0,6,B8,FF,11,00,E1,03,00,00
1756487809294575,00000288,false,Rx,0,6,00,00,00,00,00,00,00,00
1756487809298441,00000213,false,Rx,0,4,08,00,00,00,00,00,00,00
1756487809298549,00000214,false,Rx,0,4,08,00,00,00,00,00,00,00
1756487809299570,00000194,false,Rx,0,6,14,00,01,00,00,00,00,00
1756487809300796,00000193,false,Rx,0,6,14,00,FE,FF,01,00,00,00
1756487809302898,00000181,false,Rx,0,8,04,10,00,E9,02,00,00,00
1756487809304331,00000488,false,Rx,0,8,0A,27,52,00,4A,01,0A,00
1756487809304733,00000188,false,Rx,0,6,B8,FF,13,00,DA,03,00,00
1756487809304882,00000288,false,Rx,0,6,00,00,00,00,00,00,00,00
1756487809307856,00000710,false,Rx,0,1,7F,00,00,00,00,00,00,00
1756487809308015,00000290,false,Rx,0,7,01,E8,00,00,00,00,00,00
1756487809308091,00000490,false,Rx,0,5,64,00,00,00,00,00,00,00
1756487809308560,00000213,false,Rx,0,4,08,00,00,00,00,00,00,00
1756487809308663,00000214,false,Rx,0,4,08,00,00,00,00,00,00,00
1756487809308902,00000400,false,Rx,0,8,89,CA,E8,0E,79,B7,6F,48
1756487809308975,00000401,false,Rx,0,2,00,00,00,00,00,00,00,00
1756487809309144,00000410,false,Rx,0,8,00,00,00,00,00,00,00,00
1756487809309644,00000194,false,Rx,0,6,14,00,FE,FF,FD,FF,00,00
1756487809309944,00000411,false,Rx,0,8,00,00,00,00,00,00,00,00
1756487809310145,00000412,false,Rx,0,8,00,00,00,00,00,00,00,00
1756487809310253,00000413,false,Rx,0,8,00,00,00,00,00,00,00,00
1756487809310751,00000414,false,Rx,0,8,00,00,00,00,00,00,00,00
1756487809311186,00000393,false,Rx,0,6,00,01,C5,01,07,01,00,00
1756487809311802,00000293,false,Rx,0,4,97,A3,00,00,00,00,00,00
1756487809312266,00000713,false,Rx,0,1,05,00,00,00,00,00,00,00
1756487809312388,00000733,false,Rx,0,8,07,00,00,80,3F,A3,00,05
1756487809312485,00000193,false,Rx,0,6,14,00,FB,FF,FD,FF,00,00
1756487809312566,00000415,false,Rx,0,8,00,00,00,00,00,00,00,00
1756487809312640,00000416,false,Rx,0,8,00,00,00,00,00,00,00,00
1756487809313130,00000417,false,Rx,0,8,00,00,00,00,00,00,00,00
1756487809313417,00000418,false,Rx,0,8,00,00,00,00,00,00,00,00
1756487809313739,00000419,false,Rx,0,8,00,00,00,00,00,00,00,00
1756487809314085,00000402,false,Rx,0,8,F9,FF,FF,FF,00,00,00,00
1756487809314679,00000403,false,Rx,0,8,00,00,00,00,00,00,00,00
1756487809315135,00000488,false,Rx,0,8,0A,27,52,00,4A,01,0A,00
1756487809316020,00000404,false,Rx,0,8,00,00,00,00,00,00,00,00
1756487809316297,00000405,false,Rx,0,8,00,00,00,00,00,00,00,00
1756487809316362,00000406,false,Rx,0,8,00,00,00,00,00,00,00,00
1756487809316423,00000188,false,Rx,0,6,C1,FF,12,00,EC,03,00,00
1756487809316482,00000288,false,Rx,0,6,00,00,00,00,00,00,00,00
1756487809316541,00000407,false,Rx,0,8,00,00,00,00,00,00,00,00
1756487809316599,00000181,false,Rx,0,8,04,10,00,E9,02,00,00,00
1756487809316656,00000408,false,Rx,0,8,07,00,00,00,00,00,00,00
1756487809318293,00000213,false,Rx,0,4,08,00,00,00,00,00,00,00
1756487809318416,00000214,false,Rx,0,4,08,00,00,00,00,00,00,00
1756487809319223,00000194,false,Rx,0,6,14,00,FF,FF,00,00,00,00
1756487809320477,00000193,false,Rx,0,6,14,00,FB,FF,FA,FF,00,00
1756487809325718,00000488,false,Rx,0,8,0A,27,52,00,4A,01,0A,00
1756487809325901,00000188,false,Rx,0,6,B7,FF,17,00,DD,03,00,00
1756487809325963,00000288,false,Rx,0,6,00,00,00,00,00,00,00,00
1756487809328172,00000213,false,Rx,0,4,08,00,00,00,00,00,00,00
1756487809328280,00000214,false,Rx,0,4,08,00,00,00,00,00,00,00
1756487809329055,00000194,false,Rx,0,6,14,00,03,00,FE,FF,00,00
1756487809329312,00000181,false,Rx,0,8,04,10,00,E9,02,00,00,00
1756487809330282,00000193,false,Rx,0,6,14,00,0E,00,FE,FF,00,00
1756487809335885,00000488,false,Rx,0,8,0A,27,52,00,4A,01,0A,00
1756487809336077,00000188,false,Rx,0,6,C4,FF,0C,00,E5,03,00,00
1756487809336139,00000288,false,Rx,0,6,00,00,00,00,00,00,00,00
1756487809338897,00000194,false,Rx,0,6,14,00,FE,FF,00,00,00,00
1756487809339176,00000213,false,Rx,0,4,08,00,00,00,00,00,00,00
1756487809339286,00000214,false,Rx,0,4,08,00,00,00,00,00,00,00
1756487809340100,00000193,false,Rx,0,6,14,00,04,00,01,00,00,00
1756487809346090,00000488,false,Rx,0,8,0A,27,51,00,4A,01,0A,00
1756487809346208,00000188,false,Rx,0,6,C2,FF,0E,00,F4,03,00,00
1756487809346335,00000288,false,Rx,0,6,00,00,00,00,00,00,00,00
1756487809348697,00000394,false,Rx,0,6,52,05,CD,01,16,01,00,00
1756487809348819,00000294,false,Rx,0,4,47,A3,1C,00,00,00,00,00
1756487809348959,00000714,false,Rx,0,1,05,00,00,00,00,00,00,00
1756487809349018,00000734,false,Rx,0,8,08,00,00,80,3F,A3,1C,05
1756487809349117,00000194,false,Rx,0,6,14,00,05,00,FC,FF,00,00
1756487809349218,00000213,false,Rx,0,4,08,00,00,00,00,00,00,00
1756487809349336,00000214,false,Rx,0,4,08,00,00,00,00,00,00,00
1756487809349939,00000193,false,Rx,0,6,14,00,01,00,00,00,00,00
1756487809356284,00000488,false,Rx,0,8,0A,27,51,00,4A,01,0A,00
1756487809356394,00000188,false,Rx,0,6,BF,FF,13,00,DC,03,00,00
1756487809356492,00000288,false,Rx,0,6,00,00,00,00,00,00,00,00
1756487809359147,00000194,false,Rx,0,6,14,00,08,00,FD,FF,00,00
1756487809359318,00000213,false,Rx,0,4,08,00,00,00,00,00,00,00
1756487809359396,00000214,false,Rx,0,4,08,00,00,00,00,00,00,00
1756487809360834,00000193,false,Rx,0,6,14,00,06,00,00,00,00,00
1756487809366564,00000488,false,Rx,0,8,0A,27,51,00,4A,01,0A,00
1756487809366709,00000188,false,Rx,0,6,C0,FF,12,00,E2,03,00,00
1756487809366781,00000288,false,Rx,0,6,00,00,00,00,00,00,00,00
1756487809368480,00000194,false,Rx,0,6,14,00,FF,FF,00,00,00,00
1756487809369966,00000193,false,Rx,0,6,14,00,06,00,FF,FF,00,00
1756487809370188,00000213,false,Rx,0,4,08,00,00,00,00,00,00,00
1756487809370268,00000214,false,Rx,0,4,08,00,00,00,00,00,00,00
1756487809376999,00000488,false,Rx,0,8,0A,27,51,00,4A,01,0A,00
1756487809377129,00000188,false,Rx,0,6,C4,FF,06,00,F5,03,00,00
1756487809377192,00000288,false,Rx,0,6,00,00,00,00,00,00,00,00
1756487809378362,00000194,false,Rx,0,6,14,00,FF,FF,05,00,00,00
1756487809379546,00000193,false,Rx,0,6,14,00,01,00,01,00,00,00
1756487809379913,00000213,false,Rx,0,4,08,00,00,00,00,00,00,00
1756487809379996,00000214,false,Rx,0,4,08,00,00,00,00,00,00,00
1756487809387009,00000488,false,Rx,0,8,0A,27,51,00,4A,01,0A,00
1756487809387179,00000188,false,Rx,0,6,BF,FF,14,00,DF,03,00,00
1756487809387268,00000288,false,Rx,0,6,00,00,00,00,00,00,00,00
1756487809388184,00000194,false,Rx,0,6,14,00,00,00,01,00,00,00
1756487809389418,00000193,false,Rx,0,6,14,00,F5,FF,01,00,00,00
1756487809389908,00000213,false,Rx,0,4,08,00,00,00,00,00,00,00
1756487809390043,00000214,false,Rx,0,4,08,00,00,00,00,00,00,00
1756487809393358,00000701,false,Rx,0,1,05,00,00,00,00,00,00,00
1756487809397418,00000488,false,Rx,0,8,0A,27,52,00,4A,01,0A,00
1756487809397649,00000188,false,Rx,0,6,BD,FF,1A,00,DD,03,00,00
1756487809397964,00000288,false,Rx,0,6,00,00,00,00,00,00,00,00
1756487809398042,00000194,false,Rx,0,6,14,00,00,00,01,00,00,00
1756487809399200,00000193,false,Rx,0,6,14,00,F1,FF,FF,FF,00,00
1756487809399872,00000213,false,Rx,0,4,08,00,00,00,00,00,00,00
1756487809400027,00000214,false,Rx,0,4,08,00,00,00,00,00,00,00
1756487809403133,00000181,false,Rx,0,8,04,10,00,E9,02,00,00,00
1756487809407359,00000488,false,Rx,0,8,0A,27,52,00,4A,01,0A,00
1756487809407526,00000188,false,Rx,0,6,C2,FF,07,00,F3,03,00,00
1756487809407654,00000288,false,Rx,0,6,00,00,00,00,00,00,00,00
1756487809407723,00000194,false,Rx,0,6,14,00,FF,FF,03,00,00,00
1756487809408906,00000393,false,Rx,0,6,00,01,C5,01,07,01,00,00
1756487809409090,00000293,false,Rx,0,4,B7,A3,00,00,00,00,00,00
1756487809409212,00000713,false,Rx,0,1,05,00,00,00,00,00,00,00
1756487809409350,00000733,false,Rx,0,8,08,00,00,80,3F,A3,00,05
1756487809409417,00000193,false,Rx,0,6,14,00,0B,00,02,00,00,00
1756487809410723,00000213,false,Rx,0,4,08,00,00,00,00,00,00,00
1756487809410845,00000214,false,Rx,0,4,08,00,00,00,00,00,00,00
1756487809415123,00000710,false,Rx,0,1,7F,00,00,00,00,00,00,00
1756487809416257,00000181,false,Rx,0,8,04,10,00,E9,02,00,00,00
1756487809417482,00000488,false,Rx,0,8,0A,27,52,00,4A,01,0A,00
1756487809417791,00000194,false,Rx,0,6,14,00,00,00,FF,FF,00,00
1756487809418594,00000188,false,Rx,0,6,BC,FF,18,00,E6,03,00,00
1756487809418709,00000288,false,Rx,0,6,00,00,00,00,00,00,00,00
1756487809418828,00000193,false,Rx,0,6,14,00,05,00,00,00,00,00
1756487809420591,00000213,false,Rx,0,4,08,00,00,00,00,00,00,00
1756487809420696,00000214,false,Rx,0,4,08,00,00,00,00,00,00,00
1756487809427354,00000194,false,Rx,0,6,14,00,06,00,04,00,00,00
1756487809428554,00000193,false,Rx,0,6,14,00,FD,FF,00,00,00,00
1756487809428663,00000488,false,Rx,0,8,0A,27,52,00,4A,01,0A,00
1756487809428767,00000188,false,Rx,0,6,BE,FF,0C,00,EC,03,00,00
1756487809428888,00000288,false,Rx,0,6,00,00,00,00,00,00,00,00
1756487809430499,00000213,false,Rx,0,4,08,00,00,00,00,00,00,00
1756487809430604,00000214,false,Rx,0,4,08,00,00,00,00,00,00,00
1756487809437180,00000194,false,Rx,0,6,14,00,00,00,03,00,00,00
1756487809438393,00000193,false,Rx,0,6,14,00,02,00,FF,FF,00,00
1756487809438878,00000488,false,Rx,0,8,0A,27,52,00,4A,01,0A,00
1756487809439037,00000188,false,Rx,0,6,BE,FF,0D,00,F1,03,00,00
1756487809439182,00000288,false,Rx,0,6,00,00,00,00,00,00,00,00
1756487809441501,00000213,false,Rx,0,4,08,00,00,00,00,00,00,00
1756487809441633,00000214,false,Rx,0,4,08,00,00,00,00,00,00,00
1756487809447055,00000394,false,Rx,0,6,55,05,CD,01,02,01,00,00
1756487809447188,00000294,false,Rx,0,4,35,A3,49,00,00,00,00,00
1756487809447289,00000714,false,Rx,0,1,05,00,00,00,00,00,00,00
1756487809447403,00000734,false,Rx,0,8,09,00,00,00,00,A3,49,05
1756487809447462,00000194,false,Rx,0,6,14,00,01,00,01,00,00,00
1756487809448212,00000193,false,Rx,0,6,14,00,03,00,FE,FF,00,00
1756487809449175,00000488,false,Rx,0,8,0A,27,52,00,4A,01,0A,00
1756487809449333,00000188,false,Rx,0,6,B4,FF,1C,00,DB,03,00,00
1756487809449476,00000288,false,Rx,0,6,00,00,00,00,00,00,00,00
1756487809451408,00000213,false,Rx,0,4,08,00,00,00,00,00,00,00
1756487809451521,00000214,false,Rx,0,4,08,00,00,00,00,00,00,00
1756487809456822,00000194,false,Rx,0,6,14,00,05,00,04,00,00,00
1756487809458042,00000193,false,Rx,0,6,14,00,EF,FF,07,00,00,00
1756487809459479,00000488,false,Rx,0,8,0A,27,52,00,4A,01,0A,00
1756487809459647,00000188,false,Rx,0,6,C0,FF,0A,00,EC,03,00,00
1756487809459782,00000288,false,Rx,0,6,00,00,00,00,00,00,00,00
1756487809461303,00000213,false,Rx,0,4,08,00,00,00,00,00,00,00
1756487809461407,00000214,false,Rx,0,4,08,00,00,00,00,00,00,00
1756487809466652,00000194,false,Rx,0,6,14,00,06,00,03,00,00,00
1756487809467866,00000193,false,Rx,0,6,14,00,F5,FF,02,00,00,00
1756487809469778,00000488,false,Rx,0,8,0A,27,52,00,4A,01,0A,00
1756487809469892,00000188,false,Rx,0,6,C6,FF,0C,00,ED,03,00,00
1756487809470746,00000288,false,Rx,0,6,00,00,00,00,00,00,00,00
1756487809471229,00000213,false,Rx,0,4,08,00,00,00,00,00,00,00
1756487809471347,00000214,false,Rx,0,4,08,00,00,00,00,00,00,00
1756487809476486,00000194,false,Rx,0,6,14,00,06,00,00,00,00,00
1756487809477698,00000193,false,Rx,0,6,14,00,06,00,03,00,00,00
1756487809480785,00000188,false,Rx,0,6,B9,FF,0F,00,D6,03,00,00
1756487809480898,00000288,false,Rx,0,6,00,00,00,00,00,00,00,00
1756487809481015,00000488,false,Rx,0,8,0A,27,52,00,4A,01,0A,00
1756487809482275,00000181,false,Rx,0,8,A0,0F,00,E9,02,00,00,00
1756487809482449,00000213,false,Rx,0,4,08,00,00,00,00,00,00,00
1756487809482510,00000214,false,Rx,0,4,08,00,00,00,00,00,00,00
1756487809486307,00000194,false,Rx,0,6,14,00,0E,00,00,00,00,00
1756487809487517,00000193,false,Rx,0,6,14,00,02,00,06,00,00,00
1756487809490885,00000488,false,Rx,0,8,0A,27,52,00,4A,01,0A,00
1756487809490997,00000188,false,Rx,0,6,C5,FF,0A,00,F8,03,00,00
1756487809491103,00000288,false,Rx,0,6,00,00,00,00,00,00,00,00
1756487809492159,00000213,false,Rx,0,4,08,00,00,00,00,00,00,00
1756487809492264,00000214,false,Rx,0,4,08,00,00,00,00,00,00,00
1756487809493410,00000701,false,Rx,0,1,05,00,00,00,00,00,00,00
1756487809495480,00000181,false,Rx,0,8,04,10,00,E9,02,00,00,00
1756487809496150,00000194,false,Rx,0,6,14,00,04,00,FF,FF,00,00
1756487809497346,00000193,false,Rx,0,6,14,00,FE,FF,01,00,00,00
1756487809501086,00000488,false,Rx,0,8,0A,27,52,00,4A,01,0A,00
1756487809501196,00000188,false,Rx,0,6,BF,FF,15,00,D9,03,00,00
1756487809501294,00000288,false,Rx,0,6,00,00,00,00,00,00,00,00
1756487809502086,00000213,false,Rx,0,4,08,00,00,00,00,00,00,00
1756487809502191,00000214,false,Rx,0,4,08,00,00,00,00,00,00,00
1756487809505951,00000194,false,Rx,0,6,14,00,0B,00,00,00,00,00
1756487809507150,00000393,false,Rx,0,6,01,01,C5,01,07,01,00,00
1756487809507257,00000293,false,Rx,0,4,A4,A3,00,00,00,00,00,00
1756487809507354,00000713,false,Rx,0,1,05,00,00,00,00,00,00,00
1756487809507455,00000733,false,Rx,0,8,09,00,00,00,00,A3,00,05
1756487809507585,00000193,false,Rx,0,6,14,00,F4,FF,07,00,00,00
1756487809507707,00000290,false,Rx,0,7,01,E8,00,00,00,00,00,00
1756487809507825,00000490,false,Rx,0,5,64,00,00,00,00,00,00,00
1756487809511371,00000488,false,Rx,0,8,0A,27,52,00,4A,01,0A,00
1756487809511533,00000188,false,Rx,0,6,BE,FF,12,00,DB,03,00,00
1756487809511595,00000288,false,Rx,0,6,00,00,00,00,00,00,00,00
1756487809513092,00000181,false,Rx,0,8,A0,0F,00,EA,02,00,00,00
1756487809513273,00000213,false,Rx,0,4,08,00,00,00,00,00,00,00
1756487809513333,00000214,false,Rx,0,4,08,00,00,00,00,00,00,00
1756487809515792,00000194,false,Rx,0,6,14,00,0C,00,01,00,00,00
1756487809517004,00000193,false,Rx,0,6,14,00,F6,FF,02,00,00,00
1756487809521499,00000488,false,Rx,0,8,0A,27,52,00,4A,01,0A,00
1756487809521676,00000188,false,Rx,0,6,C4,FF,0B,00,F1,03,00,00
1756487809521742,00000288,false,Rx,0,6,00,00,00,00,00,00,00,00
1756487809522944,00000213,false,Rx,0,4,08,00,00,00,00,00,00,00
1756487809523051,00000214,false,Rx,0,4,08,00,00,00,00,00,00,00
1756487809525631,00000194,false,Rx,0,6,14,00,0A,00,00,00,00,00
1756487809526296,00000181,false,Rx,0,8,04,10,00,E9,02,00,00,00
1756487809526828,00000193,false,Rx,0,6,14,00,F2,FF,04,00,00,00
1756487809531685,00000488,false,Rx,0,8,0A,27,52,00,4A,01,0A,00
1756487809531793,00000188,false,Rx,0,6,BD,FF,19,00,EC,03,00,00
1756487809531891,00000288,false,Rx,0,6,00,00,00,00,00,00,00,00
1756487809532886,00000213,false,Rx,0,4,08,00,00,00,00,00,00,00
1756487809532986,00000214,false,Rx,0,4,08,00,00,00,00,00,00,00
1756487809535434,00000194,false,Rx,0,6,14,00,0C,00,01,00,00,00
1756487809536654,00000193,false,Rx,0,6,14,00,F0,FF,07,00,00,00
1756487809541888,00000488,false,Rx,0,8,0A,27,52,00,4A,01,0A,00
1756487809541998,00000188,false,Rx,0,6,B8,FF,12,00,D7,03,00,00
1756487809542099,00000288,false,Rx,0,6,00,00,00,00,00,00,00,00
1756487809542855,00000181,false,Rx,0,8,04,10,00,E9,02,00,00,00
1756487809543843,00000213,false,Rx,0,4,08,00,00,00,00,00,00,00
1756487809543953,00000214,false,Rx,0,4,08,00,00,00,00,00,00,00
1756487809545234,00000394,false,Rx,0,6,55,05,CD,01,02,01,00,00
1756487809545342,00000294,false,Rx,0,4,46,A3,A3,FF,00,00,00,00
1756487809545440,00000714,false,Rx,0,1,05,00,00,00,00,00,00,00
1756487809545553,00000734,false,Rx,0,8,01,9A,99,19,40,A3,A3,05
1756487809545673,00000194,false,Rx,0,6,14,00,0A,00,01,00,00,00
1756487809546480,00000193,false,Rx,0,6,14,00,F1,FF,05,00,00,00
1756487809552121,00000488,false,Rx,0,8,0A,27,52,00,4A,01,0A,00
1756487809552296,00000188,false,Rx,0,6,C3,FF,13,00,F7,03,00,00
1756487809552358,00000288,false,Rx,0,6,00,00,00,00,00,00,00,00
1756487809553756,00000213,false,Rx,0,4,08,00,00,00,00,00,00,00
1756487809553862,00000214,false,Rx,0,4,08,00,00,00,00,00,00,00
1756487809555081,00000194,false,Rx,0,6,14,00,09,00,00,00,00,00
1756487809556027,00000181,false,Rx,0,8,04,10,00,E9,02,00,00,00
1756487809556296,00000193,false,Rx,0,6,14,00,F9,FF,01,00,00,00
1756487809562360,00000488,false,Rx,0,8,0A,27,52,00,4A,01,0A,00
1756487809562487,00000188,false,Rx,0,6,BE,FF,0F,00,EE,03,00,00
1756487809562554,00000288,false,Rx,0,6,00,00,00,00,00,00,00,00
1756487809563682,00000213,false,Rx,0,4,08,00,00,00,00,00,00,00
1756487809563792,00000214,false,Rx,0,4,08,00,00,00,00,00,00,00
1756487809564910,00000194,false,Rx,0,6,14,00,04,00,01,00,00,00
1756487809566134,00000193,false,Rx,0,6,14,00,FB,FF,07,00,00,00
1756487809572483,00000488,false,Rx,0,8,0A,27,52,00,4A,01,0A,00
1756487809572616,00000181,false,Rx,0,8,04,10,00,E9,02,00,00,00
1756487809573795,00000188,false,Rx,0,6,B7,FF,16,00,D3,03,00,00
1756487809573901,00000288,false,Rx,0,6,00,00,00,00,00,00,00,00
1756487809574700,00000213,false,Rx,0,4,08,00,00,00,00,00,00,00
1756487809574806,00000194,false,Rx,0,6,14,00,0C,00,02,00,00,00
1756487809574923,00000214,false,Rx,0,4,08,00,00,00,00,00,00,00
1756487809575960,00000193,false,Rx,0,6,14,00,F8,FF,FD,FF,00,00
1756487809583834,00000488,false,Rx,0,8,0A,27,52,00,4A,01,0A,00
1756487809583945,00000188,false,Rx,0,6,BF,FF,0C,00,FC,03,00,00
1756487809584062,00000288,false,Rx,0,6,00,00,00,00,00,00,00,00
1756487809584541,00000194,false,Rx,0,6,14,00,02,00,01,00,00,00
1756487809584651,00000213,false,Rx,0,4,08,00,00,00,00,00,00,00
1756487809584775,00000214,false,Rx,0,4,08,00,00,00,00,00,00,00
1756487809585787,00000193,false,Rx,0,6,14,00,F4,FF,05,00,00,00
1756487809593694,00000701,false,Rx,0,1,05,00,00,00,00,00,00,00
1756487809593849,00000488,false,Rx,0,8,0A,27,52,00,4A,01,0A,00
1756487809593978,00000188,false,Rx,0,6,BE,FF,10,00,D4,03,00,00
1756487809594185,00000288,false,Rx,0,6,00,00,00,00,00,00,00,00
1756487809594413,00000194,false,Rx,0,6,14,00,04,00,02,00,00,00
1756487809594514,00000213,false,Rx,0,4,08,00,00,00,00,00,00,00
1756487809594619,00000214,false,Rx,0,4,08,00,00,00,00,00,00,00
1756487809595617,00000193,false,Rx,0,6,14,00,FF,FF,00,00,00,00
1756487809604171,00000488,false,Rx,0,8,0A,27,52,00,4A,01,0A,00
1756487809604285,00000188,false,Rx,0,6,C1,FF,12,00,E8,03,00,00
1756487809604437,00000194,false,Rx,0,6,14,00,0A,00,FC,FF,00,00
1756487809604538,00000288,false,Rx,0,6,00,00,00,00,00,00,00,00
1756487809604635,00000213,false,Rx,0,4,08,00,00,00,00,00,00,00
1756487809604695,00000214,false,Rx,0,4,08,00,00,00,00,00,00,00
1756487809605419,00000393,false,Rx,0,6,01,01,C5,01,07,01,00,00
1756487809605545,00000293,false,Rx,0,4,94,A3,00,00,00,00,00,00
1756487809605695,00000713,false,Rx,0,1,05,00,00,00,00,00,00,00
1756487809605816,00000733,false,Rx,0,8,01,9A,99,19,40,A3,00,05
1756487809605877,00000193,false,Rx,0,6,14,00,FF,FF,01,00,00,00
1756487809614132,00000194,false,Rx,0,6,14,00,06,00,FB,FF,00,00
1756487809614465,00000488,false,Rx,0,8,0A,27,52,00,4A,01,0A,00
1756487809614569,00000188,false,Rx,0,6,C5,FF,06,00,FC,03,00,00
1756487809614781,00000288,false,Rx,0,6,00,00,00,00,00,00,00,00
1756487809615281,00000193,false,Rx,0,6,14,00,F9,FF,08,00,00,00
1756487809615728,00000213,false,Rx,0,4,08,00,00,00,00,00,00,00
1756487809615830,00000214,false,Rx,0,4,08,00,00,00,00,00,00,00
1756487809623885,00000194,false,Rx,0,6,14,00,05,00,FD,FF,00,00
1756487809624772,00000488,false,Rx,0,8,0A,27,52,00,4A,01,0A,00
1756487809624880,00000188,false,Rx,0,6,BD,FF,12,00,D5,03,00,00
1756487809625095,00000193,false,Rx,0,6,14,00,02,00,FB,FF,00,00
1756487809625643,00000213,false,Rx,0,4,08,00,00,00,00,00,00,00
1756487809625748,00000214,false,Rx,0,4,08,00,00,00,00,00,00,00
1756487809625864,00000288,false,Rx,0,6,00,00,00,00,00,00,00,00
1756487809631017,00000710,false,Rx,0,1,7F,00,00,00,00,00,00,00
1756487809633743,00000194,false,Rx,0,6,14,00,05,00,FC,FF,00,00
1756487809634961,00000193,false,Rx,0,6,14,00,FE,FF,FC,FF,00,00
1756487809635207,00000488,false,Rx,0,8,0A,27,52,00,4A,01,0A,00
1756487809635620,00000213,false,Rx,0,4,08,00,00,00,00,00,00,00
1756487809635723,00000214,false,Rx,0,4,08,00,00,00,00,00,00,00
1756487809635839,00000188,false,Rx,0,6,BD,FF,17,00,DD,03,00,00
1756487809636299,00000288,false,Rx,0,6,00,00,00,00,00,00,00,00
1756487809643520,00000394,false,Rx,0,6,55,05,CD,01,0E,01,00,00
1756487809643631,00000294,false,Rx,0,4,3D,A3,99,00,00,00,00,00
1756487809643729,00000714,false,Rx,0,1,05,00,00,00,00,00,00,00
1756487809643827,00000734,false,Rx,0,8,02,00,00,C0,3F,A3,99,05
1756487809643948,00000194,false,Rx,0,6,14,00,0B,00,FD,FF,00,00
1756487809644754,00000193,false,Rx,0,6,14,00,FC,FF,FC,FF,00,00
1756487809645501,00000213,false,Rx,0,4,08,00,00,00,00,00,00,00
1756487809645628,00000214,false,Rx,0,4,08,00,00,00,00,00,00,00
1756487809646054,00000188,false,Rx,0,6,BE,FF,05,00,F0,03,00,00
1756487809646157,00000488,false,Rx,0,8,0A,27,52,00,4A,01,0A,00
1756487809646257,00000288,false,Rx,0,6,00,00,00,00,00,00,00,00
1756487809653366,00000194,false,Rx,0,6,14,00,08,00,FC,FF,00,00
1756487809654603,00000193,false,Rx,0,6,14,00,FC,FF,FB,FF,00,00
1756487809656170,00000188,false,Rx,0,6,B7,FF,14,00,DF,03,00,00
1756487809656327,00000488,false,Rx,0,8,0A,27,52,00,4A,01,0A,00
1756487809656466,00000288,false,Rx,0,6,00,00,00,00,00,00,00,00
1756487809656568,00000213,false,Rx,0,4,08,00,00,00,00,00,00,00
1756487809656684,00000214,false,Rx,0,4,08,00,00,00,00,00,00,00
1756487809663218,00000194,false,Rx,0,6,14,00,02,00,FB,FF,00,00
1756487809664420,00000193,false,Rx,0,6,14,00,F1,FF,FC,FF,00,00
1756487809666410,00000213,false,Rx,0,4,08,00,00,00,00,00,00,00
1756487809666522,00000188,false,Rx,0,6,BB,FF,14,00,DA,03,00,00
1756487809666623,00000214,false,Rx,0,4,08,00,00,00,00,00,00,00
1756487809666723,00000488,false,Rx,0,8,0A,27,52,00,4A,01,0A,00
1756487809666841,00000288,false,Rx,0,6,00,00,00,00,00,00,00,00
1756487809673072,00000194,false,Rx,0,6,14,00,01,00,FE,FF,00,00
1756487809674252,00000193,false,Rx,0,6,14,00,07,00,FC,FF,00,00
1756487809676303,00000213,false,Rx,0,4,08,00,00,00,00,00,00,00
1756487809676413,00000214,false,Rx,0,4,08,00,00,00,00,00,00,00
1756487809676782,00000188,false,Rx,0,6,C2,FF,0B,00,F0,03,00,00
1756487809676946,00000488,false,Rx,0,8,0A,27,52,00,4A,01,0A,00
1756487809677087,00000288,false,Rx,0,6,00,00,00,00,00,00,00,00
1756487809682849,00000194,false,Rx,0,6,14,00,04,00,FF,FF,00,00
1756487809684064,00000193,false,Rx,0,6,14,00,F9,FF,FA,FF,00,00
1756487809686210,00000213,false,Rx,0,4,08,00,00,00,00,00,00,00
1756487809686313,00000214,false,Rx,0,4,08,00,00,00,00,00,00,00
1756487809687079,00000188,false,Rx,0,6,BA,FF,14,00,E3,03,00,00
1756487809687236,00000488,false,Rx,0,8,0A,27,52,00,4A,01,0A,00
1756487809687395,00000288,false,Rx,0,6,00,00,00,00,00,00,00,00
1756487809692673,00000194,false,Rx,0,6,14,00,FF,FF,FB,FF,00,00
1756487809693874,00000193,false,Rx,0,6,14,00,0A,00,FF,FF,00,00
1756487809693977,00000701,false,Rx,0,1,05,00,00,00,00,00,00,00
1756487809697210,00000213,false,Rx,0,4,08,00,00,00,00,00,00,00
1756487809697317,00000214,false,Rx,0,4,08,00,00,00,00,00,00,00
1756487809697415,00000188,false,Rx,0,6,B1,FF,18,00,DB,03,00,00
1756487809697528,00000488,false,Rx,0,8,0A,27,52,00,4A,01,0A,00
1756487809698670,00000288,false,Rx,0,6,00,00,00,00,00,00,00,00
1756487809702500,00000194,false,Rx,0,6,14,00,FE,FF,00,00,00,00
1756487809702788,00000181,false,Rx,0,8,04,10,00,E9,02,00,00,00
1756487809703701,00000393,false,Rx,0,6,01,01,C5,01,FF,00,00,00
1756487809703810,00000293,false,Rx,0,4,B7,A3,00,00,00,00,00,00
1756487809703909,00000713,false,Rx,0,1,05,00,00,00,00,00,00,00
1756487809704005,00000733,false,Rx,0,8,02,00,00,C0,3F,A3,00,05
1756487809704121,00000193,false,Rx,0,6,14,00,00,00,FD,FF,00,00
1756487809707118,00000213,false,Rx,0,4,08,00,00,00,00,00,00,00
1756487809707223,00000214,false,Rx,0,4,08,00,00,00,00,00,00,00
1756487809707625,00000290,false,Rx,0,7,01,E8,00,00,00,00,00,00
1756487809707724,00000490,false,Rx,0,5,64,00,00,00,00,00,00,00
1756487809708720,00000188,false,Rx,0,6,BA,FF,0E,00,F3,03,00,00
1756487809708824,00000288,false,Rx,0,6,00,00,00,00,00,00,00,00
1756487809708923,00000488,false,Rx,0,8,0A,27,52,00,4B,01,0A,00
1756487809712339,00000194,false,Rx,0,6,14,00,01,00,03,00,00,00
1756487809713615,00000193,false,Rx,0,6,14,00,FA,FF,FB,FF,00,00
1756487809716048,00000181,false,Rx,0,8,04,10,00,E9,02,00,00,00
1756487809717035,00000213,false,Rx,0,4,08,00,00,00,00,00,00,00
1756487809717148,00000214,false,Rx,0,4,08,00,00,00,00,00,00,00
1756487809718883,00000188,false,Rx,0,6,B8,FF,14,00,D9,03,00,00
1756487809719084,00000288,false,Rx,0,6,00,00,00,00,00,00,00,00
1756487809719147,00000488,false,Rx,0,8,0A,27,52,00,4A,01,0A,00
1756487809722157,00000194,false,Rx,0,6,14,00,FF,FF,04,00,00,00
1756487809723382,00000193,false,Rx,0,6,14,00,01,00,FF,FF,00,00
1756487809728031,00000213,false,Rx,0,4,08,00,00,00,00,00,00,00
1756487809728148,00000214,false,Rx,0,4,08,00,00,00,00,00,00,00
1756487809729073,00000188,false,Rx,0,6,C4,FF,0E,00,E8,03,00,00
1756487809729198,00000288,false,Rx,0,6,00,00,00,00,00,00,00,00
1756487809729320,00000488,false,Rx,0,8,0A,27,52,00,4A,01,0A,00
1756487809731982,00000194,false,Rx,0,6,14,00,05,00,02,00,00,00
1756487809733202,00000193,false,Rx,0,6,14,00,03,00,FE,FF,00,00
1756487809737931,00000213,false,Rx,0,4,08,00,00,00,00,00,00,00
1756487809738036,00000214,false,Rx,0,4,08,00,00,00,00,00,00,00
1756487809739013,00000710,false,Rx,0,1,7F,00,00,00,00,00,00,00
1756487809739280,00000188,false,Rx,0,6,C5,FF,0A,00,F3,03,00,00
1756487809739403,00000288,false,Rx,0,6,00,00,00,00,00,00,00,00
1756487809739519,00000488,false,Rx,0,8,0A,27,52,00,4A,01,0A,00
1756487809741787,00000394,false,Rx,0,6,58,05,CD,01,1F,01,00,00
1756487809741892,00000294,false,Rx,0,4,27,A3,38,00,00,00,00,00
1756487809741990,00000714,false,Rx,0,1,05,00,00,00,00,00,00,00
1756487809742091,00000734,false,Rx,0,8,03,6F,12,03,3B,A3,38,05
1756487809742219,00000194,false,Rx,0,6,14,00,02,00,03,00,00,00
1756487809743024,00000193,false,Rx,0,6,14,00,06,00,00,00,00,00
1756487809747839,00000213,false,Rx,0,4,08,00,00,00,00,00,00,00
1756487809747952,00000214,false,Rx,0,4,08,00,00,00,00,00,00,00
1756487809749496,00000188,false,Rx,0,6,B9,FF,0F,00,DB,03,00,00
1756487809749624,00000288,false,Rx,0,6,00,00,00,00,00,00,00,00
1756487809749723,00000488,false,Rx,0,8,0A,27,52,00,4A,01,0A,00
1756487809751646,00000194,false,Rx,0,6,14,00,06,00,01,00,00,00
1756487809752855,00000193,false,Rx,0,6,14,00,06,00,FE,FF,00,00
1756487809757820,00000213,false,Rx,0,4,08,00,00,00,00,00,00,00
1756487809757907,00000214,false,Rx,0,4,08,00,00,00,00,00,00,00
1756487809759698,00000188,false,Rx,0,6,C7,FF,0C,00,E9,03,00,00
1756487809759830,00000288,false,Rx,0,6,00,00,00,00,00,00,00,00
1756487809759957,00000488,false,Rx,0,8,0A,27,52,00,4A,01,0A,00
1756487809761461,00000194,false,Rx,0,6,14,00,02,00,02,00,00,00
1756487809762684,00000193,false,Rx,0,6,14,00,04,00,00,00,00,00
1756487809768749,00000213,false,Rx,0,4,08,00,00,00,00,00,00,00
1756487809768855,00000214,false,Rx,0,4,08,00,00,00,00,00,00,00
1756487809769901,00000188,false,Rx,0,6,C2,FF,0D,00,F1,03,00,00
1756487809770032,00000288,false,Rx,0,6,00,00,00,00,00,00,00,00
1756487809770148,00000488,false,Rx,0,8,0A,27,52,00,4A,01,0A,00
1756487809771290,00000194,false,Rx,0,6,14,00,03,00,01,00,00,00
1756487809772509,00000193,false,Rx,0,6,14,00,FF,FF,FE,FF,00,00
1756487809778656,00000213,false,Rx,0,4,08,00,00,00,00,00,00,00
1756487809778761,00000214,false,Rx,0,4,08,00,00,00,00,00,00,00
1756487809780062,00000188,false,Rx,0,6,BC,FF,10,00,D4,03,00,00
1756487809780890,00000288,false,Rx,0,6,00,00,00,00,00,00,00,00
1756487809780995,00000488,false,Rx,0,8,0A,27,52,00,4A,01,0A,00
1756487809781092,00000194,false,Rx,0,6,14,00,FD,FF,01,00,00,00
1756487809782336,00000193,false,Rx,0,6,14,00,F5,FF,FE,FF,00,00
1756487809788559,00000213,false,Rx,0,4,08,00,00,00,00,00,00,00
1756487809788668,00000214,false,Rx,0,4,08,00,00,00,00,00,00,00
1756487809790892,00000188,false,Rx,0,6,C8,FF,06,00,F7,03,00,00
1756487809790997,00000194,false,Rx,0,6,14,00,FF,FF,03,00,00,00
1756487809791119,00000288,false,Rx,0,6,00,00,00,00,00,00,00,00
1756487809791369,00000488,false,Rx,0,8,0A,27,52,00,4A,01,0A,00
1756487809792171,00000193,false,Rx,0,6,14,00,F7,FF,00,00,00,00
1756487809794146,00000701,false,Rx,0,1,05,00,00,00,00,00,00,00
1756487809798457,00000213,false,Rx,0,4,08,00,00,00,00,00,00,00
1756487809798565,00000214,false,Rx,0,4,08,00,00,00,00,00,00,00
1756487809800764,00000194,false,Rx,0,6,14,00,01,00,00,00,00,00
1756487809801154,00000188,false,Rx,0,6,BD,FF,14,00,E2,03,00,00
1756487809801272,00000288,false,Rx,0,6,00,00,00,00,00,00,00,00
1756487809801494,00000488,false,Rx,0,8,0A,27,52,00,4A,01,0A,00
1756487809801974,00000393,false,Rx,0,6,01,01,C5,01,FF,00,00,00
1756487809802084,00000293,false,Rx,0,4,AB,A3,00,00,00,00,00,00
1756487809802185,00000713,false,Rx,0,1,05,00,00,00,00,00,00,00
1756487809802284,00000733,false,Rx,0,8,03,6F,12,03,3B,A3,00,05
1756487809802402,00000193,false,Rx,0,6,14,00,11,00,FF,FF,00,00
1756487809802949,00000181,false,Rx,0,8,04,10,00,E9,02,00,00,00
1756487809809463,00000213,false,Rx,0,4,08,00,00,00,00,00,00,00
1756487809809585,00000214,false,Rx,0,4,08,00,00,00,00,00,00,00
1756487809810597,00000194,false,Rx,0,6,14,00,06,00,01,00,00,00
1756487809811465,00000188,false,Rx,0,6,B9,FF,12,00,D5,03,00,00
1756487809811587,00000288,false,Rx,0,6,00,00,00,00,00,00,00,00
1756487809811782,00000488,false,Rx,0,8,0A,27,52,00,4A,01,0A,00
1756487809811881,00000193,false,Rx,0,6,14,00,15,00,00,00,00,00
1756487809816196,00000181,false,Rx,0,8,04,10,00,E9,02,00,00,00
1756487809819504,00000213,false,Rx,0,4,08,00,00,00,00,00,00,00
1756487809819627,00000214,false,Rx,0,4,08,00,00,00,00,00,00,00
1756487809820476,00000194,false,Rx,0,6,14,00,04,00,00,00,00,00
1756487809821751,00000193,false,Rx,0,6,14,00,0C,00,01,00,00,00
1756487809821974,00000188,false,Rx,0,6,C0,FF,11,00,F4,03,00,00
1756487809822143,00000288,false,Rx,0,6,00,00,00,00,00,00,00,00
1756487809822206,00000488,false,Rx,0,8,0A,27,52,00,4A,01,0A,00
1756487809829500,00000213,false,Rx,0,4,08,00,00,00,00,00,00,00
1756487809829637,00000214,false,Rx,0,4,08,00,00,00,00,00,00,00
1756487809830331,00000194,false,Rx,0,6,14,00,04,00,00,00,00,00
1756487809831552,00000193,false,Rx,0,6,14,00,03,00,01,00,00,00
1756487809832106,00000188,false,Rx,0,6,BE,FF,0D,00,EF,03,00,00
1756487809832288,00000288,false,Rx,0,6,00,00,00,00,00,00,00,00
1756487809832412,00000488,false,Rx,0,8,0A,27,52,00,4A,01,0A,00
1756487809839406,00000213,false,Rx,0,4,08,00,00,00,00,00,00,00
1756487809839516,00000214,false,Rx,0,4,08,00,00,00,00,00,00,00
1756487809840143,00000394,false,Rx,0,6,58,05,CD,01,16,01,00,00
1756487809840268,00000294,false,Rx,0,4,2B,A3,24,00,00,00,00,00
1756487809840384,00000714,false,Rx,0,1,05,00,00,00,00,00,00,00
1756487809840550,00000734,false,Rx,0,8,04,8F,C2,F5,3F,A3,24,05
1756487809840628,00000194,false,Rx,0,6,14,00,03,00,00,00,00,00
1756487809841331,00000193,false,Rx,0,6,14,00,01,00,FF,FF,00,00
1756487809842530,00000188,false,Rx,0,6,B7,FF,16,00,D5,03,00,00
1756487809842693,00000288,false,Rx,0,6,00,00,00,00,00,00,00,00
1756487809842756,00000181,false,Rx,0,8,04,10,00,E9,02,00,00,00
1756487809843958,00000488,false,Rx,0,8,0A,27,52,00,4A,01,0A,00
1756487809847295,00000190,false,Rx,0,8,00,CA,CA,CA,CA,CA,CA,CB
1756487809847478,00000190,false,Rx,0,8,07,CA,CB,CB,CB,CA,CB,CB
1756487809847542,00000190,false,Rx,0,8,0E,CA,CA,CA,CA,CA,CA,CA
1756487809849998,00000194,false,Rx,0,6,14,00,FF,FF,01,00,00,00
1756487809850312,00000213,false,Rx,0,4,08,00,00,00,00,00,00,00
1756487809850431,00000214,false,Rx,0,4,08,00,00,00,00,00,00,00
1756487809851154,00000193,false,Rx,0,6,14,00,FB,FF,04,00,00,00
1756487809854246,00000188,false,Rx,0,6,C0,FF,0B,00,E7,03,00,00
1756487809854433,00000288,false,Rx,0,6,00,00,00,00,00,00,00,00
1756487809854544,00000488,false,Rx,0,8,0A,27,52,00,4A,01,0A,00
1756487809854889,00000400,false,Rx,0,8,8B,CA,E8,0E,80,B7,6F,48
1756487809855146,00000401,false,Rx,0,2,2C,00,00,00,00,00,00,00
1756487809855499,00000410,false,Rx,0,8,DB,D7,81,73,46,94,26,40
1756487809855920,00000411,false,Rx,0,8,00,00,00,00,00,00,00,00
1756487809856524,00000412,false,Rx,0,8,00,00,00,00,00,00,00,00
1756487809856968,00000413,false,Rx,0,8,00,00,00,00,00,00,00,00
1756487809857293,00000414,false,Rx,0,8,DB,D7,81,73,46,94,26,40
1756487809857489,00000415,false,Rx,0,8,00,00,00,00,00,00,00,00
1756487809858554,00000416,false,Rx,0,8,00,00,00,00,00,00,00,00
1756487809859254,00000417,false,Rx,0,8,00,00,00,00,00,00,00,00
1756487809859393,00000418,false,Rx,0,8,DB,D7,81,73,46,94,66,40
1756487809860301,00000419,false,Rx,0,8,01,00,00,00,00,00,00,00
1756487809860582,00000190,false,Rx,0,8,15,CA,CA,CA,CA,CA,CA,CA
1756487809860731,00000190,false,Rx,0,8,1C,CA,CA,CA,CA,CA,CA,CA
1756487809860921,00000190,false,Rx,0,8,2A,CA,CA,CA,CA,CA,CA,CA
1756487809861136,00000190,false,Rx,0,8,31,CA,CA,CA,CA,CA,CA,CA
1756487809861370,00000190,false,Rx,0,8,38,CA,CA,CA,CA,CA,CA,C9
1756487809861868,00000190,false,Rx,0,8,23,CA,CA,CA,CA,CA,CA,CA
1756487809862288,00000190,false,Rx,0,8,3F,CA,CA,CB,CB,CB,CA,CB
1756487809863313,00000190,false,Rx,0,8,46,CB,CB,CB,CB,CA,CA,CB
1756487809863919,00000190,false,Rx,0,8,54,CB,CB,CB,CB,CB,CA,CA
1756487809864116,00000190,false,Rx,0,8,4D,CA,CB,CB,CB,CB,CB,CB
1756487809864238,00000190,false,Rx,0,8,5B,CA,CA,CB,CA,CB,CA,CB
1756487809864640,00000190,false,Rx,0,8,62,CA,C9,CA,CB,CB,CB,CA
1756487809865119,00000194,false,Rx,0,6,14,00,0C,00,FF,FF,00,00
1756487809865715,00000193,false,Rx,0,6,14,00,F6,FF,00,00,00,00
1756487809866206,00000213,false,Rx,0,4,08,00,00,00,00,00,00,00
1756487809866702,00000214,false,Rx,0,4,08,00,00,00,00,00,00,00
1756487809866846,00000390,false,Rx,0,8,23,3D,3D,3D,3D,3D,3D,3D
1756487809867076,00000390,false,Rx,0,8,2A,3D,3D,3D,3D,3D,3D,3C
1756487809867154,00000390,false,Rx,0,8,31,3C,3C,3C,3C,3C,3C,3C
1756487809867416,00000390,false,Rx,0,8,38,13,13,13,13,13,13,13
1756487809867643,00000390,false,Rx,0,8,3F,13,3C,3C,3C,3C,3C,3C
1756487809867908,00000390,false,Rx,0,8,15,3D,3D,3D,3C,3C,3C,3C
1756487809868029,00000390,false,Rx,0,8,46,3C,3C,3D,3D,3D,3D,3D
1756487809868230,00000390,false,Rx,0,8,4D,3D,3D,3D,3C,3C,3C,3C
1756487809868339,00000390,false,Rx,0,8,5B,13,13,13,13,13,3D,3D
1756487809868524,00000390,false,Rx,0,8,54,3C,3C,3C,3C,13,13,13
1756487809868594,00000390,false,Rx,0,8,62,3D,3D,3D,3D,3D,3D,13
1756487809868656,00000390,false,Rx,0,8,69,13,13,13,13,13,13,13
1756487809868716,00000390,false,Rx,0,8,77,13,3D,3D,3D,3D,3D,3D
1756487809868778,00000390,false,Rx,0,8,7E,3D,3D,3D,3D,3D,3D,3D
1756487809868841,00000390,false,Rx,0,8,70,13,13,13,13,13,13,13
1756487809868904,00000390,false,Rx,0,8,85,3D,3D,3D,3D,3D,3D,3D
1756487809868972,00000004,false,Rx,0,8,00,01,00,00,00,00,00,00
1756487809869636,00000390,false,Rx,0,8,9A,3C,3C,3C,3C,3C,3C,13
1756487809869840,00000390,false,Rx,0,8,A1,13,13,13,13,13,13,13
1756487809869927,00000390,false,Rx,0,8,93,3D,3D,3D,3D,3D,3C,3C
1756487809869996,00000390,false,Rx,0,8,A8,3D,3D,3D,3D,3D,3D,3D
1756487809870060,00000390,false,Rx,0,8,AF,3D,3D,3D,3D,3D,3D,3D
1756487809870132,00000390,false,Rx,0,8,BD,3D,3D,3D,13,13,13,13
1756487809870194,00000390,false,Rx,0,8,B6,3D,3D,3D,3D,3D,3D,3D
1756487809870257,00000390,false,Rx,0,8,C4,13,13,13,13,3D,3D,3D
1756487809870319,00000390,false,Rx,0,8,CB,3D,3D,3D,3D,3D,13,13
1756487809870381,00000188,false,Rx,0,6,B3,FF,12,00,D8,03,00,00
1756487809870441,00000288,false,Rx,0,6,00,00,00,00,00,00,00,00
1756487809870502,00000400,false,Rx,0,8,8B,CA,E8,0E,80,B7,6F,48
1756487809870572,00000488,false,Rx,0,8,0A,27,52,00,4B,01,0A,00
1756487809870645,00000401,false,Rx,0,2,00,00,00,00,00,00,00,00
1756487809870713,00000410,false,Rx,0,8,00,00,00,00,00,00,00,00
1756487809870780,00000411,false,Rx,0,8,00,00,00,00,00,00,00,00
1756487809870842,00000412,false,Rx,0,8,00,00,00,00,00,00,00,00
1756487809870904,00000413,false,Rx,0,8,00,00,00,00,00,00,00,00
1756487809870964,00000414,false,Rx,0,8,00,00,00,00,00,00,00,00
1756487809871024,00000415,false,Rx,0,8,00,00,00,00,00,00,00,00
1756487809871084,00000416,false,Rx,0,8,00,00,00,00,00,00,00,00
1756487809871147,00000417,false,Rx,0,8,00,00,00,00,00,00,00,00
1756487809871210,00000418,false,Rx,0,8,00,00,00,00,00,00,00,00
1756487809871271,00000419,false,Rx,0,8,00,00,00,00,00,00,00,00
1756487809871464,00000402,false,Rx,0,8,F9,FF,FF,FF,00,00,00,00
1756487809871530,00000403,false,Rx,0,8,00,00,00,00,00,00,00,00
1756487809871594,00000194,false,Rx,0,6,14,00,03,00,FF,FF,00,00
1756487809871655,00000404,false,Rx,0,8,00,00,00,00,00,00,00,00
1756487809871714,00000213,false,Rx,0,4,08,00,00,00,00,00,00,00
1756487809871771,00000214,false,Rx,0,4,08,00,00,00,00,00,00,00
1756487809871829,00000405,false,Rx,0,8,00,00,00,00,00,00,00,00
1756487809871891,00000406,false,Rx,0,8,00,00,00,00,00,00,00,00
1756487809871951,00000193,false,Rx,0,6,14,00,FB,FF,04,00,00,00
1756487809872010,00000407,false,Rx,0,8,00,00,00,00,00,00,00,00
1756487809872070,00000408,false,Rx,0,8,07,00,00,00,00,00,00,00
1756487809874366,00000188,false,Rx,0,6,C0,FF,0E,00,EA,03,00,00
1756487809874460,00000288,false,Rx,0,6,00,00,00,00,00,00,00,00
1756487809874552,00000488,false,Rx,0,8,0A,27,52,00,4B,01,0A,00
1756487809879352,00000194,false,Rx,0,6,14,00,05,00,00,00,00,00
1756487809880559,00000193,false,Rx,0,6,14,00,0E,00,01,00,00,00
1756487809881064,00000213,false,Rx,0,4,08,00,00,00,00,00,00,00
1756487809881159,00000214,false,Rx,0,4,08,00,00,00,00,00,00,00
1756487809883361,00000181,false,Rx,0,8,04,10,00,E9,02,00,00,00
1756487809884602,00000188,false,Rx,0,6,C2,FF,06,00,F5,03,00,00
1756487809884697,00000288,false,Rx,0,6,00,00,00,00,00,00,00,00
1756487809884759,00000488,false,Rx,0,8,0A,27,52,00,4B,01,0A,00
1756487809889250,00000194,false,Rx,0,6,14,00,07,00,FC,FF,00,00
1756487809890401,00000193,false,Rx,0,6,14,00,08,00,00,00,00,00
1756487809890970,00000213,false,Rx,0,4,08,00,00,00,00,00,00,00
1756487809891065,00000214,false,Rx,0,4,08,00,00,00,00,00,00,00
1756487809894339,00000701,false,Rx,0,1,05,00,00,00,00,00,00,00
1756487809894735,00000188,false,Rx,0,6,BA,FF,0C,00,DE,03,00,00
1756487809894860,00000288,false,Rx,0,6,00,00,00,00,00,00,00,00
1756487809894986,00000488,false,Rx,0,8,0A,27,52,00,4B,01,0A,00
1756487809899066,00000194,false,Rx,0,6,14,00,04,00,01,00,00,00
1756487809900224,00000393,false,Rx,0,6,01,01,C5,01,07,01,00,00
1756487809900319,00000293,false,Rx,0,4,BE,A3,00,00,00,00,00,00
1756487809900416,00000713,false,Rx,0,1,05,00,00,00,00,00,00,00
1756487809900513,00000733,false,Rx,0,8,04,8F,C2,F5,3F,A3,00,05
1756487809900611,00000193,false,Rx,0,6,14,00,F7,FF,04,00,00,00
1756487809900906,00000213,false,Rx,0,4,08,00,00,00,00,00,00,00
1756487809901000,00000214,false,Rx,0,4,08,00,00,00,00,00,00,00
1756487809904967,00000188,false,Rx,0,6,BC,FF,15,00,DD,03,00,00
1756487809905077,00000288,false,Rx,0,6,00,00,00,00,00,00,00,00
1756487809905170,00000488,false,Rx,0,8,0A,27,52,00,4B,01,0A,00
1756487809907731,00000290,false,Rx,0,7,01,E8,00,00,00,00,00,00
1756487809907842,00000490,false,Rx,0,5,64,00,00,00,00,00,00,00
1756487809908911,00000194,false,Rx,0,6,14,00,02,00,FB,FF,00,00
1756487809910066,00000193,false,Rx,0,6,14,00,F1,FF,00,00,00,00
1756487809910789,00000213,false,Rx,0,4,08,00,00,00,00,00,00,00
1756487809910885,00000214,false,Rx,0,4,08,00,00,00,00,00,00,00
1756487809915207,00000188,false,Rx,0,6,C5,FF,0C,00,F7,03,00,00
1756487809915852,00000288,false,Rx,0,6,00,00,00,00,00,00,00,00
1756487809915970,00000488,false,Rx,0,8,0A,27,52,00,4B,01,0A,00
1756487809918654,00000194,false,Rx,0,6,14,00,03,00,F8,FF,00,00
1756487809919873,00000193,false,Rx,0,6,14,00,F5,FF,04,00,00,00
1756487809921779,00000213,false,Rx,0,4,08,00,00,00,00,00,00,00
1756487809921873,00000214,false,Rx,0,4,08,00,00,00,00,00,00,00
1756487809925947,00000188,false,Rx,0,6,BA,FF,0F,00,D7,03,00,00
1756487809926056,00000288,false,Rx,0,6,00,00,00,00,00,00,00,00
1756487809926261,00000488,false,Rx,0,8,0A,27,52,00,4B,01,0A,00
1756487809928544,00000194,false,Rx,0,6,14,00,0B,00,01,00,00,00
1756487809929754,00000193,false,Rx,0,6,14,00,FA,FF,07,00,00,00
1756487809931719,00000213,false,Rx,0,4,08,00,00,00,00,00,00,00
1756487809931825,00000214,false,Rx,0,4,08,00,00,00,00,00,00,00
1756487809936241,00000188,false,Rx,0,6,C2,FF,0F,00,F5,03,00,00
1756487809936400,00000288,false,Rx,0,6,00,00,00,00,00,00,00,00
1756487809936467,00000488,false,Rx,0,8,0A,27,52,00,4B,01,0A,00
1756487809938340,00000394,false,Rx,0,6,58,05,CD,01,02,01,00,00
1756487809938452,00000294,false,Rx,0,4,00,A3,10,00,00,00,00,00
1756487809938556,00000714,false,Rx,0,1,05,00,00,00,00,00,00,00
1756487809938655,00000734,false,Rx,0,8,05,00,00,C0,3F,A3,10,05
1756487809938784,00000194,false,Rx,0,6,14,00,0C,00,00,00,00,00
1756487809939572,00000193,false,Rx,0,6,14,00,FA,FF,03,00,00,00
1756487809941617,00000213,false,Rx,0,4,08,00,00,00,00,00,00,00
1756487809941722,00000214,false,Rx,0,4,08,00,00,00,00,00,00,00
1756487809946388,00000188,false,Rx,0,6,C1,FF,0A,00,ED,03,00,00
1756487809946497,00000288,false,Rx,0,6,00,00,00,00,00,00,00,00
1756487809946594,00000488,false,Rx,0,8,0A,27,52,00,4A,01,0A,00
1756487809948176,00000194,false,Rx,0,6,14,00,0B,00,FC,FF,00,00
1756487809949400,00000193,false,Rx,0,6,14,00,00,00,01,00,00,00
1756487809952662,00000181,false,Rx,0,8,04,10,00,E9,02,00,00,00
1756487809952782,00000213,false,Rx,0,4,08,00,00,00,00,00,00,00
1756487809952901,00000214,false,Rx,0,4,08,00,00,00,00,00,00,00
1756487809956587,00000188,false,Rx,0,6,C0,FF,13,00,D9,03,00,00
1756487809956714,00000288,false,Rx,0,6,00,00,00,00,00,00,00,00
1756487809956832,00000488,false,Rx,0,8,0A,27,52,00,4A,01,0A,00
1756487809958007,00000194,false,Rx,0,6,14,00,0D,00,05,00,00,00
1756487809959222,00000193,false,Rx,0,6,14,00,0A,00,06,00,00,00
1756487809962521,00000213,false,Rx,0,4,08,00,00,00,00,00,00,00
1756487809962623,00000214,false,Rx,0,4,08,00,00,00,00,00,00,00
1756487809965889,00000181,false,Rx,0,8,04,10,00,E9,02,00,00,00
1756487809966785,00000188,false,Rx,0,6,C9,FF,04,00,F0,03,00,00
1756487809966891,00000288,false,Rx,0,6,00,00,00,00,00,00,00,00
1756487809966992,00000488,false,Rx,0,8,0A,27,52,00,4A,01,0A,00
1756487809967113,00000710,false,Rx,0,1,7F,00,00,00,00,00,00,00
1756487809967827,00000194,false,Rx,0,6,14,00,08,00,01,00,00,00
1756487809969056,00000193,false,Rx,0,6,14,00,F8,FF,04,00,00,00
1756487809972433,00000213,false,Rx,0,4,08,00,00,00,00,00,00,00
1756487809972549,00000214,false,Rx,0,4,08,00,00,00,00,00,00,00
1756487809976985,00000188,false,Rx,0,6,C0,FF,09,00,ED,03,00,00
1756487809977114,00000288,false,Rx,0,6,00,00,00,00,00,00,00,00
1756487809977238,00000488,false,Rx,0,8,0A,27,52,00,4A,01,0A,00
1756487809977656,00000194,false,Rx,0,6,14,00,0A,00,01,00,00,00
1756487809978880,00000193,false,Rx,0,6,14,00,FE,FF,07,00,00,00
1756487809982474,00000181,false,Rx,0,8,04,10,00,E9,02,00,00,00
1756487809982584,00000213,false,Rx,0,4,08,00,00,00,00,00,00,00
1756487809982701,00000214,false,Rx,0,4,08,00,00,00,00,00,00,00
1756487809987183,00000188,false,Rx,0,6,B6,FF,12,00,DF,03,00,00
1756487809987309,00000288,false,Rx,0,6,00,00,00,00,00,00,00,00
1756487809987408,00000488,false,Rx,0,8,0A,27,52,00,4A,01,0A,00
1756487809987510,00000194,false,Rx,0,6,14,00,0B,00,04,00,00,00
1756487809988710,00000193,false,Rx,0,6,14,00,F6,FF,02,00,00,00
1756487809993602,00000213,false,Rx,0,4,08,00,00,00,00,00,00,00
1756487809993670,00000214,false,Rx,0,4,08,00,00,00,00,00,00,00
1756487809994524,00000701,false,Rx,0,1,05,00,00,00,00,00,00,00
1756487809995790,00000181,false,Rx,0,8,04,10,00,E9,02,00,00,00
1756487809997292,00000194,false,Rx,0,6,14,00,0A,00,02,00,00,00
1756487809997396,00000188,false,Rx,0,6,C4,FF,0C,00,E9,03,00,00
1756487809997525,00000288,false,Rx,0,6,00,00,00,00,00,00,00,00
1756487809997644,00000488,false,Rx,0,8,0A,27,52,00,4A,01,0A,00
1756487809998515,00000393,false,Rx,0,6,01,01,C5,01,07,01,00,00
1756487809998624,00000293,false,Rx,0,4,95,A3,00,00,00,00,00,00
1756487809998722,00000713,false,Rx,0,1,05,00,00,00,00,00,00,00
1756487809998817,00000733,false,Rx,0,8,05,00,00,C0,3F,A3,00,05
1756487809998933,00000193,false,Rx,0,6,14,00,F8,FF,02,00,00,00
1756487810003545,00000213,false,Rx,0,4,08,00,00,00,00,00,00,00
1756487810003648,00000214,false,Rx,0,4,08,00,00,00,00,00,00,00
1756487810007137,00000194,false,Rx,0,6,14,00,0A,00,05,00,00,00
1756487810007580,00000188,false,Rx,0,6,B8,FF,09,00,F6,03,00,00
1756487810007701,00000288,false,Rx,0,6,00,00,00,00,00,00,00,00
1756487810008358,00000193,false,Rx,0,6,14,00,EF,FF,09,00,00,00
1756487810008844,00000488,false,Rx,0,8,0A,27,51,00,4A,01,0A,00
1756487810013536,00000213,false,Rx,0,4,08,00,00,00,00,00,00,00
1756487810013657,00000214,false,Rx,0,4,08,00,00,00,00,00,00,00
1756487810017075,00000194,false,Rx,0,6,14,00,04,00,05,00,00,00
1756487810018243,00000193,false,Rx,0,6,14,00,FA,FF,FB,FF,00,00
1756487810018972,00000188,false,Rx,0,6,BB,FF,12,00,E2,03,00,00
1756487810019126,00000288,false,Rx,0,6,00,00,00,00,00,00,00,00
1756487810019204,00000488,false,Rx,0,8,0A,27,52,00,4A,01,0A,00
1756487810023499,00000213,false,Rx,0,4,08,00,00,00,00,00,00,00
1756487810023611,00000214,false,Rx,0,4,08,00,00,00,00,00,00,00
1756487810026878,00000194,false,Rx,0,6,14,00,03,00,FF,FF,00,00
1756487810028108,00000193,false,Rx,0,6,14,00,F4,FF,FA,FF,00,00
1756487810028857,00000188,false,Rx,0,6,BE,FF,09,00,E7,03,00,00
1756487810029056,00000288,false,Rx,0,6,00,00,00,00,00,00,00,00
1756487810029126,00000488,false,Rx,0,8,0A,27,52,00,4B,01,0A,00
1756487810034462,00000213,false,Rx,0,4,08,00,00,00,00,00,00,00
1756487810034568,00000214,false,Rx,0,4,08,00,00,00,00,00,00,00
1756487810036611,00000394,false,Rx,0,6,5B,05,CD,01,0E,01,00,00
1756487810036731,00000294,false,Rx,0,4,2B,A3,F4,FF,00,00,00,00
1756487810036883,00000714,false,Rx,0,1,05,00,00,00,00,00,00,00
1756487810036999,00000734,false,Rx,0,8,06,6F,12,03,3B,A3,F4,05
1756487810037061,00000194,false,Rx,0,6,14,00,05,00,00,00,00,00
1756487810037848,00000193,false,Rx,0,6,14,00,03,00,FC,FF,00,00
1756487810039111,00000188,false,Rx,0,6,B7,FF,11,00,DE,03,00,00
1756487810039225,00000288,false,Rx,0,6,00,00,00,00,00,00,00,00
1756487810039323,00000488,false,Rx,0,8,0A,27,52,00,4B,01,0A,00
1756487810043213,00000181,false,Rx,0,8,04,10,00,E9,02,00,00,00
1756487810044255,00000213,false,Rx,0,4,08,00,00,00,00,00,00,00
1756487810044359,00000214,false,Rx,0,4,08,00,00,00,00,00,00,00
1756487810046450,00000194,false,Rx,0,6,14,00,01,00,01,00,00,00
1756487810047671,00000193,false,Rx,0,6,14,00,05,00,FE,FF,00,00
1756487810049185,00000188,false,Rx,0,6,B5,FF,12,00,DE,03,00,00
1756487810049290,00000288,false,Rx,0,6,00,00,00,00,00,00,00,00
1756487810049388,00000488,false,Rx,0,8,0A,27,51,00,4B,01,0A,00
1756487810054179,00000213,false,Rx,0,4,08,00,00,00,00,00,00,00
1756487810054298,00000214,false,Rx,0,4,08,00,00,00,00,00,00,00
1756487810056313,00000194,false,Rx,0,6,14,00,FE,FF,FF,FF,00,00
1756487810056445,00000181,false,Rx,0,8,04,10,00,E9,02,00,00,00
1756487810057504,00000193,false,Rx,0,6,14,00,FA,FF,FC,FF,00,00
1756487810059389,00000188,false,Rx,0,6,C3,FF,10,00,F1,03,00,00
1756487810059497,00000288,false,Rx,0,6,00,00,00,00,00,00,00,00
1756487810059594,00000488,false,Rx,0,8,0A,27,52,00,4B,01,0A,00
1756487810064068,00000213,false,Rx,0,4,08,00,00,00,00,00,00,00
1756487810064174,00000214,false,Rx,0,4,08,00,00,00,00,00,00,00
1756487810066100,00000194,false,Rx,0,6,14,00,02,00,FF,FF,00,00
1756487810067326,00000193,false,Rx,0,6,14,00,FE,FF,FA,FF,00,00
1756487810069599,00000188,false,Rx,0,6,BC,FF,19,00,D1,03,00,00
1756487810069709,00000181,false,Rx,0,8,04,10,00,E9,02,00,00,00
1756487810069810,00000288,false,Rx,0,6,00,00,00,00,00,00,00,00
1756487810069925,00000488,false,Rx,0,8,0A,27,52,00,4B,01,0A,00
1756487810075013,00000710,false,Rx,0,1,7F,00,00,00,00,00,00,00
1756487810075121,00000213,false,Rx,0,4,08,00,00,00,00,00,00,00
1756487810075244,00000214,false,Rx,0,4,08,00,00,00,00,00,00,00
1756487810075925,00000194,false,Rx,0,6,14,00,05,00,FF,FF,00,00
1756487810077153,00000193,false,Rx,0,6,14,00,0C,00,FC,FF,00,00
1756487810079787,00000188,false,Rx,0,6,C3,FF,19,00,DD,03,00,00
1756487810079897,00000288,false,Rx,0,6,00,00,00,00,00,00,00,00
1756487810079995,00000488,false,Rx,0,8,0A,27,52,00,4A,01,0A,00
1756487810081729,00000181,false,Rx,0,8,04,10,00,E9,02,00,00,00
1756487810084980,00000213,false,Rx,0,4,08,00,00,00,00,00,00,00
1756487810085086,00000214,false,Rx,0,4,08,00,00,00,00,00,00,00
1756487810085760,00000194,false,Rx,0,6,14,00,FF,FF,00,00,00,00
1756487810086981,00000193,false,Rx,0,6,14,00,07,00,FE,FF,00,00
1756487810089977,00000188,false,Rx,0,6,C8,FF,07,00,F7,03,00,00
1756487810090090,00000288,false,Rx,0,6,00,00,00,00,00,00,00,00
1756487810090211,00000488,false,Rx,0,8,0A,27,52,00,4A,01,0A,00
1756487810094822,00000701,false,Rx,0,1,05,00,00,00,00,00,00,00
1756487810094932,00000181,false,Rx,0,8,04,10,00,E9,02,00,00,00
1756487810095101,00000213,false,Rx,0,4,08,00,00,00,00,00,00,00
1756487810095161,00000214,false,Rx,0,4,08,00,00,00,00,00,00,00
1756487810095582,00000194,false,Rx,0,6,14,00,01,00,01,00,00,00
1756487810096969,00000393,false,Rx,0,6,01,01,C5,01,07,01,00,00
1756487810097097,00000293,false,Rx,0,4,7B,A3,00,00,00,00,00,00
1756487810097229,00000713,false,Rx,0,1,05,00,00,00,00,00,00,00
1756487810097315,00000733,false,Rx,0,8,06,6F,12,03,3B,A3,00,05
1756487810097475,00000193,false,Rx,0,6,14,00,06,00,FE,FF,00,00
1756487810100197,00000188,false,Rx,0,6,C1,FF,11,00,E7,03,00,00
1756487810100331,00000288,false,Rx,0,6,00,00,00,00,00,00,00,00
1756487810101018,00000488,false,Rx,0,8,0A,27,52,00,4A,01,0A,00
1756487810105437,00000194,false,Rx,0,6,14,00,02,00,FE,FF,00,00
1756487810105913,00000213,false,Rx,0,4,08,00,00,00,00,00,00,00
1756487810106017,00000214,false,Rx,0,4,08,00,00,00,00,00,00,00
1756487810106632,00000193,false,Rx,0,6,14,00,04,00,FB,FF,00,00
1756487810107703,00000290,false,Rx,0,7,01,E8,00,00,00,00,00,00
1756487810107809,00000490,false,Rx,0,5,64,00,00,00,00,00,00,00
1756487810108182,00000181,false,Rx,0,8,04,10,00,E9,02,00,00,00
1756487810111055,00000188,false,Rx,0,6,CC,FF,07,00,E9,03,00,00
1756487810111170,00000288,false,Rx,0,6,00,00,00,00,00,00,00,00
1756487810111287,00000488,false,Rx,0,8,0A,27,52,00,4A,01,0A,00
1756487810115288,00000194,false,Rx,0,6,14,00,00,00,01,00,00,00
1756487810115802,00000213,false,Rx,0,4,08,00,00,00,00,00,00,00
1756487810115901,00000214,false,Rx,0,4,08,00,00,00,00,00,00,00
1756487810116464,00000193,false,Rx,0,6,14,00,0D,00,00,00,00,00
1756487810121317,00000188,false,Rx,0,6,C0,FF,11,00,FA,03,00,00
1756487810121424,00000288,false,Rx,0,6,00,00,00,00,00,00,00,00
1756487810121544,00000488,false,Rx,0,8,0A,27,52,00,4A,01,0A,00
1756487810125069,00000194,false,Rx,0,6,14,00,01,00,02,00,00,00
1756487810125720,00000213,false,Rx,0,4,08,00,00,00,00,00,00,00
1756487810125831,00000214,false,Rx,0,4,08,00,00,00,00,00,00,00
1756487810126292,00000193,false,Rx,0,6,14,00,FB,FF,00,00,00,00
1756487810131403,00000188,false,Rx,0,6,B8,FF,0C,00,E0,03,00,00
1756487810131543,00000288,false,Rx,0,6,00,00,00,00,00,00,00,00
1756487810131663,00000488,false,Rx,0,8,0A,27,52,00,4A,01,0A,00
1756487810134881,00000394,false,Rx,0,6,5B,05,CD,01,02,01,00,00
1756487810134998,00000294,false,Rx,0,4,3B,A3,14,00,00,00,00,00
1756487810135142,00000714,false,Rx,0,1,05,00,00,00,00,00,00,00
1756487810135201,00000734,false,Rx,0,8,07,00,00,80,3F,A3,14,05
1756487810135317,00000194,false,Rx,0,6,14,00,00,00,FB,FF,00,00
1756487810135647,00000213,false,Rx,0,4,08,00,00,00,00,00,00,00
1756487810135749,00000214,false,Rx,0,4,08,00,00,00,00,00,00,00
1756487810136115,00000193,false,Rx,0,6,14,00,FE,FF,00,00,00,00
1756487810141617,00000188,false,Rx,0,6,BA,FF,19,00,D2,03,00,00
1756487810141851,00000288,false,Rx,0,6,00,00,00,00,00,00,00,00
1756487810141932,00000488,false,Rx,0,8,0A,27,52,00,4A,01,0A,00
1756487810144739,00000194,false,Rx,0,6,14,00,01,00,00,00,00,00
1756487810145954,00000193,false,Rx,0,6,14,00,FD,FF,FF,FF,00,00
1756487810146720,00000213,false,Rx,0,4,08,00,00,00,00,00,00,00
1756487810146827,00000214,false,Rx,0,4,08,00,00,00,00,00,00,00
1756487810151784,00000188,false,Rx,0,6,C3,FF,F6,FF,F9,03,00,00
1756487810151917,00000288,false,Rx,0,6,00,00,00,00,00,00,00,00
1756487810152038,00000488,false,Rx,0,8,0A,27,52,00,4B,01,0A,00
1756487810154556,00000194,false,Rx,0,6,14,00,05,00,00,00,00,00
1756487810155773,00000193,false,Rx,0,6,14,00,FE,FF,00,00,00,00
1756487810156617,00000213,false,Rx,0,4,08,00,00,00,00,00,00,00
1756487810156722,00000214,false,Rx,0,4,08,00,00,00,00,00,00,00
1756487810161980,00000188,false,Rx,0,6,BB,FF,1C,00,E6,03,00,00
1756487810162109,00000288,false,Rx,0,6,00,00,00,00,00,00,00,00
1756487810162227,00000488,false,Rx,0,8,0A,27,52,00,4B,01,0A,00
1756487810164388,00000194,false,Rx,0,6,14,00,FC,FF,FE,FF,00,00
1756487810165625,00000193,false,Rx,0,6,14,00,07,00,00,00,00,00
1756487810166503,00000213,false,Rx,0,4,08,00,00,00,00,00,00,00
1756487810166606,00000214,false,Rx,0,4,08,00,00,00,00,00,00,00
1756487810169239,00000100,false,Rx,0,6,78,40,B5,03,70,3B,00,00
1756487810172332,00000188,false,Rx,0,6,BB,FF,0A,00,E2,03,00,00
1756487810172466,00000288,false,Rx,0,6,00,00,00,00,00,00,00,00
1756487810172549,00000488,false,Rx,0,8,0A,27,51,00,4B,01,0A,00
1756487810174424,00000194,false,Rx,0,6,14,00,F7,FF,00,00,00,00
1756487810175662,00000193,false,Rx,0,6,14,00,FA,FF,FD,FF,00,00
1756487810177494,00000213,false,Rx,0,4,08,00,00,00,00,00,00,00
1756487810177595,00000214,false,Rx,0,4,08,00,00,00,00,00,00,00
1756487810182366,00000188,false,Rx,0,6,BB,FF,13,00,F4,03,00,00
1756487810182454,00000288,false,Rx,0,6,00,00,00,00,00,00,00,00
1756487810182577,00000488,false,Rx,0,8,0A,27,52,00,4B,01,0A,00
1756487810182980,00000710,false,Rx,0,1,7F,00,00,00,00,00,00,00
1756487810183095,00000181,false,Rx,0,8,04,10,00,E9,02,00,00,00
1756487810184223,00000194,false,Rx,0,6,14,00,F9,FF,FF,FF,00,00
1756487810185492,00000193,false,Rx,0,6,14,00,F2,FF,05,00,00,00
1756487810187436,00000213,false,Rx,0,4,08,00,00,00,00,00,00,00
1756487810187517,00000214,false,Rx,0,4,08,00,00,00,00,00,00,00
1756487810192686,00000188,false,Rx,0,6,BD,FF,13,00,DE,03,00,00
1756487810192838,00000288,false,Rx,0,6,00,00,00,00,00,00,00,00
1756487810192933,00000488,false,Rx,0,8,0A,27,52,00,4B,01,0A,00
1756487810194253,00000194,false,Rx,0,6,14,00,F6,FF,FE,FF,00,00
1756487810194384,00000400,false,Rx,0,8,8E,CA,E8,0E,87,B7,6F,48
1756487810194462,00000401,false,Rx,0,2,2C,00,00,00,00,00,00,00
