Time Stamp,ID,Extended,Dir,Bus,LEN,D1,D2,D3,D4,D5,D6,D7,D8,D9,D10,D11,D12
1756490698100539,00000281,false,Rx,0,1,60,00,00,00,00,00,00,00
1756490698101245,00000214,false,Rx,0,4,08,00,00,00,00,00,00,00
1756490698101970,00000193,false,Rx,0,6,14,00,03,00,03,00,00,00
1756490698103640,00000488,false,Rx,0,8,08,27,56,00,53,01,8A,00
1756490698106127,00000194,false,Rx,0,6,14,00,F7,FF,01,00,00,00
1756490698106218,00000188,false,Rx,0,6,B8,FF,17,00,D0,03,00,00
1756490698106726,00000213,false,Rx,0,4,08,00,00,00,00,00,00,00
1756490698108805,00000288,false,Rx,0,6,00,00,00,00,00,00,00,00
1756490698110020,00000214,false,Rx,0,4,08,00,00,00,00,00,00,00
1756490698110969,00000710,false,Rx,0,1,7F,00,00,00,00,00,00,00
1756490698111784,00000193,false,Rx,0,6,14,00,EF,FF,08,00,00,00
1756490698113926,00000488,false,Rx,0,8,08,27,56,00,53,01,8A,00
1756490698115492,00000213,false,Rx,0,4,08,00,00,00,00,00,00,00
1756490698116119,00000194,false,Rx,0,6,14,00,FC,FF,00,00,00,00
1756490698116462,00000188,false,Rx,0,6,BD,FF,12,00,E2,03,00,00
1756490698117691,00000214,false,Rx,0,4,08,00,00,00,00,00,00,00
1756490698119101,00000288,false,Rx,0,6,00,00,00,00,00,00,00,00
1756490698121612,00000393,false,Rx,0,6,11,01,D5,01,0F,01,00,00
1756490698121709,00000293,false,Rx,0,4,6F,A2,00,00,00,00,00,00
1756490698121813,00000713,false,Rx,0,1,05,00,00,00,00,00,00,00
1756490698121918,00000733,false,Rx,0,8,02,00,00,C0,3F,A2,00,05
1756490698122012,00000193,false,Rx,0,6,14,00,03,00,02,00,00,00
1756490698124241,00000488,false,Rx,0,8,08,27,56,00,53,01,8A,00
1756490698124341,00000213,false,Rx,0,4,08,00,00,00,00,00,00,00
1756490698125422,00000214,false,Rx,0,4,08,00,00,00,00,00,00,00
1756490698126112,00000394,false,Rx,0,6,5B,05,DD,01,0E,01,00,00
1756490698126203,00000294,false,Rx,0,4,1D,A2,F0,FF,00,00,00,00
1756490698126299,00000714,false,Rx,0,1,05,00,00,00,00,00,00,00
1756490698126398,00000734,false,Rx,0,8,01,9A,99,19,40,A2,F0,05
1756490698126495,00000194,false,Rx,0,6,14,00,FC,FF,01,00,00,00
1756490698126777,00000188,false,Rx,0,6,C4,FF,0D,00,FD,03,00,00
1756490698129414,00000288,false,Rx,0,6,00,00,00,00,00,00,00,00
1756490698131460,00000193,false,Rx,0,6,14,00,07,00,00,00,00,00
1756490698134263,00000181,false,Rx,0,8,68,10,00,E9,02,0E,08,09
1756490698134341,00000213,false,Rx,0,4,08,00,00,00,00,00,00,00
1756490698134441,00000214,false,Rx,0,4,08,00,00,00,00,00,00,00
1756490698135222,00000488,false,Rx,0,8,08,27,56,00,53,01,8A,00
1756490698136107,00000194,false,Rx,0,6,14,00,FB,FF,02,00,00,00
1756490698138203,00000188,false,Rx,0,6,B3,FF,11,00,D5,03,00,00
1756490698138544,00000288,false,Rx,0,6,00,00,00,00,00,00,00,00
1756490698141271,00000193,false,Rx,0,6,14,00,FA,FF,FF,FF,00,00
1756490698144104,00000213,false,Rx,0,4,08,00,00,00,00,00,00,00
1756490698144197,00000214,false,Rx,0,4,08,00,00,00,00,00,00,00
1756490698144415,00000488,false,Rx,0,8,08,27,56,00,53,01,8A,00
1756490698146119,00000194,false,Rx,0,6,14,00,F9,FF,FF,FF,00,00
1756490698147439,00000181,false,Rx,0,8,04,10,00,E9,02,0E,08,09
1756490698148497,00000188,false,Rx,0,6,B5,FF,14,00,D8,03,00,00
1756490698148835,00000288,false,Rx,0,6,00,00,00,00,00,00,00,00
1756490698151090,00000193,false,Rx,0,6,14,00,F8,FF,01,00,00,00
1756490698154007,00000213,false,Rx,0,4,08,00,00,00,00,00,00,00
1756490698154100,00000214,false,Rx,0,4,08,00,00,00,00,00,00,00
1756490698155273,00000488,false,Rx,0,8,08,27,56,00,53,01,8A,00
1756490698156112,00000194,false,Rx,0,6,14,00,FB,FF,FE,FF,00,00
1756490698158295,00000188,false,Rx,0,6,BE,FF,14,00,ED,03,00,00
1756490698158647,00000288,false,Rx,0,6,00,00,00,00,00,00,00,00
1756490698160920,00000193,false,Rx,0,6,14,00,08,00,06,00,00,00
1756490698165018,00000213,false,Rx,0,4,08,00,00,00,00,00,00,00
1756490698165108,00000214,false,Rx,0,4,08,00,00,00,00,00,00,00
1756490698165512,00000488,false,Rx,0,8,08,27,56,00,53,01,8A,00
1756490698166114,00000194,false,Rx,0,6,14,00,FC,FF,01,00,00,00
1756490698168596,00000188,false,Rx,0,6,B5,FF,15,00,CA,03,00,00
1756490698168933,00000288,false,Rx,0,6,00,00,00,00,00,00,00,00
1756490698170742,00000193,false,Rx,0,6,14,00,0B,00,FA,FF,00,00
1756490698174958,00000181,false,Rx,0,8,04,10,00,E9,02,0E,08,09
1756490698175063,00000213,false,Rx,0,4,08,00,00,00,00,00,00,00
1756490698175176,00000214,false,Rx,0,4,08,00,00,00,00,00,00,00
1756490698175814,00000488,false,Rx,0,8,08,27,56,00,53,01,8A,00
1756490698176103,00000194,false,Rx,0,6,14,00,FD,FF,00,00,00,00
1756490698178903,00000188,false,Rx,0,6,BE,FF,14,00,EC,03,00,00
1756490698179236,00000288,false,Rx,0,6,00,00,00,00,00,00,00,00
1756490698180570,00000193,false,Rx,0,6,14,00,09,00,01,00,00,00
1756490698184844,00000213,false,Rx,0,4,08,00,00,00,00,00,00,00
1756490698184918,00000214,false,Rx,0,4,08,00,00,00,00,00,00,00
1756490698186124,00000488,false,Rx,0,8,08,27,56,00,53,01,8A,00
1756490698186234,00000194,false,Rx,0,6,14,00,FC,FF,FF,FF,00,00
1756490698188155,00000181,false,Rx,0,8,04,10,00,E9,02,0E,08,09
1756490698189200,00000188,false,Rx,0,6,BD,FF,0D,00,EF,03,00,00
1756490698190176,00000288,false,Rx,0,6,00,00,00,00,00,00,00,00
1756490698190402,00000193,false,Rx,0,6,14,00,09,00,00,00,00,00
1756490698195835,00000213,false,Rx,0,4,08,00,00,00,00,00,00,00
1756490698195924,00000214,false,Rx,0,4,08,00,00,00,00,00,00,00
1756490698196105,00000194,false,Rx,0,6,14,00,F9,FF,FD,FF,00,00
1756490698196623,00000488,false,Rx,0,8,08,27,56,00,53,01,8A,00
1756490698198491,00000701,false,Rx,0,1,05,00,00,00,00,00,00,00
1756490698200211,00000188,false,Rx,0,6,B4,FF,18,00,CA,03,00,00
1756490698200307,00000193,false,Rx,0,6,14,00,F9,FF,FD,FF,00,00
1756490698200430,00000288,false,Rx,0,6,00,00,00,00,00,00,00,00
1756490698205731,00000213,false,Rx,0,4,08,00,00,00,00,00,00,00
1756490698205822,00000214,false,Rx,0,4,08,00,00,00,00,00,00,00
1756490698206097,00000194,false,Rx,0,6,14,00,FC,FF,01,00,00,00
1756490698206920,00000488,false,Rx,0,8,08,27,56,00,53,01,8A,00
1756490698210051,00000193,false,Rx,0,6,14,00,01,00,FB,FF,00,00
1756490698210478,00000188,false,Rx,0,6,C0,FF,0F,00,EA,03,00,00
1756490698210732,00000288,false,Rx,0,6,00,00,00,00,00,00,00,00
1756490698210848,00000710,false,Rx,0,1,7F,00,00,00,00,00,00,00
1756490698213027,00000290,false,Rx,0,7,01,E8,00,00,00,00,00,00
1756490698213119,00000490,false,Rx,0,5,64,00,00,00,00,00,00,00
1756490698214567,00000181,false,Rx,0,8,04,10,00,E9,02,0D,08,09
1756490698215630,00000213,false,Rx,0,4,08,00,00,00,00,00,00,00
1756490698215724,00000214,false,Rx,0,4,08,00,00,00,00,00,00,00
1756490698216111,00000194,false,Rx,0,6,14,00,FA,FF,FF,FF,00,00
1756490698218284,00000488,false,Rx,0,8,08,27,56,00,53,01,8A,00
1756490698219874,00000393,false,Rx,0,6,11,01,D5,01,0F,01,00,00
1756490698219966,00000293,false,Rx,0,4,9A,A2,00,00,00,00,00,00
1756490698220062,00000713,false,Rx,0,1,05,00,00,00,00,00,00,00
1756490698220160,00000733,false,Rx,0,8,03,6F,12,03,3B,A2,00,05
1756490698220257,00000188,false,Rx,0,6,BA,FF,11,00,DA,03,00,00
1756490698220355,00000193,false,Rx,0,6,14,00,02,00,FE,FF,00,00
1756490698220453,00000288,false,Rx,0,6,00,00,00,00,00,00,00,00
1756490698225540,00000213,false,Rx,0,4,08,00,00,00,00,00,00,00
1756490698225634,00000214,false,Rx,0,4,08,00,00,00,00,00,00,00
1756490698226091,00000394,false,Rx,0,6,5B,05,DD,01,16,01,00,00
1756490698226187,00000294,false,Rx,0,4,E3,A1,40,00,00,00,00,00
1756490698226285,00000714,false,Rx,0,1,05,00,00,00,00,00,00,00
1756490698226384,00000734,false,Rx,0,8,02,00,00,C0,3F,A1,40,05
1756490698226481,00000194,false,Rx,0,6,14,00,FA,FF,FE,FF,00,00
1756490698227778,00000181,false,Rx,0,8,04,10,00,E9,02,0D,08,09
1756490698228287,00000488,false,Rx,0,8,08,27,56,00,53,01,8A,00
1756490698229702,00000193,false,Rx,0,6,14,00,FC,FF,FC,FF,00,00
1756490698230405,00000188,false,Rx,0,6,B9,FF,16,00,DD,03,00,00
1756490698230521,00000288,false,Rx,0,6,00,00,00,00,00,00,00,00
1756490698236127,00000194,false,Rx,0,6,14,00,FB,FF,00,00,00,00
1756490698236554,00000213,false,Rx,0,4,08,00,00,00,00,00,00,00
1756490698236645,00000214,false,Rx,0,4,08,00,00,00,00,00,00,00
1756490698238338,00000488,false,Rx,0,8,08,27,56,00,53,01,8A,00
1756490698239532,00000193,false,Rx,0,6,14,00,02,00,03,00,00,00
1756490698240583,00000188,false,Rx,0,6,C4,FF,0C,00,FE,03,00,00
1756490698240867,00000288,false,Rx,0,6,00,00,00,00,00,00,00,00
1756490698241082,00000181,false,Rx,0,8,04,10,00,E9,02,0D,08,09
1756490698246140,00000194,false,Rx,0,6,14,00,FC,FF,FF,FF,00,00
1756490698246463,00000213,false,Rx,0,4,08,00,00,00,00,00,00,00
1756490698246558,00000214,false,Rx,0,4,08,00,00,00,00,00,00,00
1756490698248550,00000488,false,Rx,0,8,08,27,56,00,53,01,8A,00
1756490698249359,00000193,false,Rx,0,6,14,00,0D,00,FE,FF,00,00
1756490698250780,00000188,false,Rx,0,6,B8,FF,11,00,E3,03,00,00
1756490698250894,00000288,false,Rx,0,6,00,00,00,00,00,00,00,00
1756490698254185,00000181,false,Rx,0,8,04,10,00,E9,02,0D,08,09
1756490698256107,00000194,false,Rx,0,6,14,00,FB,FF,03,00,00,00
1756490698256369,00000213,false,Rx,0,4,08,00,00,00,00,00,00,00
1756490698256463,00000214,false,Rx,0,4,08,00,00,00,00,00,00,00
1756490698258750,00000488,false,Rx,0,8,08,27,56,00,53,01,8A,00
1756490698259192,00000193,false,Rx,0,6,14,00,FD,FF,FA,FF,00,00
1756490698260985,00000188,false,Rx,0,6,B6,FF,15,00,D4,03,00,00
1756490698261105,00000288,false,Rx,0,6,00,00,00,00,00,00,00,00
1756490698266107,00000194,false,Rx,0,6,14,00,FC,FF,01,00,00,00
1756490698266260,00000213,false,Rx,0,4,08,00,00,00,00,00,00,00
1756490698266356,00000214,false,Rx,0,4,08,00,00,00,00,00,00,00
1756490698267387,00000181,false,Rx,0,8,04,10,00,E9,02,0D,08,09
1756490698268940,00000488,false,Rx,0,8,08,27,56,00,53,01,8A,00
1756490698269050,00000193,false,Rx,0,6,14,00,F6,FF,FF,FF,00,00
1756490698271198,00000188,false,Rx,0,6,C7,FF,0D,00,FF,03,00,00
1756490698271311,00000288,false,Rx,0,6,00,00,00,00,00,00,00,00
1756490698276106,00000194,false,Rx,0,6,14,00,FB,FF,01,00,00,00
1756490698277269,00000213,false,Rx,0,4,08,00,00,00,00,00,00,00
1756490698277368,00000214,false,Rx,0,4,08,00,00,00,00,00,00,00
1756490698278837,00000193,false,Rx,0,6,14,00,FF,FF,FE,FF,00,00
1756490698279126,00000488,false,Rx,0,8,08,27,56,00,53,01,8A,00
1756490698280604,00000181,false,Rx,0,8,04,10,00,E9,02,0C,07,08
1756490698281383,00000188,false,Rx,0,6,BB,FF,11,00,F4,03,00,00
1756490698281498,00000288,false,Rx,0,6,00,00,00,00,00,00,00,00
1756490698286104,00000194,false,Rx,0,6,14,00,F8,FF,01,00,00,00
1756490698287189,00000213,false,Rx,0,4,08,00,00,00,00,00,00,00
1756490698287272,00000214,false,Rx,0,4,08,00,00,00,00,00,00,00
1756490698288663,00000193,false,Rx,0,6,14,00,0B,00,00,00,00,00
1756490698289334,00000488,false,Rx,0,8,08,27,56,00,53,01,8A,00
1756490698291581,00000188,false,Rx,0,6,AF,FF,12,00,CD,03,00,00
1756490698291697,00000288,false,Rx,0,6,00,00,00,00,00,00,00,00
1756490698293805,00000181,false,Rx,0,8,04,10,00,E9,02,0A,06,07
1756490698296109,00000194,false,Rx,0,6,14,00,FA,FF,00,00,00,00
1756490698297082,00000213,false,Rx,0,4,08,00,00,00,00,00,00,00
1756490698297177,00000214,false,Rx,0,4,08,00,00,00,00,00,00,00
1756490698298494,00000193,false,Rx,0,6,14,00,FE,FF,00,00,00,00
1756490698298730,00000701,false,Rx,0,1,05,00,00,00,00,00,00,00
1756490698300190,00000488,false,Rx,0,8,08,27,56,00,53,01,8A,00
1756490698301761,00000188,false,Rx,0,6,BD,FF,17,00,F0,03,00,00
1756490698301877,00000288,false,Rx,0,6,00,00,00,00,00,00,00,00
1756490698306102,00000194,false,Rx,0,6,14,00,FA,FF,00,00,00,00
1756490698307022,00000181,false,Rx,0,8,04,10,00,E9,02,08,05,06
1756490698308067,00000213,false,Rx,0,4,08,00,00,00,00,00,00,00
1756490698308164,00000214,false,Rx,0,4,08,00,00,00,00,00,00,00
1756490698308304,00000193,false,Rx,0,6,14,00,11,00,01,00,00,00
1756490698310287,00000488,false,Rx,0,8,08,27,56,00,53,01,8A,00
1756490698310893,00000710,false,Rx,0,1,7F,00,00,00,00,00,00,00
1756490698311443,00000188,false,Rx,0,6,B7,FF,0C,00,D0,03,00,00
1756490698311568,00000288,false,Rx,0,6,00,00,00,00,00,00,00,00
1756490698316103,00000194,false,Rx,0,6,14,00,F9,FF,00,00,00,00
1756490698317968,00000213,false,Rx,0,4,08,00,00,00,00,00,00,00
1756490698318061,00000214,false,Rx,0,4,08,00,00,00,00,00,00,00
1756490698318159,00000393,false,Rx,0,6,11,01,D5,01,07,01,00,00
1756490698318256,00000293,false,Rx,0,4,E4,A2,00,00,00,00,00,00
1756490698318356,00000713,false,Rx,0,1,05,00,00,00,00,00,00,00
1756490698318454,00000733,false,Rx,0,8,04,8F,C2,F5,3F,A2,00,05
1756490698318560,00000193,false,Rx,0,6,14,00,07,00,00,00,00,00
1756490698319150,00000181,false,Rx,0,8,68,10,00,E9,02,08,04,05
1756490698320526,00000488,false,Rx,0,8,08,27,56,00,53,01,8A,00
1756490698321649,00000188,false,Rx,0,6,BE,FF,0F,00,CA,03,00,00
1756490698321762,00000288,false,Rx,0,6,00,00,00,00,00,00,00,00
1756490698326100,00000394,false,Rx,0,6,5F,05,DD,01,16,01,00,00
1756490698326191,00000294,false,Rx,0,4,25,A2,A3,FF,00,00,00,00
1756490698326289,00000714,false,Rx,0,1,05,00,00,00,00,00,00,00
1756490698326388,00000734,false,Rx,0,8,03,6F,12,03,3B,A2,A3,05
1756490698326485,00000194,false,Rx,0,6,14,00,F9,FF,00,00,00,00
1756490698327873,00000213,false,Rx,0,4,08,00,00,00,00,00,00,00
1756490698327979,00000193,false,Rx,0,6,14,00,FE,FF,FF,FF,00,00
1756490698328081,00000214,false,Rx,0,4,08,00,00,00,00,00,00,00
1756490698330729,00000488,false,Rx,0,8,08,27,56,00,53,01,8A,00
1756490698331849,00000188,false,Rx,0,6,D2,FF,0F,00,F2,03,00,00
1756490698331963,00000288,false,Rx,0,6,00,00,00,00,00,00,00,00
1756490698332344,00000181,false,Rx,0,8,04,10,00,E9,02,07,03,04
1756490698336122,00000194,false,Rx,0,6,14,00,FB,FF,FF,FF,00,00
1756490698337781,00000213,false,Rx,0,4,08,00,00,00,00,00,00,00
1756490698337875,00000193,false,Rx,0,6,14,00,FD,FF,00,00,00,00
1756490698337971,00000214,false,Rx,0,4,08,00,00,00,00,00,00,00
1756490698340928,00000488,false,Rx,0,8,08,27,56,00,53,01,8A,00
1756490698343072,00000188,false,Rx,0,6,C8,FF,14,00,EB,03,00,00
1756490698343203,00000288,false,Rx,0,6,00,00,00,00,00,00,00,00
1756490698345519,00000181,false,Rx,0,8,04,10,00,E9,02,06,03,04
1756490698346094,00000194,false,Rx,0,6,14,00,F8,FF,00,00,00,00
1756490698347625,00000193,false,Rx,0,6,14,00,03,00,00,00,00,00
1756490698348804,00000213,false,Rx,0,4,08,00,00,00,00,00,00,00
1756490698348897,00000214,false,Rx,0,4,08,00,00,00,00,00,00,00
1756490698351105,00000488,false,Rx,0,8,08,27,56,00,53,01,8A,00
1756490698353091,00000188,false,Rx,0,6,BC,FF,19,00,EC,03,00,00
1756490698353326,00000288,false,Rx,0,6,00,00,00,00,00,00,00,00
1756490698354987,00000190,false,Rx,0,8,00,C9,C9,C9,C9,C9,C9,C9
1756490698355112,00000190,false,Rx,0,8,07,C9,C9,C9,C9,C9,C9,C9
1756490698355212,00000190,false,Rx,0,8,15,C9,C9,C9,C9,C9,C9,C9
1756490698355316,00000190,false,Rx,0,8,1C,C9,C9,C9,C9,C9,C9,C9
1756490698355441,00000190,false,Rx,0,8,23,C9,C9,C9,C9,C9,C9,C9
1756490698355561,00000190,false,Rx,0,8,0E,C9,C8,C9,C9,C9,C9,C9
1756490698355684,00000190,false,Rx,0,8,2A,C9,C9,C8,C9,C9,C9,C9
1756490698355784,00000190,false,Rx,0,8,31,C9,C9,C9,C9,C9,C9,C9
1756490698355883,00000190,false,Rx,0,8,3F,C9,C9,C9,C9,C9,C9,C9
1756490698356008,00000190,false,Rx,0,8,46,C9,C9,C9,C9,C9,C9,C9
1756490698356138,00000190,false,Rx,0,8,38,C9,C9,C9,C9,C9,C9,C7
1756490698356280,00000190,false,Rx,0,8,4D,C9,C9,C9,C9,C9,C9,C9
1756490698356394,00000190,false,Rx,0,8,54,C9,C9,C9,C9,C9,C9,C9
1756490698356501,00000190,false,Rx,0,8,62,C9,C7,C9,C9,C9,C9,C9
1756490698356607,00000190,false,Rx,0,8,5B,C9,C9,C9,C9,C9,C9,C9
1756490698356722,00000194,false,Rx,0,6,14,00,FA,FF,00,00,00,00
1756490698357505,00000193,false,Rx,0,6,14,00,F7,FF,FE,FF,00,00
1756490698359141,00000181,false,Rx,0,8,04,10,00,E9,02,00,02,03
1756490698359408,00000213,false,Rx,0,4,08,00,00,00,00,00,00,00
1756490698359538,00000214,false,Rx,0,4,08,00,00,00,00,00,00,00
1756490698359625,00000100,false,Rx,0,6,73,52,E1,03,70,3B,00,00
1756490698360194,00000390,false,Rx,0,8,00,3D,3D,3D,3D,3D,3D,3D
1756490698360290,00000390,false,Rx,0,8,07,3D,3D,3D,3D,3D,3D,3D
1756490698360352,00000390,false,Rx,0,8,15,3D,3D,3D,3D,3D,3D,3D
1756490698360412,00000390,false,Rx,0,8,1C,3D,3D,3D,3D,3D,3D,3D
1756490698360509,00000390,false,Rx,0,8,23,3D,3D,3D,3D,3D,3D,3D
1756490698360623,00000390,false,Rx,0,8,0E,3D,3D,3D,3D,3D,3D,3D
1756490698360740,00000390,false,Rx,0,8,2A,3D,3D,3D,3D,3D,3D,3D
1756490698360859,00000390,false,Rx,0,8,31,3D,3D,3D,3D,3D,3D,3D
1756490698360990,00000390,false,Rx,0,8,3F,13,13,13,13,13,13,13
1756490698361193,00000390,false,Rx,0,8,38,13,13,13,13,13,13,13
1756490698361262,00000390,false,Rx,0,8,46,13,13,3D,3D,3D,3D,3D
1756490698361326,00000390,false,Rx,0,8,4D,3D,3D,3D,13,13,13,13
1756490698361443,00000390,false,Rx,0,8,5B,3D,3D,3D,3D,3D,3D,3D
1756490698361537,00000390,false,Rx,0,8,62,3D,3D,3D,3D,3D,3D,3C
1756490698361634,00000390,false,Rx,0,8,54,13,13,13,13,3D,3D,3D
1756490698361750,00000390,false,Rx,0,8,69,3C,3C,3C,3C,3C,3C,3C
1756490698361866,00000390,false,Rx,0,8,70,3D,3D,3D,3D,3D,3D,3D
1756490698361981,00000390,false,Rx,0,8,7E,3D,3D,3D,3D,3D,3D,3D
1756490698362098,00000390,false,Rx,0,8,85,3D,3D,3D,3D,3D,3D,3D
1756490698362214,00000390,false,Rx,0,8,77,3D,3D,3D,3D,3D,3D,3D
1756490698362330,00000390,false,Rx,0,8,8C,3D,3D,3D,3D,13,13,13
1756490698362452,00000390,false,Rx,0,8,93,13,13,13,13,13,3D,3D
1756490698362555,00000390,false,Rx,0,8,A1,3D,3D,3D,3D,3D,3D,3D
1756490698362658,00000390,false,Rx,0,8,9A,3D,3D,3D,3D,3D,3D,3D
1756490698362778,00000390,false,Rx,0,8,A8,3D,3D,3D,3D,3D,3D,3D
1756490698362894,00000390,false,Rx,0,8,AF,3D,13,13,13,13,13,13
1756490698363011,00000390,false,Rx,0,8,BD,3D,3D,3D,3D,3D,3D,3D
1756490698363127,00000390,false,Rx,0,8,C4,3D,3D,3D,3D,3D,3D,3D
1756490698363237,00000390,false,Rx,0,8,B6,13,13,3D,3D,3D,3D,3D
1756490698363324,00000390,false,Rx,0,8,CB,3D,3D,3D,3D,3D,3D,3D
1756490698363439,00000390,false,Rx,0,8,D2,3D,3D,3D,3D,3D,3D,3D
1756490698363555,00000390,false,Rx,0,8,D9,3D,3D,3D,3D,3D,3D,3D
1756490698363671,00000488,false,Rx,0,8,08,27,56,00,52,01,8A,00
1756490698363795,00000188,false,Rx,0,6,BD,FF,0F,00,05,04,00,00
1756490698363901,00000288,false,Rx,0,6,00,00,00,00,00,00,00,00
1756490698366328,00000194,false,Rx,0,6,14,00,FA,FF,FF,FF,00,00
1756490698367519,00000193,false,Rx,0,6,14,00,05,00,FE,FF,00,00
1756490698368605,00000213,false,Rx,0,4,08,00,00,00,00,00,00,00
1756490698368697,00000214,false,Rx,0,4,08,00,00,00,00,00,00,00
1756490698371708,00000488,false,Rx,0,8,08,27,56,00,52,01,8A,00
1756490698373693,00000188,false,Rx,0,6,AE,FF,16,00,ED,03,00,00
1756490698373924,00000288,false,Rx,0,6,00,00,00,00,00,00,00,00
1756490698376321,00000194,false,Rx,0,6,14,00,FA,FF,03,00,00,00
1756490698377341,00000193,false,Rx,0,6,14,00,FD,FF,FE,FF,00,00
1756490698379594,00000213,false,Rx,0,4,08,00,00,00,00,00,00,00
1756490698379684,00000214,false,Rx,0,4,08,00,00,00,00,00,00,00
1756490698381995,00000488,false,Rx,0,8,08,27,56,00,52,01,8A,00
1756490698384002,00000188,false,Rx,0,6,AF,FF,16,00,D5,03,00,00
1756490698384237,00000288,false,Rx,0,6,00,00,00,00,00,00,00,00
1756490698386318,00000194,false,Rx,0,6,14,00,F8,FF,00,00,00,00
1756490698387184,00000193,false,Rx,0,6,14,00,0C,00,FF,FF,00,00
1756490698389503,00000213,false,Rx,0,4,08,00,00,00,00,00,00,00
1756490698389593,00000214,false,Rx,0,4,08,00,00,00,00,00,00,00
1756490698393136,00000488,false,Rx,0,8,08,27,56,00,53,01,8A,00
1756490698393427,00000188,false,Rx,0,6,BF,FF,09,00,EF,03,00,00
1756490698393735,00000288,false,Rx,0,6,00,00,00,00,00,00,00,00
1756490698396320,00000194,false,Rx,0,6,14,00,FC,FF,00,00,00,00
1756490698396994,00000193,false,Rx,0,6,14,00,FD,FF,01,00,00,00
1756490698399088,00000701,false,Rx,0,1,05,00,00,00,00,00,00,00
1756490698399402,00000213,false,Rx,0,4,08,00,00,00,00,00,00,00
1756490698399510,00000214,false,Rx,0,4,08,00,00,00,00,00,00,00
1756490698403428,00000488,false,Rx,0,8,08,27,56,00,53,01,8A,00
1756490698403719,00000188,false,Rx,0,6,B8,FF,1D,00,CF,03,00,00
1756490698404027,00000288,false,Rx,0,6,00,00,00,00,00,00,00,00
1756490698406317,00000194,false,Rx,0,6,14,00,F9,FF,01,00,00,00
1756490698406817,00000193,false,Rx,0,6,14,00,EF,FF,FE,FF,00,00
1756490698409306,00000213,false,Rx,0,4,08,00,00,00,00,00,00,00
1756490698409399,00000214,false,Rx,0,4,08,00,00,00,00,00,00,00
1756490698410924,00000710,false,Rx,0,1,7F,00,00,00,00,00,00,00
1756490698412945,00000290,false,Rx,0,7,01,E8,00,00,00,00,00,00
1756490698413036,00000490,false,Rx,0,5,64,00,00,00,00,00,00,00
1756490698413721,00000488,false,Rx,0,8,08,27,56,00,53,01,8A,00
1756490698414015,00000188,false,Rx,0,6,BB,FF,0E,00,DA,03,00,00
1756490698414320,00000288,false,Rx,0,6,00,00,00,00,00,00,00,00
1756490698416329,00000194,false,Rx,0,6,14,00,F8,FF,01,00,00,00
1756490698416633,00000393,false,Rx,0,6,11,01,D5,01,0F,01,00,00
1756490698416730,00000293,false,Rx,0,4,CF,A2,00,00,00,00,00,00
1756490698416828,00000713,false,Rx,0,1,05,00,00,00,00,00,00,00
1756490698416933,00000733,false,Rx,0,8,05,00,00,C0,3F,A2,00,05
1756490698417038,00000193,false,Rx,0,6,14,00,07,00,FF,FF,00,00
1756490698420313,00000213,false,Rx,0,4,08,00,00,00,00,00,00,00
1756490698420407,00000214,false,Rx,0,4,08,00,00,00,00,00,00,00
1756490698424037,00000488,false,Rx,0,8,08,27,56,00,53,01,8A,00
1756490698424326,00000188,false,Rx,0,6,C4,FF,11,00,F7,03,00,00
1756490698425317,00000288,false,Rx,0,6,00,00,00,00,00,00,00,00
1756490698426309,00000394,false,Rx,0,6,5F,05,DD,01,16,01,00,00
1756490698426404,00000294,false,Rx,0,4,77,A2,A7,FF,00,00,00,00
1756490698426504,00000193,false,Rx,0,6,14,00,F3,FF,FE,FF,00,00
1756490698426611,00000714,false,Rx,0,1,05,00,00,00,00,00,00,00
1756490698426718,00000734,false,Rx,0,8,04,8F,C2,F5,3F,A2,A7,05
1756490698426814,00000194,false,Rx,0,6,14,00,F9,FF,00,00,00,00
1756490698430317,00000213,false,Rx,0,4,08,00,00,00,00,00,00,00
1756490698430408,00000214,false,Rx,0,4,08,00,00,00,00,00,00,00
1756490698435411,00000188,false,Rx,0,6,B8,FF,14,00,BA,03,00,00
1756490698435505,00000288,false,Rx,0,6,00,00,00,00,00,00,00,00
1756490698435598,00000488,false,Rx,0,8,08,27,56,00,53,01,8A,00
1756490698436416,00000193,false,Rx,0,6,14,00,02,00,FC,FF,00,00
1756490698436518,00000194,false,Rx,0,6,14,00,FB,FF,01,00,00,00
1756490698440379,00000213,false,Rx,0,4,08,00,00,00,00,00,00,00
1756490698440513,00000214,false,Rx,0,4,08,00,00,00,00,00,00,00
1756490698445799,00000188,false,Rx,0,6,BB,FF,0F,00,E8,03,00,00
1756490698445955,00000288,false,Rx,0,6,00,00,00,00,00,00,00,00
1756490698446029,00000488,false,Rx,0,8,08,27,56,00,53,01,8A,00
1756490698446142,00000193,false,Rx,0,6,14,00,04,00,01,00,00,00
1756490698446312,00000194,false,Rx,0,6,14,00,FC,FF,01,00,00,00
1756490698450427,00000213,false,Rx,0,4,08,00,00,00,00,00,00,00
1756490698450574,00000214,false,Rx,0,4,08,00,00,00,00,00,00,00
1756490698455830,00000188,false,Rx,0,6,C2,FF,0E,00,08,04,00,00
1756490698455965,00000288,false,Rx,0,6,00,00,00,00,00,00,00,00
1756490698456048,00000193,false,Rx,0,6,14,00,FE,FF,FE,FF,00,00
1756490698456114,00000488,false,Rx,0,8,08,27,56,00,53,01,8A,00
1756490698456327,00000194,false,Rx,0,6,14,00,FD,FF,FF,FF,00,00
1756490698461543,00000213,false,Rx,0,4,08,00,00,00,00,00,00,00
1756490698461812,00000214,false,Rx,0,4,08,00,00,00,00,00,00,00
1756490698466123,00000193,false,Rx,0,6,14,00,FE,FF,00,00,00,00
1756490698466490,00000188,false,Rx,0,6,BF,FF,11,00,E3,03,00,00
1756490698466648,00000288,false,Rx,0,6,00,00,00,00,00,00,00,00
1756490698466732,00000488,false,Rx,0,8,08,27,56,00,53,01,8A,00
1756490698466817,00000194,false,Rx,0,6,14,00,FE,FF,FF,FF,00,00
1756490698471646,00000213,false,Rx,0,4,08,00,00,00,00,00,00,00
1756490698472143,00000214,false,Rx,0,4,08,00,00,00,00,00,00,00
1756490698475815,00000193,false,Rx,0,6,14,00,F4,FF,01,00,00,00
1756490698476169,00000188,false,Rx,0,6,BA,FF,0D,00,DC,03,00,00
1756490698476392,00000288,false,Rx,0,6,00,00,00,00,00,00,00,00
1756490698476517,00000194,false,Rx,0,6,14,00,FD,FF,01,00,00,00
1756490698476580,00000488,false,Rx,0,8,08,27,56,00,53,01,8A,00
1756490698481284,00000213,false,Rx,0,4,08,00,00,00,00,00,00,00
1756490698481408,00000214,false,Rx,0,4,08,00,00,00,00,00,00,00
1756490698485489,00000193,false,Rx,0,6,14,00,00,00,FF,FF,00,00
1756490698486347,00000188,false,Rx,0,6,CB,FF,09,00,F3,03,00,00
1756490698486461,00000194,false,Rx,0,6,14,00,FA,FF,FF,FF,00,00
1756490698486565,00000288,false,Rx,0,6,00,00,00,00,00,00,00,00
1756490698486685,00000488,false,Rx,0,8,08,27,56,00,53,01,8A,00
1756490698491306,00000213,false,Rx,0,4,08,00,00,00,00,00,00,00
1756490698491402,00000214,false,Rx,0,4,08,00,00,00,00,00,00,00
1756490698494522,00000181,false,Rx,0,8,04,10,00,E9,02,00,00,01
1756490698495316,00000193,false,Rx,0,6,14,00,F7,FF,00,00,00,00
1756490698496399,00000194,false,Rx,0,6,14,00,F9,FF,00,00,00,00
1756490698496564,00000188,false,Rx,0,6,BC,FF,17,00,E6,03,00,00
1756490698496688,00000288,false,Rx,0,6,00,00,00,00,00,00,00,00
1756490698496806,00000488,false,Rx,0,8,08,27,56,00,53,01,8A,00
1756490698499294,00000701,false,Rx,0,1,05,00,00,00,00,00,00,00
1756490698502171,00000213,false,Rx,0,4,08,00,00,00,00,00,00,00
1756490698502278,00000214,false,Rx,0,4,08,00,00,00,00,00,00,00
1756490698505154,00000193,false,Rx,0,6,14,00,F8,FF,FE,FF,00,00
1756490698506351,00000194,false,Rx,0,6,14,00,F9,FF,FF,FF,00,00
1756490698506769,00000188,false,Rx,0,6,B9,FF,15,00,C9,03,00,00
1756490698506900,00000288,false,Rx,0,6,00,00,00,00,00,00,00,00
1756490698507018,00000488,false,Rx,0,8,08,27,56,00,52,01,8A,00
1756490698507770,00000181,false,Rx,0,8,04,10,00,E9,02,00,00,01
1756490698512138,00000213,false,Rx,0,4,08,00,00,00,00,00,00,00
1756490698512221,00000214,false,Rx,0,4,08,00,00,00,00,00,00,00
1756490698514941,00000393,false,Rx,0,6,11,01,D5,01,0F,01,00,00
1756490698515056,00000293,false,Rx,0,4,BF,A2,00,00,00,00,00,00
1756490698515210,00000713,false,Rx,0,1,05,00,00,00,00,00,00,00
1756490698515329,00000733,false,Rx,0,8,06,6F,12,03,3B,A2,00,05
1756490698515391,00000193,false,Rx,0,6,14,00,FC,FF,FD,FF,00,00
1756490698516349,00000194,false,Rx,0,6,14,00,F8,FF,FF,FF,00,00
1756490698516858,00000710,false,Rx,0,1,7F,00,00,00,00,00,00,00
1756490698516976,00000188,false,Rx,0,6,C7,FF,19,00,F6,03,00,00
1756490698517093,00000288,false,Rx,0,6,00,00,00,00,00,00,00,00
1756490698517217,00000488,false,Rx,0,8,08,27,56,00,52,01,8A,00
1756490698522051,00000213,false,Rx,0,4,08,00,00,00,00,00,00,00
1756490698522139,00000214,false,Rx,0,4,08,00,00,00,00,00,00,00
1756490698524802,00000193,false,Rx,0,6,14,00,FB,FF,00,00,00,00
1756490698526329,00000394,false,Rx,0,6,5F,05,DD,01,0E,01,00,00
1756490698526438,00000294,false,Rx,0,4,26,A2,B1,00,00,00,00,00
1756490698526543,00000714,false,Rx,0,1,05,00,00,00,00,00,00,00
1756490698526713,00000734,false,Rx,0,8,05,00,00,C0,3F,A2,B1,05
1756490698526775,00000194,false,Rx,0,6,14,00,FE,FF,00,00,00,00
1756490698527137,00000188,false,Rx,0,6,BF,FF,0C,00,F3,03,00,00
1756490698528408,00000288,false,Rx,0,6,00,00,00,00,00,00,00,00
1756490698528532,00000488,false,Rx,0,8,08,27,56,00,53,01,8A,00
1756490698531892,00000213,false,Rx,0,4,08,00,00,00,00,00,00,00
1756490698532011,00000214,false,Rx,0,4,08,00,00,00,00,00,00,00
1756490698534643,00000193,false,Rx,0,6,14,00,F6,FF,FF,FF,00,00
1756490698535279,00000181,false,Rx,0,8,68,10,00,E9,02,00,00,01
1756490698536347,00000194,false,Rx,0,6,14,00,FA,FF,FF,FF,00,00
1756490698538427,00000188,false,Rx,0,6,B9,FF,0F,00,E0,03,00,00
1756490698538536,00000288,false,Rx,0,6,00,00,00,00,00,00,00,00
1756490698538633,00000488,false,Rx,0,8,08,27,56,00,53,01,8A,00
1756490698542877,00000213,false,Rx,0,4,08,00,00,00,00,00,00,00
1756490698542989,00000214,false,Rx,0,4,08,00,00,00,00,00,00,00
1756490698544437,00000193,false,Rx,0,6,14,00,F0,FF,FD,FF,00,00
1756490698546345,00000194,false,Rx,0,6,14,00,FD,FF,FE,FF,00,00
1756490698547353,00000181,false,Rx,0,8,04,10,00,E9,02,00,00,01
1756490698548687,00000188,false,Rx,0,6,BA,FF,11,00,F5,03,00,00
1756490698548804,00000288,false,Rx,0,6,00,00,00,00,00,00,00,00
1756490698548909,00000488,false,Rx,0,8,08,27,56,00,53,01,8A,00
1756490698552779,00000213,false,Rx,0,4,08,00,00,00,00,00,00,00
1756490698552886,00000214,false,Rx,0,4,08,00,00,00,00,00,00,00
1756490698554275,00000193,false,Rx,0,6,14,00,F3,FF,FF,FF,00,00
1756490698556413,00000194,false,Rx,0,6,14,00,FB,FF,FE,FF,00,00
1756490698558760,00000188,false,Rx,0,6,B2,FF,11,00,D4,03,00,00
1756490698558951,00000288,false,Rx,0,6,00,00,00,00,00,00,00,00
1756490698559014,00000488,false,Rx,0,8,08,27,56,00,53,01,8A,00
1756490698560616,00000181,false,Rx,0,8,68,10,00,E9,02,00,00,01
1756490698562698,00000213,false,Rx,0,4,08,00,00,00,00,00,00,00
1756490698562808,00000214,false,Rx,0,4,08,00,00,00,00,00,00,00
1756490698564098,00000193,false,Rx,0,6,14,00,04,00,FF,FF,00,00
1756490698566342,00000194,false,Rx,0,6,14,00,FA,FF,02,00,00,00
1756490698568949,00000188,false,Rx,0,6,B9,FF,10,00,E0,03,00,00
1756490698569086,00000288,false,Rx,0,6,00,00,00,00,00,00,00,00
1756490698569207,00000488,false,Rx,0,8,08,27,56,00,53,01,8A,00
1756490698573728,00000181,false,Rx,0,8,04,10,00,E9,02,00,00,01
1756490698573842,00000213,false,Rx,0,4,08,00,00,00,00,00,00,00
1756490698573943,00000193,false,Rx,0,6,14,00,00,00,06,00,00,00
1756490698574040,00000214,false,Rx,0,4,08,00,00,00,00,00,00,00
1756490698576354,00000194,false,Rx,0,6,14,00,F9,FF,01,00,00,00
1756490698579252,00000188,false,Rx,0,6,C0,FF,09,00,F7,03,00,00
1756490698579393,00000288,false,Rx,0,6,00,00,00,00,00,00,00,00
1756490698579457,00000488,false,Rx,0,8,08,27,56,00,53,01,8A,00
1756490698583597,00000213,false,Rx,0,4,08,00,00,00,00,00,00,00
1756490698583702,00000214,false,Rx,0,4,08,00,00,00,00,00,00,00
1756490698583824,00000193,false,Rx,0,6,14,00,FA,FF,03,00,00,00
1756490698586343,00000194,false,Rx,0,6,14,00,FD,FF,01,00,00,00
1756490698589353,00000188,false,Rx,0,6,BC,FF,11,00,DF,03,00,00
1756490698589484,00000288,false,Rx,0,6,00,00,00,00,00,00,00,00
1756490698589602,00000488,false,Rx,0,8,08,27,56,00,53,01,8A,00
1756490698593503,00000213,false,Rx,0,4,08,00,00,00,00,00,00,00
1756490698593615,00000193,false,Rx,0,6,14,00,F8,FF,00,00,00,00
1756490698593733,00000214,false,Rx,0,4,08,00,00,00,00,00,00,00
1756490698594660,00000181,false,Rx,0,8,04,10,00,E9,02,00,00,01
1756490698596340,00000194,false,Rx,0,6,14,00,FE,FF,01,00,00,00
1756490698599465,00000701,false,Rx,0,1,05,00,00,00,00,00,00,00
1756490698599568,00000188,false,Rx,0,6,B5,FF,14,00,D8,03,00,00
1756490698600366,00000288,false,Rx,0,6,00,00,00,00,00,00,00,00
1756490698600497,00000488,false,Rx,0,8,08,27,56,00,53,01,8A,00
1756490698603380,00000193,false,Rx,0,6,14,00,FC,FF,05,00,00,00
1756490698603488,00000213,false,Rx,0,4,08,00,00,00,00,00,00,00
1756490698603606,00000214,false,Rx,0,4,08,00,00,00,00,00,00,00
1756490698606340,00000194,false,Rx,0,6,14,00,FB,FF,01,00,00,00
1756490698607852,00000181,false,Rx,0,8,04,10,00,E9,02,00,00,01
1756490698610373,00000188,false,Rx,0,6,BD,FF,15,00,ED,03,00,00
1756490698610498,00000288,false,Rx,0,6,00,00,00,00,00,00,00,00
1756490698610979,00000488,false,Rx,0,8,08,27,55,00,53,01,8A,00
1756490698612948,00000290,false,Rx,0,7,01,E8,00,00,00,00,00,00
1756490698613095,00000490,false,Rx,0,5,64,00,00,00,00,00,00,00
1756490698613203,00000393,false,Rx,0,6,13,01,D5,01,0F,01,00,00
1756490698613318,00000293,false,Rx,0,4,C4,A2,00,00,00,00,00,00
1756490698613458,00000713,false,Rx,0,1,05,00,00,00,00,00,00,00
1756490698613517,00000733,false,Rx,0,8,07,00,00,80,3F,A2,00,05
1756490698613634,00000193,false,Rx,0,6,14,00,F6,FF,01,00,00,00
1756490698614419,00000213,false,Rx,0,4,08,00,00,00,00,00,00,00
1756490698614531,00000214,false,Rx,0,4,08,00,00,00,00,00,00,00
1756490698616337,00000194,false,Rx,0,6,14,00,FF,FF,02,00,00,00
1756490698620445,00000188,false,Rx,0,6,BB,FF,16,00,D2,03,00,00
1756490698620571,00000288,false,Rx,0,6,00,00,00,00,00,00,00,00
1756490698621172,00000488,false,Rx,0,8,08,27,56,00,52,01,8A,00
1756490698623053,00000193,false,Rx,0,6,14,00,F1,FF,06,00,00,00
1756490698624300,00000213,false,Rx,0,4,08,00,00,00,00,00,00,00
1756490698624405,00000214,false,Rx,0,4,08,00,00,00,00,00,00,00
1756490698624521,00000710,false,Rx,0,1,7F,00,00,00,00,00,00,00
1756490698626314,00000394,false,Rx,0,6,5F,05,DD,01,16,01,00,00
1756490698626419,00000294,false,Rx,0,4,D5,A1,D8,FF,00,00,00,00
1756490698626518,00000714,false,Rx,0,1,05,00,00,00,00,00,00,00
1756490698626613,00000734,false,Rx,0,8,06,6F,12,03,3B,A1,D8,05
1756490698626729,00000194,false,Rx,0,6,14,00,FD,FF,01,00,00,00
1756490698630738,00000188,false,Rx,0,6,BB,FF,14,00,F1,03,00,00
1756490698630875,00000288,false,Rx,0,6,00,00,00,00,00,00,00,00
1756490698631475,00000488,false,Rx,0,8,08,27,56,00,53,01,8A,00
1756490698632876,00000193,false,Rx,0,6,14,00,FA,FF,02,00,00,00
1756490698634213,00000213,false,Rx,0,4,08,00,00,00,00,00,00,00
1756490698634321,00000214,false,Rx,0,4,08,00,00,00,00,00,00,00
1756490698636356,00000194,false,Rx,0,6,14,00,FB,FF,00,00,00,00
1756490698641054,00000188,false,Rx,0,6,C2,FF,0A,00,F7,03,00,00
1756490698641191,00000288,false,Rx,0,6,00,00,00,00,00,00,00,00
1756490698641783,00000488,false,Rx,0,8,08,27,56,00,53,01,8A,00
1756490698642705,00000193,false,Rx,0,6,14,00,FF,FF,03,00,00,00
1756490698645217,00000213,false,Rx,0,4,08,00,00,00,00,00,00,00
1756490698645321,00000214,false,Rx,0,4,08,00,00,00,00,00,00,00
1756490698646332,00000194,false,Rx,0,6,14,00,F9,FF,FF,FF,00,00
1756490698651354,00000188,false,Rx,0,6,B9,FF,1B,00,D6,03,00,00
1756490698651487,00000288,false,Rx,0,6,00,00,00,00,00,00,00,00
1756490698652083,00000488,false,Rx,0,8,08,27,56,00,52,01,8A,00
1756490698652523,00000193,false,Rx,0,6,14,00,04,00,04,00,00,00
1756490698655120,00000213,false,Rx,0,4,08,00,00,00,00,00,00,00
1756490698655242,00000214,false,Rx,0,4,08,00,00,00,00,00,00,00
1756490698656334,00000194,false,Rx,0,6,14,00,FA,FF,00,00,00,00
1756490698661635,00000188,false,Rx,0,6,C2,FF,0E,00,E6,03,00,00
1756490698661761,00000288,false,Rx,0,6,00,00,00,00,00,00,00,00
1756490698662356,00000193,false,Rx,0,6,14,00,07,00,02,00,00,00
1756490698663262,00000488,false,Rx,0,8,08,27,56,00,52,01,8A,00
1756490698665015,00000213,false,Rx,0,4,08,00,00,00,00,00,00,00
1756490698665118,00000214,false,Rx,0,4,08,00,00,00,00,00,00,00
1756490698666326,00000194,false,Rx,0,6,14,00,FA,FF,01,00,00,00
1756490698672183,00000193,false,Rx,0,6,14,00,EB,FF,F9,FF,00,00
1756490698673264,00000188,false,Rx,0,6,B9,FF,10,00,D1,03,00,00
1756490698673370,00000288,false,Rx,0,6,00,00,00,00,00,00,00,00
1756490698673468,00000488,false,Rx,0,8,08,27,56,00,52,01,8A,00
1756490698674919,00000213,false,Rx,0,4,08,00,00,00,00,00,00,00
1756490698675027,00000214,false,Rx,0,4,08,00,00,00,00,00,00,00
1756490698676333,00000194,false,Rx,0,6,14,00,FD,FF,FD,FF,00,00
1756490698682016,00000193,false,Rx,0,6,14,00,FB,FF,FF,FF,00,00
1756490698683461,00000188,false,Rx,0,6,BD,FF,17,00,DE,03,00,00
1756490698683589,00000288,false,Rx,0,6,00,00,00,00,00,00,00,00
1756490698683705,00000488,false,Rx,0,8,08,27,56,00,52,01,8A,00
1756490698685927,00000213,false,Rx,0,4,08,00,00,00,00,00,00,00
1756490698686033,00000214,false,Rx,0,4,08,00,00,00,00,00,00,00
1756490698686320,00000194,false,Rx,0,6,14,00,FC,FF,FF,FF,00,00
1756490698691843,00000193,false,Rx,0,6,14,00,0D,00,00,00,00,00
1756490698693664,00000188,false,Rx,0,6,C4,FF,05,00,F8,03,00,00
1756490698693793,00000288,false,Rx,0,6,00,00,00,00,00,00,00,00
1756490698693909,00000488,false,Rx,0,8,08,27,56,00,52,01,8A,00
1756490698694832,00000181,false,Rx,0,8,68,10,00,E9,02,00,00,00
1756490698695822,00000213,false,Rx,0,4,08,00,00,00,00,00,00,00
1756490698695924,00000214,false,Rx,0,4,08,00,00,00,00,00,00,00
1756490698696327,00000194,false,Rx,0,6,14,00,FB,FF,00,00,00,00
1756490698699716,00000701,false,Rx,0,1,05,00,00,00,00,00,00,00
1756490698701664,00000193,false,Rx,0,6,14,00,F5,FF,FF,FF,00,00
1756490698703865,00000188,false,Rx,0,6,B7,FF,14,00,DE,03,00,00
1756490698703992,00000288,false,Rx,0,6,00,00,00,00,00,00,00,00
1756490698704115,00000488,false,Rx,0,8,08,27,56,00,52,01,8A,00
1756490698705738,00000213,false,Rx,0,4,08,00,00,00,00,00,00,00
1756490698705840,00000214,false,Rx,0,4,08,00,00,00,00,00,00,00
1756490698706319,00000194,false,Rx,0,6,14,00,FA,FF,FF,FF,00,00
1756490698707992,00000181,false,Rx,0,8,04,10,00,E9,02,00,00,00
1756490698711469,00000393,false,Rx,0,6,13,01,D5,01,0F,01,00,00
1756490698711576,00000293,false,Rx,0,4,E6,A2,00,00,00,00,00,00
1756490698711676,00000713,false,Rx,0,1,05,00,00,00,00,00,00,00
1756490698711772,00000733,false,Rx,0,8,08,00,00,80,3F,A2,00,05
1756490698711888,00000193,false,Rx,0,6,14,00,F6,FF,FF,FF,00,00
1756490698714060,00000188,false,Rx,0,6,B4,FF,11,00,CF,03,00,00
1756490698714187,00000288,false,Rx,0,6,00,00,00,00,00,00,00,00
1756490698714304,00000488,false,Rx,0,8,08,27,56,00,52,01,8A,00
1756490698716340,00000194,false,Rx,0,6,14,00,FA,FF,00,00,00,00
1756490698716750,00000213,false,Rx,0,4,08,00,00,00,00,00,00,00
1756490698716855,00000214,false,Rx,0,4,08,00,00,00,00,00,00,00
1756490698721339,00000193,false,Rx,0,6,14,00,F6,FF,FA,FF,00,00
1756490698724262,00000188,false,Rx,0,6,C2,FF,0E,00,F4,03,00,00
1756490698724458,00000288,false,Rx,0,6,00,00,00,00,00,00,00,00
1756490698724519,00000488,false,Rx,0,8,08,27,56,00,53,01,8A,00
1756490698726305,00000394,false,Rx,0,6,62,05,DD,01,1F,01,00,00
1756490698726413,00000294,false,Rx,0,4,0C,A2,69,00,00,00,00,00
1756490698726512,00000714,false,Rx,0,1,05,00,00,00,00,00,00,00
1756490698726607,00000734,false,Rx,0,8,07,00,00,80,3F,A2,69,05
1756490698726707,00000194,false,Rx,0,6,14,00,F9,FF,FF,FF,00,00
1756490698726806,00000213,false,Rx,0,4,08,00,00,00,00,00,00,00
1756490698726922,00000214,false,Rx,0,4,08,00,00,00,00,00,00,00
1756490698731150,00000193,false,Rx,0,6,14,00,F2,FF,FD,FF,00,00
1756490698732528,00000710,false,Rx,0,1,7F,00,00,00,00,00,00,00
1756490698734465,00000188,false,Rx,0,6,BE,FF,0E,00,F5,03,00,00
1756490698734602,00000288,false,Rx,0,6,00,00,00,00,00,00,00,00
1756490698734735,00000488,false,Rx,0,8,08,27,56,00,52,01,8A,00
1756490698736331,00000194,false,Rx,0,6,14,00,FB,FF,FF,FF,00,00
1756490698736556,00000213,false,Rx,0,4,08,00,00,00,00,00,00,00
1756490698736661,00000214,false,Rx,0,4,08,00,00,00,00,00,00,00
1756490698740972,00000193,false,Rx,0,6,14,00,D9,FF,FF,FF,00,00
1756490698744638,00000188,false,Rx,0,6,B3,FF,11,00,CE,03,00,00
1756490698745515,00000288,false,Rx,0,6,00,00,00,00,00,00,00,00
1756490698745639,00000488,false,Rx,0,8,08,27,56,00,52,01,8A,00
1756490698746353,00000194,false,Rx,0,6,14,00,FE,FF,02,00,00,00
1756490698746492,00000213,false,Rx,0,4,08,00,00,00,00,00,00,00
1756490698746590,00000214,false,Rx,0,4,08,00,00,00,00,00,00,00
1756490698750808,00000193,false,Rx,0,6,14,00,F4,FF,01,00,00,00
1756490698755550,00000188,false,Rx,0,6,BD,FF,0C,00,F4,03,00,00
1756490698755681,00000288,false,Rx,0,6,00,00,00,00,00,00,00,00
1756490698755800,00000488,false,Rx,0,8,08,27,56,00,53,01,8A,00
1756490698756310,00000194,false,Rx,0,6,14,00,FB,FF,01,00,00,00
1756490698757476,00000213,false,Rx,0,4,08,00,00,00,00,00,00,00
1756490698757584,00000214,false,Rx,0,4,08,00,00,00,00,00,00,00
1756490698760627,00000193,false,Rx,0,6,14,00,FC,FF,00,00,00,00
1756490698765759,00000188,false,Rx,0,6,B6,FF,19,00,CF,03,00,00
1756490698765887,00000288,false,Rx,0,6,00,00,00,00,00,00,00,00
1756490698766005,00000488,false,Rx,0,8,08,27,56,00,53,01,8A,00
1756490698766310,00000194,false,Rx,0,6,14,00,FB,FF,FF,FF,00,00
1756490698767388,00000213,false,Rx,0,4,08,00,00,00,00,00,00,00
1756490698767496,00000214,false,Rx,0,4,08,00,00,00,00,00,00,00
1756490698770453,00000193,false,Rx,0,6,14,00,F5,FF,01,00,00,00
1756490698775962,00000188,false,Rx,0,6,BA,FF,0D,00,E0,03,00,00
1756490698776095,00000288,false,Rx,0,6,00,00,00,00,00,00,00,00
1756490698776225,00000488,false,Rx,0,8,08,27,56,00,53,01,8A,00
1756490698776349,00000194,false,Rx,0,6,14,00,F9,FF,02,00,00,00
1756490698777303,00000213,false,Rx,0,4,08,00,00,00,00,00,00,00
1756490698777423,00000214,false,Rx,0,4,08,00,00,00,00,00,00,00
1756490698780280,00000193,false,Rx,0,6,14,00,07,00,FE,FF,00,00
1756490698786161,00000188,false,Rx,0,6,C6,FF,11,00,FA,03,00,00
1756490698786270,00000288,false,Rx,0,6,00,00,00,00,00,00,00,00
1756490698786368,00000194,false,Rx,0,6,14,00,F8,FF,01,00,00,00
1756490698786484,00000488,false,Rx,0,8,08,27,56,00,53,01,8A,00
1756490698788261,00000213,false,Rx,0,4,08,00,00,00,00,00,00,00
1756490698788366,00000214,false,Rx,0,4,08,00,00,00,00,00,00,00
1756490698790105,00000193,false,Rx,0,6,14,00,F8,FF,00,00,00,00
1756490698796308,00000194,false,Rx,0,6,14,00,FB,FF,00,00,00,00
1756490698796419,00000188,false,Rx,0,6,B6,FF,14,00,D3,03,00,00
1756490698796538,00000288,false,Rx,0,6,00,00,00,00,00,00,00,00
1756490698796653,00000488,false,Rx,0,8,08,27,56,00,53,01,8A,00
1756490698798267,00000213,false,Rx,0,4,08,00,00,00,00,00,00,00
1756490698798372,00000214,false,Rx,0,4,08,00,00,00,00,00,00,00
1756490698799911,00000193,false,Rx,0,6,14,00,F3,FF,FD,FF,00,00
1756490698800017,00000701,false,Rx,0,1,05,00,00,00,00,00,00,00
1756490698806315,00000194,false,Rx,0,6,14,00,FB,FF,FE,FF,00,00
1756490698806554,00000188,false,Rx,0,6,B9,FF,17,00,DD,03,00,00
1756490698806841,00000288,false,Rx,0,6,00,00,00,00,00,00,00,00
1756490698806902,00000488,false,Rx,0,8,08,27,56,00,53,01,8A,00
1756490698808175,00000213,false,Rx,0,4,08,00,00,00,00,00,00,00
1756490698808285,00000214,false,Rx,0,4,08,00,00,00,00,00,00,00
1756490698809735,00000393,false,Rx,0,6,13,01,D5,01,0F,01,00,00
1756490698809849,00000293,false,Rx,0,4,B6,A2,00,00,00,00,00,00
1756490698809961,00000713,false,Rx,0,1,05,00,00,00,00,00,00,00
1756490698810061,00000733,false,Rx,0,8,09,00,00,00,00,A2,00,05
1756490698810178,00000193,false,Rx,0,6,14,00,F2,FF,01,00,00,00
1756490698813003,00000290,false,Rx,0,7,01,E8,00,00,00,00,00,00
1756490698813107,00000490,false,Rx,0,5,64,00,00,00,00,00,00,00
1756490698816332,00000194,false,Rx,0,6,14,00,FB,FF,02,00,00,00
1756490698816889,00000188,false,Rx,0,6,CA,FF,0D,00,FE,03,00,00
1756490698817095,00000288,false,Rx,0,6,00,00,00,00,00,00,00,00
1756490698817166,00000488,false,Rx,0,8,08,27,56,00,53,01,8A,00
1756490698818228,00000213,false,Rx,0,4,08,00,00,00,00,00,00,00
1756490698818405,00000214,false,Rx,0,4,08,00,00,00,00,00,00,00
1756490698819794,00000193,false,Rx,0,6,14,00,ED,FF,00,00,00,00
1756490698826461,00000394,false,Rx,0,6,62,05,DD,01,16,01,00,00
1756490698826700,00000294,false,Rx,0,4,44,A2,B7,FF,00,00,00,00
1756490698826913,00000714,false,Rx,0,1,05,00,00,00,00,00,00,00
1756490698827037,00000734,false,Rx,0,8,08,00,00,80,3F,A2,B7,05
1756490698827204,00000004,false,Rx,0,8,00,01,00,00,00,00,00,00
1756490698827278,00000194,false,Rx,0,6,14,00,FD,FF,00,00,00,00
1756490698827340,00000188,false,Rx,0,6,BD,FF,11,00,EB,03,00,00
1756490698827398,00000288,false,Rx,0,6,00,00,00,00,00,00,00,00
1756490698827457,00000488,false,Rx,0,8,08,27,56,00,53,01,8A,00
1756490698829080,00000213,false,Rx,0,4,08,00,00,00,00,00,00,00
1756490698829185,00000214,false,Rx,0,4,08,00,00,00,00,00,00,00
1756490698829402,00000193,false,Rx,0,6,14,00,EE,FF,FE,FF,00,00
1756490698836356,00000194,false,Rx,0,6,14,00,F8,FF,01,00,00,00
1756490698837124,00000188,false,Rx,0,6,B5,FF,15,00,CE,03,00,00
1756490698838489,00000288,false,Rx,0,6,00,00,00,00,00,00,00,00
1756490698838617,00000488,false,Rx,0,8,08,27,56,00,52,01,8A,00
1756490698839015,00000213,false,Rx,0,4,08,00,00,00,00,00,00,00
1756490698839124,00000214,false,Rx,0,4,08,00,00,00,00,00,00,00
1756490698839256,00000193,false,Rx,0,6,14,00,FD,FF,01,00,00,00
1756490698840511,00000710,false,Rx,0,1,7F,00,00,00,00,00,00,00
1756490698846315,00000194,false,Rx,0,6,14,00,FC,FF,01,00,00,00
1756490698848490,00000188,false,Rx,0,6,BB,FF,11,00,E7,03,00,00
1756490698848617,00000288,false,Rx,0,6,00,00,00,00,00,00,00,00
1756490698848897,00000213,false,Rx,0,4,08,00,00,00,00,00,00,00
1756490698848997,00000214,false,Rx,0,4,08,00,00,00,00,00,00,00
1756490698849111,00000193,false,Rx,0,6,14,00,04,00,FE,FF,00,00
1756490698850432,00000488,false,Rx,0,8,08,27,56,00,52,01,8A,00
1756490698856363,00000194,false,Rx,0,6,14,00,FE,FF,00,00,00,00
1756490698858644,00000188,false,Rx,0,6,BD,FF,10,00,ED,03,00,00
1756490698858839,00000288,false,Rx,0,6,00,00,00,00,00,00,00,00
1756490698858901,00000193,false,Rx,0,6,14,00,09,00,01,00,00,00
1756490698859917,00000213,false,Rx,0,4,08,00,00,00,00,00,00,00
1756490698860024,00000214,false,Rx,0,4,08,00,00,00,00,00,00,00
1756490698860484,00000488,false,Rx,0,8,08,27,56,00,53,01,8A,00
1756490698865461,00000181,false,Rx,0,8,68,10,00,E9,02,00,00,00
1756490698866313,00000194,false,Rx,0,6,14,00,FC,FF,00,00,00,00
1756490698868534,00000188,false,Rx,0,6,C9,FF,15,00,FF,03,00,00
1756490698868642,00000288,false,Rx,0,6,00,00,00,00,00,00,00,00
1756490698868740,00000193,false,Rx,0,6,14,00,05,00,00,00,00,00
1756490698869820,00000213,false,Rx,0,4,08,00,00,00,00,00,00,00
1756490698869923,00000214,false,Rx,0,4,08,00,00,00,00,00,00,00
1756490698870800,00000488,false,Rx,0,8,08,27,56,00,53,01,8A,00
1756490698876315,00000194,false,Rx,0,6,14,00,FC,FF,FE,FF,00,00
1756490698877548,00000181,false,Rx,0,8,04,10,00,E9,02,00,00,00
1756490698878543,00000193,false,Rx,0,6,14,00,FC,FF,00,00,00,00
1756490698878823,00000188,false,Rx,0,6,B8,FF,14,00,D3,03,00,00
1756490698878941,00000288,false,Rx,0,6,00,00,00,00,00,00,00,00
1756490698879735,00000213,false,Rx,0,4,08,00,00,00,00,00,00,00
1756490698879838,00000214,false,Rx,0,4,08,00,00,00,00,00,00,00
1756490698881097,00000488,false,Rx,0,8,08,27,56,00,53,01,8A,00
1756490698886312,00000194,false,Rx,0,6,14,00,FA,FF,00,00,00,00
1756490698888369,00000193,false,Rx,0,6,14,00,F0,FF,03,00,00,00
1756490698889127,00000188,false,Rx,0,6,BA,FF,11,00,E0,03,00,00
1756490698889252,00000288,false,Rx,0,6,00,00,00,00,00,00,00,00
1756490698889623,00000213,false,Rx,0,4,08,00,00,00,00,00,00,00
1756490698889720,00000214,false,Rx,0,4,08,00,00,00,00,00,00,00
1756490698891413,00000488,false,Rx,0,8,08,27,56,00,53,01,8A,00
1756490698896309,00000194,false,Rx,0,6,14,00,FB,FF,FF,FF,00,00
1756490698898198,00000193,false,Rx,0,6,14,00,F9,FF,00,00,00,00
1756490698899435,00000188,false,Rx,0,6,C0,FF,14,00,FD,03,00,00
1756490698899560,00000288,false,Rx,0,6,00,00,00,00,00,00,00,00
1756490698900177,00000701,false,Rx,0,1,05,00,00,00,00,00,00,00
1756490698900627,00000213,false,Rx,0,4,08,00,00,00,00,00,00,00
1756490698900730,00000214,false,Rx,0,4,08,00,00,00,00,00,00,00
1756490698901691,00000488,false,Rx,0,8,08,27,56,00,53,01,8A,00
1756490698906308,00000194,false,Rx,0,6,14,00,F9,FF,FF,FF,00,00
1756490698908002,00000393,false,Rx,0,6,13,01,D5,01,0F,01,00,00
1756490698908110,00000293,false,Rx,0,4,81,A2,00,00,00,00,00,00
1756490698908209,00000713,false,Rx,0,1,05,00,00,00,00,00,00,00
1756490698908307,00000733,false,Rx,0,8,01,9A,99,19,40,A2,00,05
1756490698908425,00000193,false,Rx,0,6,14,00,04,00,FE,FF,00,00
1756490698909728,00000188,false,Rx,0,6,B8,FF,14,00,DB,03,00,00
1756490698910469,00000288,false,Rx,0,6,00,00,00,00,00,00,00,00
1756490698910576,00000213,false,Rx,0,4,08,00,00,00,00,00,00,00
1756490698910691,00000214,false,Rx,0,4,08,00,00,00,00,00,00,00
1756490698913368,00000488,false,Rx,0,8,08,27,56,00,53,01,8A,00
1756490698916321,00000194,false,Rx,0,6,14,00,FB,FF,FF,FF,00,00
1756490698917853,00000193,false,Rx,0,6,14,00,F2,FF,00,00,00,00
1756490698920415,00000213,false,Rx,0,4,08,00,00,00,00,00,00,00
1756490698920529,00000188,false,Rx,0,6,C6,FF,10,00,FB,03,00,00
1756490698920630,00000214,false,Rx,0,4,08,00,00,00,00,00,00,00
1756490698920729,00000288,false,Rx,0,6,00,00,00,00,00,00,00,00
1756490698923358,00000488,false,Rx,0,8,08,27,56,00,53,01,8A,00
1756490698924860,00000181,false,Rx,0,8,68,10,00,E9,02,00,00,00
1756490698926282,00000394,false,Rx,0,6,62,05,DD,01,1F,01,00,00
1756490698926390,00000294,false,Rx,0,4,5D,A2,DC,FF,00,00,00,00
1756490698926488,00000714,false,Rx,0,1,05,00,00,00,00,00,00,00
1756490698926584,00000734,false,Rx,0,8,09,00,00,00,00,A2,DC,05
1756490698926699,00000194,false,Rx,0,6,14,00,FA,FF,FE,FF,00,00
1756490698927677,00000193,false,Rx,0,6,14,00,0A,00,00,00,00,00
1756490698930704,00000188,false,Rx,0,6,B7,FF,11,00,E1,03,00,00
1756490698930837,00000288,false,Rx,0,6,00,00,00,00,00,00,00,00
1756490698931444,00000213,false,Rx,0,4,08,00,00,00,00,00,00,00
1756490698931543,00000214,false,Rx,0,4,08,00,00,00,00,00,00,00
1756490698933361,00000488,false,Rx,0,8,08,27,56,00,53,01,8A,00
1756490698936323,00000194,false,Rx,0,6,14,00,FC,FF,01,00,00,00
1756490698937503,00000193,false,Rx,0,6,14,00,0C,00,01,00,00,00
1756490698938090,00000181,false,Rx,0,8,04,10,00,E9,02,00,00,00
1756490698940713,00000188,false,Rx,0,6,B4,FF,11,00,D2,03,00,00
1756490698940838,00000288,false,Rx,0,6,00,00,00,00,00,00,00,00
1756490698941344,00000213,false,Rx,0,4,08,00,00,00,00,00,00,00
1756490698941451,00000214,false,Rx,0,4,08,00,00,00,00,00,00,00
1756490698943661,00000488,false,Rx,0,8,08,27,56,00,53,01,8A,00
1756490698946308,00000194,false,Rx,0,6,14,00,F9,FF,01,00,00,00
1756490698947347,00000193,false,Rx,0,6,14,00,F2,FF,00,00,00,00
1756490698948500,00000710,false,Rx,0,1,7F,00,00,00,00,00,00,00
1756490698950913,00000188,false,Rx,0,6,BF,FF,13,00,F4,03,00,00
1756490698951037,00000288,false,Rx,0,6,00,00,00,00,00,00,00,00
1756490698951254,00000213,false,Rx,0,4,08,00,00,00,00,00,00,00
1756490698951353,00000214,false,Rx,0,4,08,00,00,00,00,00,00,00
1756490698953744,00000488,false,Rx,0,8,08,27,56,00,53,01,8A,00
1756490698954611,00000181,false,Rx,0,8,68,10,00,E9,02,00,00,00
1756490698956299,00000194,false,Rx,0,6,14,00,FA,FF,FF,FF,00,00
1756490698957156,00000193,false,Rx,0,6,14,00,F9,FF,00,00,00,00
1756490698961103,00000188,false,Rx,0,6,C0,FF,0D,00,FA,03,00,00
1756490698961265,00000213,false,Rx,0,4,08,00,00,00,00,00,00,00
1756490698961363,00000214,false,Rx,0,4,08,00,00,00,00,00,00,00
1756490698961423,00000288,false,Rx,0,6,00,00,00,00,00,00,00,00
1756490698963929,00000488,false,Rx,0,8,08,27,56,00,53,01,8A,00
1756490698966298,00000194,false,Rx,0,6,14,00,FB,FF,02,00,00,00
1756490698966983,00000193,false,Rx,0,6,14,00,FF,FF,08,00,00,00
1756490698967795,00000181,false,Rx,0,8,04,10,00,E9,02,00,00,00
1756490698971311,00000188,false,Rx,0,6,B7,FF,19,00,CE,03,00,00
1756490698971435,00000288,false,Rx,0,6,00,00,00,00,00,00,00,00
1756490698972156,00000213,false,Rx,0,4,08,00,00,00,00,00,00,00
1756490698972258,00000214,false,Rx,0,4,08,00,00,00,00,00,00,00
1756490698974149,00000488,false,Rx,0,8,08,27,56,00,53,01,8A,00
1756490698976317,00000194,false,Rx,0,6,14,00,FC,FF,01,00,00,00
1756490698976816,00000193,false,Rx,0,6,14,00,F1,FF,01,00,00,00
1756490698981524,00000188,false,Rx,0,6,BE,FF,0F,00,E6,03,00,00
1756490698981649,00000288,false,Rx,0,6,00,00,00,00,00,00,00,00
1756490698982055,00000213,false,Rx,0,4,08,00,00,00,00,00,00,00
1756490698982153,00000214,false,Rx,0,4,08,00,00,00,00,00,00,00
1756490698984330,00000488,false,Rx,0,8,08,27,56,00,53,01,8A,00
1756490698986295,00000194,false,Rx,0,6,14,00,FE,FF,03,00,00,00
1756490698986630,00000193,false,Rx,0,6,14,00,F4,FF,FF,FF,00,00
1756490698991719,00000188,false,Rx,0,6,C3,FF,0E,00,F7,03,00,00
1756490698991873,00000288,false,Rx,0,6,00,00,00,00,00,00,00,00
1756490698991972,00000213,false,Rx,0,4,08,00,00,00,00,00,00,00
1756490698992067,00000214,false,Rx,0,4,08,00,00,00,00,00,00,00
1756490698994527,00000488,false,Rx,0,8,08,27,56,00,53,01,8A,00
1756490698996334,00000194,false,Rx,0,6,14,00,FD,FF,00,00,00,00
1756490698996462,00000193,false,Rx,0,6,14,00,08,00,03,00,00,00
1756490699000424,00000701,false,Rx,0,1,05,00,00,00,00,00,00,00
1756490699001912,00000188,false,Rx,0,6,B8,FF,14,00,D5,03,00,00
1756490699002044,00000288,false,Rx,0,6,00,00,00,00,00,00,00,00
1756490699002981,00000213,false,Rx,0,4,08,00,00,00,00,00,00,00
1756490699003083,00000214,false,Rx,0,4,08,00,00,00,00,00,00,00
1756490699004731,00000488,false,Rx,0,8,08,27,56,00,53,01,8A,00
1756490699006415,00000393,false,Rx,0,6,13,01,D5,01,0F,01,00,00
1756490699006692,00000194,false,Rx,0,6,14,00,FC,FF,01,00,00,00
1756490699006819,00000293,false,Rx,0,4,A5,A2,00,00,00,00,00,00
1756490699006898,00000004,false,Rx,0,8,00,01,00,00,00,00,00,00
1756490699006969,00000733,false,Rx,0,8,02,00,00,C0,3F,A2,00,05
1756490699007056,00000193,false,Rx,0,6,14,00,FA,FF,00,00,00,00
1756490699012245,00000188,false,Rx,0,6,BC,FF,0F,00,E5,03,00,00
1756490699012365,00000288,false,Rx,0,6,00,00,00,00,00,00,00,00
1756490699012883,00000213,false,Rx,0,4,08,00,00,00,00,00,00,00
1756490699012994,00000214,false,Rx,0,4,08,00,00,00,00,00,00,00
1756490699014888,00000290,false,Rx,0,7,01,E8,00,00,00,00,00,00
1756490699015009,00000490,false,Rx,0,5,64,00,00,00,00,00,00,00
1756490699015600,00000488,false,Rx,0,8,08,27,56,00,53,01,8A,00
1756490699016313,00000193,false,Rx,0,6,14,00,F3,FF,05,00,00,00
1756490699016392,00000194,false,Rx,0,6,14,00,FC,FF,01,00,00,00
1756490699021686,00000188,false,Rx,0,6,B8,FF,11,00,DF,03,00,00
1756490699021779,00000288,false,Rx,0,6,00,00,00,00,00,00,00,00
1756490699022777,00000213,false,Rx,0,4,08,00,00,00,00,00,00,00
1756490699022884,00000214,false,Rx,0,4,08,00,00,00,00,00,00,00
1756490699025832,00000488,false,Rx,0,8,08,27,56,00,53,01,8A,00
1756490699025964,00000193,false,Rx,0,6,14,00,F3,FF,04,00,00,00
1756490699026262,00000394,false,Rx,0,6,62,05,DD,01,1F,01,00,00
1756490699026364,00000294,false,Rx,0,4,06,A2,D0,FF,00,00,00,00
1756490699026462,00000714,false,Rx,0,1,05,00,00,00,00,00,00,00
1756490699026559,00000734,false,Rx,0,8,01,9A,99,19,40,A2,D0,05
1756490699026683,00000194,false,Rx,0,6,14,00,F8,FF,00,00,00,00
1756490699031816,00000188,false,Rx,0,6,B7,FF,16,00,DC,03,00,00
1756490699031941,00000288,false,Rx,0,6,00,00,00,00,00,00,00,00
1756490699032687,00000213,false,Rx,0,4,08,00,00,00,00,00,00,00
1756490699032794,00000214,false,Rx,0,4,08,00,00,00,00,00,00,00
1756490699035809,00000193,false,Rx,0,6,14,00,01,00,03,00,00,00
1756490699036031,00000488,false,Rx,0,8,08,27,56,00,53,01,8A,00
1756490699036293,00000194,false,Rx,0,6,14,00,F7,FF,00,00,00,00
1756490699042019,00000188,false,Rx,0,6,CA,FF,0E,00,FC,03,00,00
1756490699042142,00000288,false,Rx,0,6,00,00,00,00,00,00,00,00
1756490699043657,00000213,false,Rx,0,4,08,00,00,00,00,00,00,00
1756490699043761,00000214,false,Rx,0,4,08,00,00,00,00,00,00,00
1756490699045599,00000193,false,Rx,0,6,14,00,0A,00,03,00,00,00
1756490699046224,00000488,false,Rx,0,8,08,27,56,00,53,01,8A,00
1756490699046347,00000194,false,Rx,0,6,14,00,F8,FF,FD,FF,00,00
1756490699052212,00000188,false,Rx,0,6,BE,FF,17,00,EB,03,00,00
1756490699052349,00000288,false,Rx,0,6,00,00,00,00,00,00,00,00
1756490699053556,00000213,false,Rx,0,4,08,00,00,00,00,00,00,00
1756490699053659,00000214,false,Rx,0,4,08,00,00,00,00,00,00,00
1756490699055426,00000193,false,Rx,0,6,14,00,0A,00,00,00,00,00
1756490699056289,00000194,false,Rx,0,6,14,00,FA,FF,FE,FF,00,00
1756490699056399,00000488,false,Rx,0,8,08,27,56,00,53,01,8A,00
1756490699056498,00000710,false,Rx,0,1,7F,00,00,00,00,00,00,00
1756490699063388,00000188,false,Rx,0,6,B9,FF,14,00,CA,03,00,00
1756490699063500,00000288,false,Rx,0,6,00,00,00,00,00,00,00,00
1756490699063601,00000213,false,Rx,0,4,08,00,00,00,00,00,00,00
1756490699063717,00000214,false,Rx,0,4,08,00,00,00,00,00,00,00
1756490699065252,00000193,false,Rx,0,6,14,00,FA,FF,F9,FF,00,00
1756490699065688,00000488,false,Rx,0,8,08,27,56,00,53,01,8A,00
1756490699066288,00000194,false,Rx,0,6,14,00,FB,FF,FF,FF,00,00
1756490699073545,00000188,false,Rx,0,6,C3,FF,1A,00,F4,03,00,00
1756490699073676,00000288,false,Rx,0,6,00,00,00,00,00,00,00,00
1756490699074500,00000213,false,Rx,0,4,08,00,00,00,00,00,00,00
1756490699074602,00000214,false,Rx,0,4,08,00,00,00,00,00,00,00
1756490699075068,00000193,false,Rx,0,6,14,00,F6,FF,00,00,00,00
1756490699075992,00000488,false,Rx,0,8,08,27,56,00,53,01,8A,00
1756490699076276,00000194,false,Rx,0,6,14,00,FE,FF,FE,FF,00,00
1756490699083822,00000188,false,Rx,0,6,C2,FF,08,00,F9,03,00,00
1756490699083946,00000288,false,Rx,0,6,00,00,00,00,00,00,00,00
1756490699084391,00000213,false,Rx,0,4,08,00,00,00,00,00,00,00
1756490699084490,00000214,false,Rx,0,4,08,00,00,00,00,00,00,00
1756490699084900,00000193,false,Rx,0,6,14,00,06,00,01,00,00,00
1756490699086295,00000488,false,Rx,0,8,08,27,56,00,53,01,8A,00
1756490699086420,00000194,false,Rx,0,6,14,00,FD,FF,FF,FF,00,00
1756490699094121,00000188,false,Rx,0,6,B6,FF,1C,00,CC,03,00,00
1756490699094233,00000288,false,Rx,0,6,00,00,00,00,00,00,00,00
1756490699094335,00000213,false,Rx,0,4,08,00,00,00,00,00,00,00
1756490699094455,00000214,false,Rx,0,4,08,00,00,00,00,00,00,00
1756490699094723,00000193,false,Rx,0,6,14,00,FA,FF,02,00,00,00
1756490699096290,00000194,false,Rx,0,6,14,00,FB,FF,FF,FF,00,00
1756490699096588,00000488,false,Rx,0,8,08,27,56,00,53,01,8A,00
1756490699100662,00000701,false,Rx,0,1,05,00,00,00,00,00,00,00
1756490699104179,00000213,false,Rx,0,4,08,00,00,00,00,00,00,00
1756490699104288,00000214,false,Rx,0,4,08,00,00,00,00,00,00,00
1756490699104416,00000188,false,Rx,0,6,BC,FF,12,00,E6,03,00,00
1756490699104540,00000288,false,Rx,0,6,00,00,00,00,00,00,00,00
1756490699104637,00000393,false,Rx,0,6,13,01,D5,01,0F,01,00,00
1756490699104735,00000293,false,Rx,0,4,7F,A2,00,00,00,00,00,00
1756490699104834,00000713,false,Rx,0,1,05,00,00,00,00,00,00,00
1756490699104932,00000733,false,Rx,0,8,03,6F,12,03,3B,A2,00,05
1756490699105050,00000193,false,Rx,0,6,14,00,F0,FF,02,00,00,00
1756490699105390,00000181,false,Rx,0,8,68,10,00,E9,02,00,00,00
1756490699106281,00000194,false,Rx,0,6,14,00,FA,FF,00,00,00,00
1756490699106892,00000488,false,Rx,0,8,08,27,56,00,53,01,8A,00
1756490699114404,00000193,false,Rx,0,6,14,00,FF,FF,FB,FF,00,00
1756490699114714,00000188,false,Rx,0,6,C6,FF,0E,00,01,04,00,00
1756490699114844,00000288,false,Rx,0,6,00,00,00,00,00,00,00,00
1756490699115347,00000213,false,Rx,0,4,08,00,00,00,00,00,00,00
1756490699115451,00000214,false,Rx,0,4,08,00,00,00,00,00,00,00
1756490699116281,00000194,false,Rx,0,6,14,00,F9,FF,02,00,00,00
1756490699117186,00000488,false,Rx,0,8,08,27,56,00,53,01,8A,00
1756490699117563,00000181,false,Rx,0,8,04,10,00,E9,02,00,00,00
1756490699124306,00000193,false,Rx,0,6,14,00,01,00,00,00,00,00
1756490699125213,00000213,false,Rx,0,4,08,00,00,00,00,00,00,00
1756490699125323,00000214,false,Rx,0,4,08,00,00,00,00,00,00,00
1756490699125670,00000188,false,Rx,0,6,BA,FF,0F,00,DD,03,00,00
1756490699125788,00000288,false,Rx,0,6,00,00,00,00,00,00,00,00
1756490699126253,00000394,false,Rx,0,6,62,05,DD,01,16,01,00,00
1756490699126357,00000294,false,Rx,0,4,0B,A2,51,00,00,00,00,00
1756490699126454,00000714,false,Rx,0,1,05,00,00,00,00,00,00,00
1756490699126553,00000734,false,Rx,0,8,02,00,00,C0,3F,A2,51,05
1756490699126666,00000194,false,Rx,0,6,14,00,FA,FF,02,00,00,00
1756490699126777,00000488,false,Rx,0,8,08,27,56,00,53,01,8A,00
1756490699134067,00000193,false,Rx,0,6,14,00,FA,FF,FF,FF,00,00
1756490699135107,00000213,false,Rx,0,4,08,00,00,00,00,00,00,00
1756490699135245,00000214,false,Rx,0,4,08,00,00,00,00,00,00,00
1756490699135821,00000188,false,Rx,0,6,B6,FF,12,00,D3,03,00,00
1756490699135946,00000288,false,Rx,0,6,00,00,00,00,00,00,00,00
1756490699136282,00000194,false,Rx,0,6,14,00,FD,FF,01,00,00,00
1756490699137048,00000488,false,Rx,0,8,08,27,56,00,52,01,8A,00
1756490699143878,00000193,false,Rx,0,6,14,00,01,00,01,00,00,00
1756490699145014,00000213,false,Rx,0,4,08,00,00,00,00,00,00,00
1756490699145120,00000214,false,Rx,0,4,08,00,00,00,00,00,00,00
1756490699146119,00000188,false,Rx,0,6,C1,FF,11,00,01,04,00,00
1756490699146226,00000288,false,Rx,0,6,00,00,00,00,00,00,00,00
1756490699146322,00000194,false,Rx,0,6,14,00,FE,FF,00,00,00,00
1756490699147354,00000488,false,Rx,0,8,08,27,56,00,53,01,8A,00
1756490699153714,00000193,false,Rx,0,6,14,00,06,00,00,00,00,00
1756490699155910,00000710,false,Rx,0,1,7F,00,00,00,00,00,00,00
1756490699156023,00000213,false,Rx,0,4,08,00,00,00,00,00,00,00
1756490699156168,00000214,false,Rx,0,4,08,00,00,00,00,00,00,00
1756490699156285,00000194,false,Rx,0,6,14,00,FC,FF,02,00,00,00
1756490699156428,00000188,false,Rx,0,6,B9,FF,10,00,DC,03,00,00
1756490699156544,00000288,false,Rx,0,6,00,00,00,00,00,00,00,00
1756490699158640,00000488,false,Rx,0,8,08,27,56,00,53,01,8A,00
1756490699163539,00000193,false,Rx,0,6,14,00,04,00,00,00,00,00
1756490699165800,00000188,false,Rx,0,6,C4,FF,0D,00,FD,03,00,00
1756490699165907,00000288,false,Rx,0,6,00,00,00,00,00,00,00,00
1756490699166005,00000213,false,Rx,0,4,08,00,00,00,00,00,00,00
1756490699166153,00000214,false,Rx,0,4,08,00,00,00,00,00,00,00
1756490699166277,00000194,false,Rx,0,6,14,00,F9,FF,FF,FF,00,00
1756490699168915,00000488,false,Rx,0,8,08,27,56,00,53,01,8A,00
1756490699173348,00000193,false,Rx,0,6,14,00,0A,00,FF,FF,00,00
1756490699175798,00000213,false,Rx,0,4,08,00,00,00,00,00,00,00
1756490699175934,00000214,false,Rx,0,4,08,00,00,00,00,00,00,00
1756490699176092,00000188,false,Rx,0,6,B9,FF,0C,00,F0,03,00,00
1756490699176211,00000288,false,Rx,0,6,00,00,00,00,00,00,00,00
1756490699176327,00000194,false,Rx,0,6,14,00,FB,FF,FF,FF,00,00
1756490699179223,00000488,false,Rx,0,8,08,27,56,00,53,01,8A,00
1756490699183194,00000193,false,Rx,0,6,14,00,FD,FF,01,00,00,00
1756490699184666,00000181,false,Rx,0,8,68,10,00,E9,02,00,00,00
1756490699185701,00000213,false,Rx,0,4,08,00,00,00,00,00,00,00
1756490699185806,00000214,false,Rx,0,4,08,00,00,00,00,00,00,00
1756490699186272,00000194,false,Rx,0,6,14,00,FD,FF,00,00,00,00
1756490699186401,00000188,false,Rx,0,6,B4,FF,13,00,CA,03,00,00
1756490699186528,00000288,false,Rx,0,6,00,00,00,00,00,00,00,00
1756490699189523,00000488,false,Rx,0,8,08,27,56,00,53,01,8A,00
1756490699193004,00000193,false,Rx,0,6,14,00,F6,FF,FD,FF,00,00
1756490699196274,00000194,false,Rx,0,6,14,00,F8,FF,01,00,00,00
1756490699196696,00000188,false,Rx,0,6,C0,FF,17,00,E4,03,00,00
1756490699196802,00000288,false,Rx,0,6,00,00,00,00,00,00,00,00
1756490699196899,00000213,false,Rx,0,4,08,00,00,00,00,00,00,00
1756490699197012,00000214,false,Rx,0,4,08,00,00,00,00,00,00,00
1756490699199818,00000488,false,Rx,0,8,08,27,56,00,53,01,8A,00
1756490699200898,00000701,false,Rx,0,1,05,00,00,00,00,00,00,00
1756490699202803,00000393,false,Rx,0,6,13,01,D5,01,0F,01,00,00
1756490699202909,00000293,false,Rx,0,4,72,A2,00,00,00,00,00,00
1756490699203007,00000713,false,Rx,0,1,05,00,00,00,00,00,00,00
1756490699203103,00000733,false,Rx,0,8,04,8F,C2,F5,3F,A2,00,05
1756490699203239,00000193,false,Rx,0,6,14,00,FF,FF,00,00,00,00
1756490699204566,00000181,false,Rx,0,8,04,10,00,E9,02,00,00,00
1756490699206275,00000194,false,Rx,0,6,14,00,F9,FF,FF,FF,00,00
1756490699206719,00000213,false,Rx,0,4,08,00,00,00,00,00,00,00
1756490699206851,00000214,false,Rx,0,4,08,00,00,00,00,00,00,00
1756490699206999,00000188,false,Rx,0,6,C2,FF,0A,00,F8,03,00,00
1756490699207125,00000288,false,Rx,0,6,00,00,00,00,00,00,00,00
1756490699210632,00000488,false,Rx,0,8,08,27,56,00,53,01,8A,00
1756490699212650,00000193,false,Rx,0,6,14,00,FA,FF,FF,FF,00,00
1756490699215000,00000290,false,Rx,0,7,01,E8,00,00,00,00,00,00
1756490699215109,00000490,false,Rx,0,5,64,00,00,00,00,00,00,00
1756490699216273,00000194,false,Rx,0,6,14,00,FA,FF,01,00,00,00
1756490699216632,00000213,false,Rx,0,4,08,00,00,00,00,00,00,00
1756490699216732,00000214,false,Rx,0,4,08,00,00,00,00,00,00,00
1756490699216831,00000188,false,Rx,0,6,B9,FF,13,00,E0,03,00,00
1756490699216928,00000288,false,Rx,0,6,00,00,00,00,00,00,00,00
1756490699220903,00000488,false,Rx,0,8,08,27,56,00,53,01,8A,00
1756490699222478,00000193,false,Rx,0,6,14,00,FB,FF,FD,FF,00,00
1756490699226279,00000394,false,Rx,0,6,62,05,DD,01,1F,01,00,00
1756490699226445,00000294,false,Rx,0,4,7A,A2,B3,FF,00,00,00,00
1756490699226545,00000714,false,Rx,0,1,05,00,00,00,00,00,00,00
1756490699226645,00000734,false,Rx,0,8,03,6F,12,03,3B,A2,B3,05
1756490699226757,00000194,false,Rx,0,6,14,00,FB,FF,01,00,00,00
1756490699226882,00000213,false,Rx,0,4,08,00,00,00,00,00,00,00
1756490699226976,00000214,false,Rx,0,4,08,00,00,00,00,00,00,00
1756490699227093,00000188,false,Rx,0,6,C3,FF,0C,00,FB,03,00,00
1756490699227224,00000288,false,Rx,0,6,00,00,00,00,00,00,00,00
1756490699231216,00000488,false,Rx,0,8,08,27,56,00,53,01,8A,00
1756490699232310,00000193,false,Rx,0,6,14,00,EF,FF,02,00,00,00
1756490699236286,00000194,false,Rx,0,6,14,00,F8,FF,FF,FF,00,00
1756490699237527,00000213,false,Rx,0,4,08,00,00,00,00,00,00,00
1756490699237633,00000214,false,Rx,0,4,08,00,00,00,00,00,00,00
1756490699238568,00000188,false,Rx,0,6,B4,FF,13,00,D7,03,00,00
1756490699238693,00000288,false,Rx,0,6,00,00,00,00,00,00,00,00
1756490699242135,00000193,false,Rx,0,6,14,00,04,00,FD,FF,00,00
1756490699243447,00000488,false,Rx,0,8,08,27,56,00,53,01,8A,00
1756490699246266,00000194,false,Rx,0,6,14,00,F9,FF,FF,FF,00,00
1756490699247436,00000213,false,Rx,0,4,08,00,00,00,00,00,00,00
1756490699247539,00000214,false,Rx,0,4,08,00,00,00,00,00,00,00
1756490699248660,00000188,false,Rx,0,6,C5,FF,05,00,02,04,00,00
1756490699248787,00000288,false,Rx,0,6,00,00,00,00,00,00,00,00
1756490699251962,00000193,false,Rx,0,6,14,00,EF,FF,00,00,00,00
1756490699253457,00000488,false,Rx,0,8,08,27,56,00,53,01,8A,00
1756490699255827,00000710,false,Rx,0,1,7F,00,00,00,00,00,00,00
1756490699256261,00000194,false,Rx,0,6,14,00,FA,FF,FF,FF,00,00
1756490699257344,00000213,false,Rx,0,4,08,00,00,00,00,00,00,00
1756490699257448,00000214,false,Rx,0,4,08,00,00,00,00,00,00,00
1756490699258670,00000188,false,Rx,0,6,B9,FF,12,00,EF,03,00,00
1756490699258791,00000288,false,Rx,0,6,00,00,00,00,00,00,00,00
1756490699261790,00000193,false,Rx,0,6,14,00,F4,FF,01,00,00,00
1756490699263464,00000488,false,Rx,0,8,08,27,56,00,53,01,8A,00
1756490699266266,00000194,false,Rx,0,6,14,00,FC,FF,FF,FF,00,00
1756490699268332,00000213,false,Rx,0,4,08,00,00,00,00,00,00,00
1756490699268548,00000214,false,Rx,0,4,08,00,00,00,00,00,00,00
1756490699268790,00000188,false,Rx,0,6,B3,FF,15,00,CD,03,00,00
1756490699268893,00000288,false,Rx,0,6,00,00,00,00,00,00,00,00
1756490699271616,00000193,false,Rx,0,6,14,00,F1,FF,00,00,00,00
1756490699273714,00000488,false,Rx,0,8,08,27,56,00,53,01,8A,00
1756490699276266,00000194,false,Rx,0,6,14,00,FC,FF,FF,FF,00,00
1756490699278235,00000213,false,Rx,0,4,08,00,00,00,00,00,00,00
1756490699278339,00000214,false,Rx,0,4,08,00,00,00,00,00,00,00
1756490699279003,00000188,false,Rx,0,6,C3,FF,15,00,EF,03,00,00
1756490699279140,00000288,false,Rx,0,6,00,00,00,00,00,00,00,00
1756490699281442,00000193,false,Rx,0,6,14,00,F7,FF,00,00,00,00
1756490699283911,00000488,false,Rx,0,8,08,27,56,00,53,01,8A,00
1756490699286261,00000194,false,Rx,0,6,14,00,F9,FF,FF,FF,00,00
1756490699288139,00000213,false,Rx,0,4,08,00,00,00,00,00,00,00
1756490699288243,00000214,false,Rx,0,4,08,00,00,00,00,00,00,00
1756490699289200,00000188,false,Rx,0,6,C2,FF,0F,00,F1,03,00,00
1756490699289323,00000288,false,Rx,0,6,00,00,00,00,00,00,00,00
1756490699291268,00000193,false,Rx,0,6,14,00,FF,FF,00,00,00,00
1756490699294115,00000488,false,Rx,0,8,08,27,56,00,53,01,8A,00
1756490699296264,00000194,false,Rx,0,6,14,00,FC,FF,FE,FF,00,00
1756490699298045,00000213,false,Rx,0,4,08,00,00,00,00,00,00,00
1756490699298149,00000214,false,Rx,0,4,08,00,00,00,00,00,00,00
1756490699299400,00000188,false,Rx,0,6,B6,FF,17,00,D2,03,00,00
1756490699299527,00000288,false,Rx,0,6,00,00,00,00,00,00,00,00
1756490699301070,00000393,false,Rx,0,6,13,01,D5,01,0F,01,00,00
1756490699301182,00000293,false,Rx,0,4,6C,A2,00,00,00,00,00,00
1756490699301281,00000713,false,Rx,0,1,05,00,00,00,00,00,00,00
1756490699301378,00000733,false,Rx,0,8,05,00,00,C0,3F,A2,00,05
1756490699301456,00000193,false,Rx,0,6,14,00,06,00,00,00,00,00
1756490699301552,00000701,false,Rx,0,1,05,00,00,00,00,00,00,00
1756490699304313,00000488,false,Rx,0,8,08,27,56,00,53,01,8A,00
1756490699306258,00000194,false,Rx,0,6,14,00,FC,FF,01,00,00,00
1756490699309051,00000213,false,Rx,0,4,08,00,00,00,00,00,00,00
1756490699309158,00000214,false,Rx,0,4,08,00,00,00,00,00,00,00
1756490699309600,00000188,false,Rx,0,6,BB,FF,18,00,EA,03,00,00
1756490699309717,00000288,false,Rx,0,6,00,00,00,00,00,00,00,00
1756490699310919,00000193,false,Rx,0,6,14,00,07,00,01,00,00,00
1756490699314510,00000488,false,Rx,0,8,08,27,56,00,53,01,8A,00
1756490699316255,00000194,false,Rx,0,6,14,00,F9,FF,01,00,00,00
1756490699318947,00000213,false,Rx,0,4,08,00,00,00,00,00,00,00
1756490699319050,00000214,false,Rx,0,4,08,00,00,00,00,00,00,00
1756490699319803,00000188,false,Rx,0,6,C1,FF,08,00,F6,03,00,00
1756490699319924,00000288,false,Rx,0,6,00,00,00,00,00,00,00,00
1756490699320739,00000193,false,Rx,0,6,14,00,F8,FF,00,00,00,00
1756490699324713,00000488,false,Rx,0,8,08,27,56,00,53,01,8A,00
1756490699326236,00000394,false,Rx,0,6,65,05,DD,01,16,01,00,00
1756490699326344,00000294,false,Rx,0,4,48,A2,F0,FF,00,00,00,00
1756490699326444,00000714,false,Rx,0,1,05,00,00,00,00,00,00,00
1756490699326543,00000734,false,Rx,0,8,04,8F,C2,F5,3F,A2,F0,05
1756490699326671,00000194,false,Rx,0,6,14,00,F8,FF,00,00,00,00
1756490699328855,00000213,false,Rx,0,4,08,00,00,00,00,00,00,00
1756490699328963,00000214,false,Rx,0,4,08,00,00,00,00,00,00,00
1756490699330570,00000193,false,Rx,0,6,14,00,F7,FF,00,00,00,00
1756490699330811,00000188,false,Rx,0,6,B8,FF,1A,00,D7,03,00,00
1756490699330927,00000288,false,Rx,0,6,00,00,00,00,00,00,00,00
1756490699334113,00000488,false,Rx,0,8,08,27,56,00,53,01,8A,00
1756490699335509,00000181,false,Rx,0,8,68,10,00,E9,02,00,00,00
1756490699336274,00000194,false,Rx,0,6,14,00,FC,FF,01,00,00,00
1756490699339863,00000213,false,Rx,0,4,08,00,00,00,00,00,00,00
1756490699339971,00000214,false,Rx,0,4,08,00,00,00,00,00,00,00
1756490699340395,00000193,false,Rx,0,6,14,00,02,00,FF,FF,00,00
1756490699340995,00000188,false,Rx,0,6,B9,FF,11,00,D6,03,00,00
1756490699341118,00000288,false,Rx,0,6,00,00,00,00,00,00,00,00
1756490699344310,00000488,false,Rx,0,8,08,27,56,00,53,01,8A,00
1756490699346253,00000194,false,Rx,0,6,14,00,FC,FF,01,00,00,00
1756490699347617,00000181,false,Rx,0,8,04,10,00,E9,02,00,00,00
1756490699349759,00000213,false,Rx,0,4,08,00,00,00,00,00,00,00
1756490699349869,00000214,false,Rx,0,4,08,00,00,00,00,00,00,00
1756490699350223,00000193,false,Rx,0,6,14,00,FF,FF,00,00,00,00
1756490699351276,00000188,false,Rx,0,6,C3,FF,11,00,F9,03,00,00
1756490699351344,00000288,false,Rx,0,6,00,00,00,00,00,00,00,00
1756490699354509,00000488,false,Rx,0,8,08,27,56,00,53,01,8A,00
1756490699355030,00000190,false,Rx,0,8,00,C9,C9,C9,C9,C9,C9,C9
1756490699355151,00000190,false,Rx,0,8,07,C9,C9,C9,C9,C9,C9,C9
1756490699355262,00000190,false,Rx,0,8,15,C9,C9,C9,C9,C9,C9,C9
1756490699355441,00000190,false,Rx,0,8,1C,C9,C9,C9,C9,C9,C9,C9
1756490699355576,00000190,false,Rx,0,8,23,C9,C9,C9,C9,C9,C9,C9
1756490699355740,00000190,false,Rx,0,8,0E,C9,C8,C9,C9,C9,C9,C9
1756490699355944,00000190,false,Rx,0,8,2A,C9,C9,C8,C9,C9,C9,C9
1756490699356139,00000190,false,Rx,0,8,31,C9,C9,C9,C9,C9,C9,C9
1756490699356258,00000190,false,Rx,0,8,3F,C9,C9,C9,C9,C9,C9,C9
1756490699356401,00000190,false,Rx,0,8,46,C9,C9,C9,C9,C9,C9,C9
1756490699356585,00000190,false,Rx,0,8,38,C9,C9,C9,C9,C9,C9,C7
1756490699356696,00000190,false,Rx,0,8,4D,C9,C9,C9,C9,C9,C9,C9
1756490699356763,00000190,false,Rx,0,8,54,C9,C9,C9,C9,C9,C9,C9
1756490699356826,00000190,false,Rx,0,8,62,C9,C7,C9,C9,C9,C9,C9
1756490699356895,00000190,false,Rx,0,8,5B,C9,C9,C9,C9,C9,C9,C9
1756490699356958,00000194,false,Rx,0,6,14,00,F9,FF,02,00,00,00
1756490699359831,00000100,false,Rx,0,6,5B,56,E1,03,70,3B,00,00
1756490699360001,00000213,false,Rx,0,4,08,00,00,00,00,00,00,00
1756490699360130,00000214,false,Rx,0,4,08,00,00,00,00,00,00,00
1756490699360230,00000390,false,Rx,0,8,00,3D,3D,3D,3D,3D,3D,3D
1756490699360333,00000390,false,Rx,0,8,07,3D,3D,3D,3D,3D,3D,3D
1756490699360456,00000193,false,Rx,0,6,14,00,FD,FF,00,00,00,00
1756490699360576,00000390,false,Rx,0,8,1C,3D,3D,3D,3D,3D,3D,3D
1756490699360675,00000390,false,Rx,0,8,23,3D,3D,3D,3D,3D,3D,3D
1756490699360773,00000390,false,Rx,0,8,2A,3D,3D,3D,3D,3D,3D,3D
1756490699360890,00000390,false,Rx,0,8,31,3D,3D,3D,3D,3D,3D,3D
1756490699361018,00000390,false,Rx,0,8,38,13,13,13,13,13,13,13
1756490699361215,00000390,false,Rx,0,8,3F,13,13,13,13,13,13,13
1756490699361317,00000390,false,Rx,0,8,0E,3D,3D,3D,3D,3D,3D,3D
1756490699361417,00000390,false,Rx,0,8,46,13,13,3D,3D,3D,3D,3D
1756490699361535,00000390,false,Rx,0,8,4D,3D,3D,3D,13,13,13,13
1756490699361654,00000188,false,Rx,0,6,B9,FF,0E,00,E0,03,00,00
1756490699361753,00000288,false,Rx,0,6,00,00,00,00,00,00,00,00
1756490699361853,00000390,false,Rx,0,8,62,3D,3D,3D,3D,3D,3D,3C
1756490699361972,00000390,false,Rx,0,8,69,3C,3C,3C,3C,3C,3C,3C
1756490699362090,00000390,false,Rx,0,8,77,3D,3D,3D,3D,3D,3D,3D
1756490699362213,00000390,false,Rx,0,8,7E,3D,3D,3D,3D,3D,3D,3D
1756490699362351,00000390,false,Rx,0,8,70,3D,3D,3D,3D,3D,3D,3D
1756490699362455,00000390,false,Rx,0,8,85,3D,3D,3D,3D,3D,3D,3D
1756490699362554,00000390,false,Rx,0,8,8C,3D,3D,3D,3D,13,13,13
1756490699362673,00000390,false,Rx,0,8,9A,3D,3D,3D,3D,3D,3D,3D
1756490699362792,00000390,false,Rx,0,8,93,13,13,13,13,13,3D,3D
1756490699362908,00000390,false,Rx,0,8,A1,3D,3D,3D,3D,3D,3D,3D
1756490699363027,00000390,false,Rx,0,8,A8,3D,3D,3D,3D,3D,3D,3D
1756490699363145,00000390,false,Rx,0,8,B6,13,13,3D,3D,3D,3D,3D
1756490699363283,00000390,false,Rx,0,8,BD,3D,3D,3D,3D,3D,3D,3D
1756490699363456,00000390,false,Rx,0,8,AF,3D,13,13,13,13,13,13
1756490699363584,00000390,false,Rx,0,8,C4,3D,3D,3D,3D,3D,3D,3D
1756490699363646,00000390,false,Rx,0,8,CB,3D,3D,3D,3D,3D,3D,3D
1756490699363705,00000390,false,Rx,0,8,D9,3D,3D,3D,3D,3D,3D,3D
1756490699363762,00000390,false,Rx,0,8,D2,3D,3D,3D,3D,3D,3D,3D
1756490699364710,00000488,false,Rx,0,8,08,27,56,00,53,01,8A,00
1756490699366484,00000194,false,Rx,0,6,14,00,FB,FF,00,00,00,00
1756490699369574,00000213,false,Rx,0,4,08,00,00,00,00,00,00,00
1756490699369686,00000214,false,Rx,0,4,08,00,00,00,00,00,00,00
1756490699370103,00000193,false,Rx,0,6,14,00,05,00,FF,FF,00,00
1756490699371594,00000188,false,Rx,0,6,B7,FF,0C,00,D4,03,00,00
1756490699371720,00000288,false,Rx,0,6,00,00,00,00,00,00,00,00
1756490699374911,00000488,false,Rx,0,8,08,27,56,00,53,01,8A,00
1756490699376486,00000194,false,Rx,0,6,14,00,FD,FF,FF,FF,00,00
1756490699379947,00000193,false,Rx,0,6,14,00,FF,FF,00,00,00,00
1756490699380583,00000213,false,Rx,0,4,08,00,00,00,00,00,00,00
1756490699380681,00000214,false,Rx,0,4,08,00,00,00,00,00,00,00
1756490699381793,00000188,false,Rx,0,6,C7,FF,10,00,F4,03,00,00
1756490699381918,00000288,false,Rx,0,6,00,00,00,00,00,00,00,00
1756490699385744,00000488,false,Rx,0,8,08,27,56,00,53,01,8A,00
1756490699386474,00000194,false,Rx,0,6,14,00,FC,FF,FE,FF,00,00
1756490699389770,00000193,false,Rx,0,6,14,00,FD,FF,02,00,00,00
1756490699390490,00000213,false,Rx,0,4,08,00,00,00,00,00,00,00
1756490699390595,00000214,false,Rx,0,4,08,00,00,00,00,00,00,00
1756490699391394,00000188,false,Rx,0,6,B7,FF,1A,00,D8,03,00,00
1756490699391523,00000288,false,Rx,0,6,00,00,00,00,00,00,00,00
1756490699395908,00000488,false,Rx,0,8,08,27,56,00,53,01,8A,00
1756490699396478,00000194,false,Rx,0,6,14,00,FB,FF,01,00,00,00
1756490699399576,00000393,false,Rx,0,6,15,01,D5,01,07,01,00,00
1756490699399688,00000293,false,Rx,0,4,4A,A2,00,00,00,00,00,00
1756490699399786,00000713,false,Rx,0,1,05,00,00,00,00,00,00,00
1756490699399882,00000733,false,Rx,0,8,06,6F,12,03,3B,A2,00,05
1756490699400000,00000193,false,Rx,0,6,14,00,0C,00,FF,FF,00,00
1756490699400429,00000213,false,Rx,0,4,08,00,00,00,00,00,00,00
1756490699400525,00000214,false,Rx,0,4,08,00,00,00,00,00,00,00
1756490699401588,00000188,false,Rx,0,6,C4,FF,11,00,F2,03,00,00
1756490699401696,00000288,false,Rx,0,6,00,00,00,00,00,00,00,00
1756490699401800,00000701,false,Rx,0,1,05,00,00,00,00,00,00,00
1756490699406105,00000488,false,Rx,0,8,08,27,56,00,53,01,8A,00
1756490699406474,00000194,false,Rx,0,6,14,00,FC,FF,FF,FF,00,00
1756490699409421,00000193,false,Rx,0,6,14,00,07,00,01,00,00,00
1756490699410402,00000213,false,Rx,0,4,08,00,00,00,00,00,00,00
1756490699410506,00000214,false,Rx,0,4,08,00,00,00,00,00,00,00
1756490699411791,00000188,false,Rx,0,6,C0,FF,13,00,F7,03,00,00
1756490699411916,00000288,false,Rx,0,6,00,00,00,00,00,00,00,00
1756490699414925,00000290,false,Rx,0,7,01,E8,00,00,00,00,00,00
1756490699415031,00000490,false,Rx,0,5,64,00,00,00,00,00,00,00
1756490699416338,00000488,false,Rx,0,8,08,27,56,00,53,01,8A,00
1756490699416470,00000194,false,Rx,0,6,14,00,FB,FF,FE,FF,00,00
1756490699419282,00000193,false,Rx,0,6,14,00,FF,FF,01,00,00,00
1756490699421390,00000213,false,Rx,0,4,08,00,00,00,00,00,00,00
1756490699421477,00000214,false,Rx,0,4,08,00,00,00,00,00,00,00
1756490699421959,00000188,false,Rx,0,6,B9,FF,14,00,C6,03,00,00
1756490699422063,00000288,false,Rx,0,6,00,00,00,00,00,00,00,00
1756490699426447,00000394,false,Rx,0,6,65,05,DD,01,0E,01,00,00
1756490699426521,00000294,false,Rx,0,4,DB,A1,A7,FF,00,00,00,00
1756490699426624,00000488,false,Rx,0,8,08,27,56,00,53,01,8A,00
1756490699426719,00000714,false,Rx,0,1,05,00,00,00,00,00,00,00
1756490699426817,00000734,false,Rx,0,8,05,00,00,C0,3F,A1,A7,05
1756490699426916,00000194,false,Rx,0,6,14,00,FA,FF,00,00,00,00
1756490699429046,00000193,false,Rx,0,6,14,00,03,00,00,00,00,00
1756490699431283,00000213,false,Rx,0,4,08,00,00,00,00,00,00,00
1756490699431372,00000214,false,Rx,0,4,08,00,00,00,00,00,00,00
1756490699432275,00000188,false,Rx,0,6,C3,FF,18,00,E9,03,00,00
1756490699432350,00000288,false,Rx,0,6,00,00,00,00,00,00,00,00
1756490699436541,00000194,false,Rx,0,6,14,00,F9,FF,01,00,00,00
1756490699436711,00000488,false,Rx,0,8,08,27,56,00,53,01,8A,00
1756490699438905,00000193,false,Rx,0,6,14,00,0B,00,02,00,00,00
1756490699441224,00000213,false,Rx,0,4,08,00,00,00,00,00,00,00
1756490699441344,00000214,false,Rx,0,4,08,00,00,00,00,00,00,00
1756490699442389,00000188,false,Rx,0,6,C6,FF,0E,00,F7,03,00,00
1756490699442514,00000288,false,Rx,0,6,00,00,00,00,00,00,00,00
1756490699446478,00000194,false,Rx,0,6,14,00,FB,FF,FF,FF,00,00
1756490699446901,00000488,false,Rx,0,8,08,27,56,00,53,01,8A,00
1756490699448727,00000193,false,Rx,0,6,14,00,FC,FF,FF,FF,00,00
1756490699451098,00000213,false,Rx,0,4,08,00,00,00,00,00,00,00
1756490699451224,00000214,false,Rx,0,4,08,00,00,00,00,00,00,00
1756490699453564,00000188,false,Rx,0,6,B5,FF,14,00,D2,03,00,00
1756490699453689,00000288,false,Rx,0,6,00,00,00,00,00,00,00,00
1756490699456181,00000488,false,Rx,0,8,08,27,56,00,53,01,8A,00
1756490699456464,00000194,false,Rx,0,6,14,00,F8,FF,00,00,00,00
1756490699458557,00000193,false,Rx,0,6,14,00,12,00,01,00,00,00
1756490699458821,00000710,false,Rx,0,1,7F,00,00,00,00,00,00,00
1756490699462102,00000213,false,Rx,0,4,08,00,00,00,00,00,00,00
1756490699462206,00000214,false,Rx,0,4,08,00,00,00,00,00,00,00
1756490699463701,00000188,false,Rx,0,6,BC,FF,11,00,DD,03,00,00
1756490699463827,00000288,false,Rx,0,6,00,00,00,00,00,00,00,00
1756490699466487,00000488,false,Rx,0,8,08,27,56,00,53,01,8A,00
1756490699466613,00000194,false,Rx,0,6,14,00,FA,FF,00,00,00,00
1756490699468383,00000193,false,Rx,0,6,14,00,09,00,05,00,00,00
1756490699472008,00000213,false,Rx,0,4,08,00,00,00,00,00,00,00
1756490699472115,00000214,false,Rx,0,4,08,00,00,00,00,00,00,00
1756490699474025,00000188,false,Rx,0,6,CA,FF,0C,00,F8,03,00,00
1756490699474171,00000288,false,Rx,0,6,00,00,00,00,00,00,00,00
1756490699476473,00000194,false,Rx,0,6,14,00,FD,FF,02,00,00,00
1756490699476774,00000488,false,Rx,0,8,08,27,56,00,53,01,8A,00
1756490699478212,00000193,false,Rx,0,6,14,00,F2,FF,FF,FF,00,00
1756490699481911,00000213,false,Rx,0,4,08,00,00,00,00,00,00,00
1756490699482016,00000214,false,Rx,0,4,08,00,00,00,00,00,00,00
1756490699484302,00000188,false,Rx,0,6,C2,FF,0F,00,ED,03,00,00
1756490699484425,00000288,false,Rx,0,6,00,00,00,00,00,00,00,00
1756490699486469,00000194,false,Rx,0,6,14,00,F9,FF,00,00,00,00
1756490699487076,00000488,false,Rx,0,8,08,27,56,00,53,01,8A,00
1756490699488033,00000193,false,Rx,0,6,14,00,01,00,FE,FF,00,00
1756490699492911,00000213,false,Rx,0,4,08,00,00,00,00,00,00,00
1756490699493015,00000214,false,Rx,0,4,08,00,00,00,00,00,00,00
1756490699494599,00000188,false,Rx,0,6,B1,FF,11,00,CD,03,00,00
1756490699494721,00000288,false,Rx,0,6,00,00,00,00,00,00,00,00
1756490699495217,00000181,false,Rx,0,8,68,10,00,E9,02,00,00,00
1756490699496470,00000194,false,Rx,0,6,14,00,FB,FF,01,00,00,00
1756490699497370,00000488,false,Rx,0,8,08,27,56,00,53,01,8A,00
1756490699497841,00000393,false,Rx,0,6,15,01,D5,01,0F,01,00,00
1756490699497941,00000293,false,Rx,0,4,72,A2,00,00,00,00,00,00
1756490699498040,00000713,false,Rx,0,1,05,00,00,00,00,00,00,00
1756490699498138,00000733,false,Rx,0,8,07,00,00,80,3F,A2,00,05
1756490699498253,00000193,false,Rx,0,6,14,00,09,00,02,00,00,00
1756490699501800,00000701,false,Rx,0,1,05,00,00,00,00,00,00,00
1756490699502811,00000213,false,Rx,0,4,08,00,00,00,00,00,00,00
1756490699502914,00000214,false,Rx,0,4,08,00,00,00,00,00,00,00
1756490699504895,00000188,false,Rx,0,6,C5,FF,0E,00,FA,03,00,00
1756490699505727,00000288,false,Rx,0,6,00,00,00,00,00,00,00,00
1756490699506460,00000194,false,Rx,0,6,14,00,FC,FF,01,00,00,00
1756490699507693,00000193,false,Rx,0,6,14,00,F8,FF,FF,FF,00,00
1756490699508380,00000181,false,Rx,0,8,04,10,00,E9,02,00,00,00
1756490699508741,00000488,false,Rx,0,8,08,27,56,00,53,01,8A,00
1756490699512717,00000213,false,Rx,0,4,08,00,00,00,00,00,00,00
1756490699512821,00000214,false,Rx,0,4,08,00,00,00,00,00,00,00
1756490699515793,00000188,false,Rx,0,6,B1,FF,15,00,CE,03,00,00
1756490699515924,00000288,false,Rx,0,6,00,00,00,00,00,00,00,00
1756490699516466,00000194,false,Rx,0,6,14,00,FB,FF,01,00,00,00
1756490699517514,00000193,false,Rx,0,6,14,00,02,00,00,00,00,00
1756490699518757,00000488,false,Rx,0,8,08,27,56,00,53,01,8A,00
1756490699522623,00000213,false,Rx,0,4,08,00,00,00,00,00,00,00
1756490699522729,00000214,false,Rx,0,4,08,00,00,00,00,00,00,00
1756490699525902,00000188,false,Rx,0,6,C3,FF,0E,00,F4,03,00,00
1756490699526027,00000288,false,Rx,0,6,00,00,00,00,00,00,00,00
1756490699526447,00000394,false,Rx,0,6,65,05,DD,01,1F,01,00,00
1756490699526554,00000294,false,Rx,0,4,EB,A1,67,FF,00,00,00,00
1756490699526855,00000714,false,Rx,0,1,05,00,00,00,00,00,00,00
1756490699526917,00000734,false,Rx,0,8,06,6F,12,03,3B,A1,67,05
1756490699526975,00000194,false,Rx,0,6,14,00,FB,FF,01,00,00,00
1756490699527343,00000193,false,Rx,0,6,14,00,09,00,00,00,00,00
1756490699529000,00000488,false,Rx,0,8,08,27,56,00,53,01,8A,00
1756490699533638,00000213,false,Rx,0,4,08,00,00,00,00,00,00,00
1756490699533745,00000214,false,Rx,0,4,08,00,00,00,00,00,00,00
1756490699536104,00000188,false,Rx,0,6,C1,FF,0E,00,F8,03,00,00
1756490699536229,00000288,false,Rx,0,6,00,00,00,00,00,00,00,00
1756490699536466,00000194,false,Rx,0,6,14,00,F9,FF,FE,FF,00,00
1756490699537171,00000193,false,Rx,0,6,14,00,01,00,04,00,00,00
1756490699539215,00000488,false,Rx,0,8,08,27,56,00,53,01,8A,00
1756490699543536,00000213,false,Rx,0,4,08,00,00,00,00,00,00,00
1756490699543640,00000214,false,Rx,0,4,08,00,00,00,00,00,00,00
1756490699546301,00000188,false,Rx,0,6,B5,FF,18,00,CC,03,00,00
1756490699546409,00000288,false,Rx,0,6,00,00,00,00,00,00,00,00
1756490699546506,00000194,false,Rx,0,6,14,00,FB,FF,FF,FF,00,00
1756490699546987,00000193,false,Rx,0,6,14,00,F5,FF,04,00,00,00
1756490699549661,00000488,false,Rx,0,8,08,27,56,00,53,01,8A,00
1756490699553486,00000213,false,Rx,0,4,08,00,00,00,00,00,00,00
1756490699553587,00000214,false,Rx,0,4,08,00,00,00,00,00,00,00
1756490699556428,00000194,false,Rx,0,6,14,00,FD,FF,FF,FF,00,00
1756490699556521,00000188,false,Rx,0,6,B4,FF,15,00,DE,03,00,00
1756490699556612,00000288,false,Rx,0,6,00,00,00,00,00,00,00,00
1756490699556767,00000193,false,Rx,0,6,14,00,04,00,00,00,00,00
1756490699559555,00000488,false,Rx,0,8,08,27,56,00,53,01,8A,00
1756490699563321,00000213,false,Rx,0,4,08,00,00,00,00,00,00,00
1756490699563413,00000214,false,Rx,0,4,08,00,00,00,00,00,00,00
1756490699566418,00000194,false,Rx,0,6,14,00,FC,FF,FF,FF,00,00
1756490699566595,00000193,false,Rx,0,6,14,00,FC,FF,05,00,00,00
1756490699566709,00000188,false,Rx,0,6,C8,FF,0B,00,01,04,00,00
1756490699566807,00000288,false,Rx,0,6,00,00,00,00,00,00,00,00
1756490699566903,00000710,false,Rx,0,1,7F,00,00,00,00,00,00,00
1756490699569753,00000488,false,Rx,0,8,08,27,56,00,53,01,8A,00
1756490699574314,00000213,false,Rx,0,4,08,00,00,00,00,00,00,00
1756490699574522,00000214,false,Rx,0,4,08,00,00,00,00,00,00,00
1756490699576431,00000194,false,Rx,0,6,14,00,F9,FF,FF,FF,00,00
1756490699576521,00000193,false,Rx,0,6,14,00,F3,FF,06,00,00,00
1756490699576849,00000188,false,Rx,0,6,B6,FF,19,00,D6,03,00,00
1756490699576964,00000288,false,Rx,0,6,00,00,00,00,00,00,00,00
1756490699579960,00000488,false,Rx,0,8,08,27,56,00,53,01,8A,00
1756490699584236,00000213,false,Rx,0,4,08,00,00,00,00,00,00,00
1756490699584322,00000214,false,Rx,0,4,08,00,00,00,00,00,00,00
1756490699586259,00000193,false,Rx,0,6,14,00,01,00,03,00,00,00
1756490699586408,00000194,false,Rx,0,6,14,00,FA,FF,FF,FF,00,00
1756490699587039,00000188,false,Rx,0,6,B5,FF,13,00,D4,03,00,00
1756490699587171,00000288,false,Rx,0,6,00,00,00,00,00,00,00,00
1756490699590722,00000488,false,Rx,0,8,08,27,56,00,53,01,8A,00
1756490699594121,00000213,false,Rx,0,4,08,00,00,00,00,00,00,00
1756490699594215,00000214,false,Rx,0,4,08,00,00,00,00,00,00,00
1756490699596079,00000393,false,Rx,0,6,15,01,D5,01,07,01,00,00
1756490699596172,00000293,false,Rx,0,4,41,A2,00,00,00,00,00,00
1756490699596269,00000713,false,Rx,0,1,05,00,00,00,00,00,00,00
1756490699596367,00000733,false,Rx,0,8,08,00,00,80,3F,A2,00,05
1756490699596466,00000193,false,Rx,0,6,14,00,FD,FF,01,00,00,00
1756490699596567,00000194,false,Rx,0,6,14,00,FB,FF,FF,FF,00,00
1756490699596745,00000188,false,Rx,0,6,C2,FF,0E,00,EE,03,00,00
1756490699596856,00000288,false,Rx,0,6,00,00,00,00,00,00,00,00
1756490699600973,00000488,false,Rx,0,8,08,27,56,00,53,01,8A,00
1756490699602010,00000701,false,Rx,0,1,05,00,00,00,00,00,00,00
1756490699605127,00000213,false,Rx,0,4,08,00,00,00,00,00,00,00
1756490699605220,00000214,false,Rx,0,4,08,00,00,00,00,00,00,00
1756490699605903,00000193,false,Rx,0,6,14,00,F9,FF,05,00,00,00
1756490699606413,00000194,false,Rx,0,6,14,00,F9,FF,FF,FF,00,00
1756490699606938,00000188,false,Rx,0,6,B5,FF,1A,00,D2,03,00,00
1756490699607057,00000288,false,Rx,0,6,00,00,00,00,00,00,00,00
1756490699611142,00000488,false,Rx,0,8,08,27,56,00,53,01,8A,00
1756490699615055,00000213,false,Rx,0,4,08,00,00,00,00,00,00,00
1756490699615131,00000214,false,Rx,0,4,08,00,00,00,00,00,00,00
1756490699615744,00000193,false,Rx,0,6,14,00,06,00,06,00,00,00
1756490699616405,00000194,false,Rx,0,6,14,00,FA,FF,01,00,00,00
1756490699617145,00000188,false,Rx,0,6,C2,FF,0D,00,F7,03,00,00
1756490699617257,00000288,false,Rx,0,6,00,00,00,00,00,00,00,00
1756490699620831,00000290,false,Rx,0,7,01,E8,00,00,00,00,00,00
1756490699620925,00000490,false,Rx,0,5,64,00,00,00,00,00,00,00
1756490699621335,00000488,false,Rx,0,8,08,27,56,00,53,01,8A,00
1756490699624930,00000213,false,Rx,0,4,08,00,00,00,00,00,00,00
1756490699625023,00000214,false,Rx,0,4,08,00,00,00,00,00,00,00
1756490699625555,00000193,false,Rx,0,6,14,00,FD,FF,02,00,00,00
1756490699626404,00000394,false,Rx,0,6,65,05,DD,01,16,01,00,00
1756490699626496,00000294,false,Rx,0,4,68,A2,C0,FF,00,00,00,00
1756490699626593,00000714,false,Rx,0,1,05,00,00,00,00,00,00,00
1756490699626690,00000734,false,Rx,0,8,07,00,00,80,3F,A2,C0,05
1756490699626787,00000194,false,Rx,0,6,14,00,FB,FF,00,00,00,00
1756490699627350,00000188,false,Rx,0,6,C3,FF,14,00,F9,03,00,00
1756490699627462,00000288,false,Rx,0,6,00,00,00,00,00,00,00,00
1756490699631532,00000488,false,Rx,0,8,08,27,56,00,53,01,8A,00
1756490699634834,00000213,false,Rx,0,4,08,00,00,00,00,00,00,00
1756490699634928,00000214,false,Rx,0,4,08,00,00,00,00,00,00,00
1756490699635388,00000193,false,Rx,0,6,14,00,FE,FF,FA,FF,00,00
1756490699636405,00000194,false,Rx,0,6,14,00,FA,FF,00,00,00,00
1756490699638751,00000188,false,Rx,0,6,B3,FF,17,00,D1,03,00,00
1756490699638853,00000288,false,Rx,0,6,00,00,00,00,00,00,00,00
1756490699641725,00000488,false,Rx,0,8,08,27,56,00,53,01,8A,00
1756490699645225,00000193,false,Rx,0,6,14,00,00,00,FF,FF,00,00
1756490699645853,00000213,false,Rx,0,4,08,00,00,00,00,00,00,00
1756490699645948,00000214,false,Rx,0,4,08,00,00,00,00,00,00,00
1756490699646399,00000194,false,Rx,0,6,14,00,FA,FF,00,00,00,00
1756490699648775,00000188,false,Rx,0,6,BC,FF,19,00,E4,03,00,00
1756490699648967,00000288,false,Rx,0,6,00,00,00,00,00,00,00,00
1756490699652019,00000488,false,Rx,0,8,08,27,56,00,53,01,8A,00
1756490699655044,00000193,false,Rx,0,6,14,00,0D,00,00,00,00,00
1756490699655752,00000213,false,Rx,0,4,08,00,00,00,00,00,00,00
1756490699655849,00000214,false,Rx,0,4,08,00,00,00,00,00,00,00
1756490699656401,00000194,false,Rx,0,6,14,00,FA,FF,01,00,00,00
1756490699659044,00000188,false,Rx,0,6,C2,FF,10,00,FC,03,00,00
1756490699659264,00000288,false,Rx,0,6,00,00,00,00,00,00,00,00
1756490699662314,00000488,false,Rx,0,8,08,27,56,00,53,01,8A,00
1756490699664866,00000193,false,Rx,0,6,14,00,08,00,FA,FF,00,00
1756490699665661,00000213,false,Rx,0,4,08,00,00,00,00,00,00,00
1756490699665754,00000214,false,Rx,0,4,08,00,00,00,00,00,00,00
1756490699666400,00000194,false,Rx,0,6,14,00,FD,FF,01,00,00,00
1756490699666769,00000710,false,Rx,0,1,7F,00,00,00,00,00,00,00
1756490699669342,00000188,false,Rx,0,6,B5,FF,19,00,D1,03,00,00
1756490699669563,00000288,false,Rx,0,6,00,00,00,00,00,00,00,00
1756490699673589,00000488,false,Rx,0,8,08,27,56,00,53,01,8A,00
1756490699674693,00000193,false,Rx,0,6,14,00,03,00,FC,FF,00,00
1756490699675556,00000213,false,Rx,0,4,08,00,00,00,00,00,00,00
1756490699675657,00000214,false,Rx,0,4,08,00,00,00,00,00,00,00
1756490699676396,00000194,false,Rx,0,6,14,00,FC,FF,01,00,00,00
1756490699678746,00000188,false,Rx,0,6,C4,FF,0A,00,FD,03,00,00
1756490699678963,00000288,false,Rx,0,6,00,00,00,00,00,00,00,00
1756490699683851,00000488,false,Rx,0,8,08,27,56,00,53,01,8A,00
1756490699684516,00000193,false,Rx,0,6,14,00,08,00,FE,FF,00,00
1756490699686400,00000194,false,Rx,0,6,14,00,FB,FF,01,00,00,00
1756490699686562,00000213,false,Rx,0,4,08,00,00,00,00,00,00,00
1756490699686659,00000214,false,Rx,0,4,08,00,00,00,00,00,00,00
1756490699689018,00000188,false,Rx,0,6,BA,FF,11,00,EF,03,00,00
1756490699689278,00000288,false,Rx,0,6,00,00,00,00,00,00,00,00
1756490699694155,00000488,false,Rx,0,8,08,27,56,00,53,01,8A,00
1756490699694344,00000393,false,Rx,0,6,15,01,D5,01,0F,01,00,00
1756490699694439,00000293,false,Rx,0,4,6C,A2,00,00,00,00,00,00
1756490699694536,00000713,false,Rx,0,1,05,00,00,00,00,00,00,00
1756490699694634,00000733,false,Rx,0,8,09,00,00,00,00,A2,00,05
1756490699694730,00000193,false,Rx,0,6,14,00,00,00,FF,FF,00,00
1756490699696399,00000194,false,Rx,0,6,14,00,F9,FF,01,00,00,00
1756490699696497,00000213,false,Rx,0,4,08,00,00,00,00,00,00,00
1756490699696594,00000214,false,Rx,0,4,08,00,00,00,00,00,00,00
1756490699699318,00000188,false,Rx,0,6,B2,FF,13,00,CC,03,00,00
1756490699699562,00000288,false,Rx,0,6,00,00,00,00,00,00,00,00
1756490699702121,00000701,false,Rx,0,1,05,00,00,00,00,00,00,00
1756490699704174,00000193,false,Rx,0,6,14,00,0A,00,FD,FF,00,00
1756490699704440,00000488,false,Rx,0,8,08,27,56,00,53,01,8A,00
1756490699706352,00000213,false,Rx,0,4,08,00,00,00,00,00,00,00
1756490699706468,00000194,false,Rx,0,6,14,00,FB,FF,01,00,00,00
1756490699706565,00000214,false,Rx,0,4,08,00,00,00,00,00,00,00
1756490699709617,00000188,false,Rx,0,6,C1,FF,11,00,F2,03,00,00
1756490699709861,00000288,false,Rx,0,6,00,00,00,00,00,00,00,00
1756490699714006,00000193,false,Rx,0,6,14,00,00,00,F8,FF,00,00
1756490699714739,00000488,false,Rx,0,8,08,27,56,00,53,01,8A,00
1756490699716397,00000194,false,Rx,0,6,14,00,FC,FF,03,00,00,00
1756490699717370,00000213,false,Rx,0,4,08,00,00,00,00,00,00,00
1756490699717466,00000214,false,Rx,0,4,08,00,00,00,00,00,00,00
1756490699719914,00000188,false,Rx,0,6,C2,FF,08,00,F4,03,00,00
1756490699720712,00000288,false,Rx,0,6,00,00,00,00,00,00,00,00
1756490699723831,00000193,false,Rx,0,6,14,00,FE,FF,FB,FF,00,00
1756490699725816,00000488,false,Rx,0,8,08,27,56,00,53,01,8A,00
1756490699726389,00000394,false,Rx,0,6,65,05,DD,01,28,01,00,00
1756490699726487,00000294,false,Rx,0,4,EE,A1,73,FF,00,00,00,00
1756490699726591,00000714,false,Rx,0,1,05,00,00,00,00,00,00,00
1756490699726690,00000734,false,Rx,0,8,08,00,00,80,3F,A1,73,05
1756490699726790,00000194,false,Rx,0,6,14,00,FA,FF,FF,FF,00,00
1756490699727324,00000213,false,Rx,0,4,08,00,00,00,00,00,00,00
1756490699727420,00000214,false,Rx,0,4,08,00,00,00,00,00,00,00
1756490699729719,00000188,false,Rx,0,6,C5,FF,09,00,F4,03,00,00
1756490699731119,00000288,false,Rx,0,6,00,00,00,00,00,00,00,00
1756490699733924,00000193,false,Rx,0,6,14,00,09,00,FE,FF,00,00
1756490699735970,00000488,false,Rx,0,8,08,27,56,00,53,01,8A,00
1756490699736449,00000194,false,Rx,0,6,14,00,F9,FF,FF,FF,00,00
1756490699737342,00000213,false,Rx,0,4,08,00,00,00,00,00,00,00
1756490699737463,00000214,false,Rx,0,4,08,00,00,00,00,00,00,00
1756490699739374,00000188,false,Rx,0,6,BD,FF,15,00,F5,03,00,00
1756490699741045,00000288,false,Rx,0,6,00,00,00,00,00,00,00,00
1756490699743546,00000193,false,Rx,0,6,14,00,FC,FF,FE,FF,00,00
1756490699746196,00000488,false,Rx,0,8,08,27,56,00,53,01,8A,00
1756490699746445,00000194,false,Rx,0,6,14,00,FA,FF,FF,FF,00,00
1756490699747243,00000213,false,Rx,0,4,08,00,00,00,00,00,00,00
1756490699747343,00000214,false,Rx,0,4,08,00,00,00,00,00,00,00
1756490699749662,00000188,false,Rx,0,6,B1,FF,12,00,CD,03,00,00
1756490699751359,00000288,false,Rx,0,6,00,00,00,00,00,00,00,00
1756490699753357,00000193,false,Rx,0,6,14,00,03,00,00,00,00,00
1756490699754953,00000181,false,Rx,0,8,68,10,00,E9,02,00,00,00
1756490699756446,00000194,false,Rx,0,6,14,00,FA,FF,FE,FF,00,00
1756490699756575,00000488,false,Rx,0,8,08,27,56,00,53,01,8A,00
1756490699758213,00000213,false,Rx,0,4,08,00,00,00,00,00,00,00
1756490699758317,00000214,false,Rx,0,4,08,00,00,00,00,00,00,00
1756490699759976,00000188,false,Rx,0,6,BD,FF,15,00,EF,03,00,00
1756490699761649,00000288,false,Rx,0,6,00,00,00,00,00,00,00,00
1756490699763202,00000193,false,Rx,0,6,14,00,13,00,FF,FF,00,00
1756490699766445,00000194,false,Rx,0,6,14,00,FB,FF,00,00,00,00
1756490699766813,00000488,false,Rx,0,8,08,27,56,00,54,01,8A,00
1756490699766934,00000710,false,Rx,0,1,7F,00,00,00,00,00,00,00
1756490699768146,00000181,false,Rx,0,8,04,10,00,E9,03,00,00,00
1756490699768258,00000213,false,Rx,0,4,08,00,00,00,00,00,00,00
1756490699768374,00000214,false,Rx,0,4,08,00,00,00,00,00,00,00
1756490699770809,00000188,false,Rx,0,6,C3,FF,10,00,01,04,00,00
1756490699771415,00000288,false,Rx,0,6,00,00,00,00,00,00,00,00
1756490699773008,00000193,false,Rx,0,6,14,00,0B,00,00,00,00,00
1756490699776470,00000194,false,Rx,0,6,14,00,FC,FF,FE,FF,00,00
1756490699776600,00000488,false,Rx,0,8,08,27,56,00,53,01,8A,00
1756490699778013,00000213,false,Rx,0,4,08,00,00,00,00,00,00,00
1756490699778119,00000214,false,Rx,0,4,08,00,00,00,00,00,00,00
1756490699781053,00000188,false,Rx,0,6,B5,FF,19,00,DB,03,00,00
1756490699781714,00000288,false,Rx,0,6,00,00,00,00,00,00,00,00
1756490699782839,00000193,false,Rx,0,6,14,00,F7,FF,00,00,00,00
1756490699785772,00000181,false,Rx,0,8,04,10,00,E9,02,00,00,00
1756490699786438,00000194,false,Rx,0,6,14,00,FB,FF,FF,FF,00,00
1756490699786881,00000488,false,Rx,0,8,08,27,56,00,53,01,8A,00
1756490699787945,00000213,false,Rx,0,4,08,00,00,00,00,00,00,00
1756490699788049,00000214,false,Rx,0,4,08,00,00,00,00,00,00,00
1756490699791380,00000188,false,Rx,0,6,B6,FF,16,00,D5,03,00,00
1756490699792012,00000288,false,Rx,0,6,00,00,00,00,00,00,00,00
1756490699792636,00000393,false,Rx,0,6,15,01,D5,01,0F,01,00,00
1756490699792737,00000293,false,Rx,0,4,5A,A2,00,00,00,00,00,00
1756490699792838,00000713,false,Rx,0,1,05,00,00,00,00,00,00,00
1756490699792945,00000733,false,Rx,0,8,01,9A,99,19,40,A2,00,05
1756490699793066,00000193,false,Rx,0,6,14,00,FC,FF,FD,FF,00,00
1756490699796443,00000194,false,Rx,0,6,14,00,F9,FF,FF,FF,00,00
1756490699797184,00000488,false,Rx,0,8,08,27,56,00,53,01,8A,00
1756490699798920,00000213,false,Rx,0,4,08,00,00,00,00,00,00,00
1756490699799024,00000214,false,Rx,0,4,08,00,00,00,00,00,00,00
1756490699801656,00000188,false,Rx,0,6,C9,FF,16,00,F9,03,00,00
1756490699802315,00000288,false,Rx,0,6,00,00,00,00,00,00,00,00
1756490699802421,00000701,false,Rx,0,1,05,00,00,00,00,00,00,00
1756490699802516,00000193,false,Rx,0,6,14,00,05,00,00,00,00,00
1756490699806436,00000194,false,Rx,0,6,14,00,FC,FF,01,00,00,00
1756490699807492,00000488,false,Rx,0,8,08,27,56,00,53,01,8A,00
1756490699808826,00000213,false,Rx,0,4,08,00,00,00,00,00,00,00
1756490699808929,00000214,false,Rx,0,4,08,00,00,00,00,00,00,00
1756490699811948,00000188,false,Rx,0,6,C0,FF,12,00,F1,03,00,00
1756490699812311,00000193,false,Rx,0,6,14,00,0D,00,00,00,00,00
1756490699813656,00000288,false,Rx,0,6,00,00,00,00,00,00,00,00
1756490699816435,00000194,false,Rx,0,6,14,00,F9,FF,00,00,00,00
1756490699818726,00000213,false,Rx,0,4,08,00,00,00,00,00,00,00
1756490699818832,00000214,false,Rx,0,4,08,00,00,00,00,00,00,00
1756490699818947,00000488,false,Rx,0,8,08,27,56,00,53,01,8A,00
1756490699820969,00000290,false,Rx,0,7,01,E8,00,00,00,00,00,00
1756490699821082,00000490,false,Rx,0,5,64,00,00,00,00,00,00,00
1756490699821200,00000188,false,Rx,0,6,C7,FF,07,00,02,04,00,00
1756490699822157,00000193,false,Rx,0,6,14,00,07,00,FF,FF,00,00
1756490699823700,00000288,false,Rx,0,6,00,00,00,00,00,00,00,00
1756490699826418,00000394,false,Rx,0,6,65,05,DD,01,16,01,00,00
1756490699826531,00000294,false,Rx,0,4,09,A2,EC,FF,00,00,00,00
1756490699826683,00000714,false,Rx,0,1,05,00,00,00,00,00,00,00
1756490699826799,00000734,false,Rx,0,8,09,00,00,00,00,A2,EC,05
1756490699826861,00000194,false,Rx,0,6,14,00,F9,FF,00,00,00,00
1756490699828873,00000488,false,Rx,0,8,08,27,56,00,53,01,8A,00
1756490699829760,00000213,false,Rx,0,4,08,00,00,00,00,00,00,00
1756490699829859,00000214,false,Rx,0,4,08,00,00,00,00,00,00,00
1756490699830963,00000188,false,Rx,0,6,B9,FF,0E,00,E9,03,00,00
1756490699831976,00000193,false,Rx,0,6,14,00,08,00,02,00,00,00
1756490699833684,00000288,false,Rx,0,6,00,00,00,00,00,00,00,00
1756490699836433,00000194,false,Rx,0,6,14,00,FB,FF,02,00,00,00
1756490699839003,00000488,false,Rx,0,8,08,27,56,00,53,01,8A,00
1756490699839673,00000213,false,Rx,0,4,08,00,00,00,00,00,00,00
1756490699839782,00000214,false,Rx,0,4,08,00,00,00,00,00,00,00
1756490699840835,00000188,false,Rx,0,6,AF,FF,18,00,C8,03,00,00
1756490699841797,00000193,false,Rx,0,6,14,00,0D,00,FF,FF,00,00
1756490699843824,00000288,false,Rx,0,6,00,00,00,00,00,00,00,00
1756490699846437,00000194,false,Rx,0,6,14,00,FC,FF,02,00,00,00
1756490699848883,00000488,false,Rx,0,8,08,27,56,00,53,01,8A,00
1756490699849563,00000213,false,Rx,0,4,08,00,00,00,00,00,00,00
1756490699849662,00000214,false,Rx,0,4,08,00,00,00,00,00,00,00
1756490699850824,00000188,false,Rx,0,6,C1,FF,0C,00,F2,03,00,00
1756490699851623,00000193,false,Rx,0,6,14,00,02,00,00,00,00,00
1756490699853694,00000288,false,Rx,0,6,00,00,00,00,00,00,00,00
1756490699856487,00000194,false,Rx,0,6,14,00,FA,FF,00,00,00,00
1756490699858891,00000488,false,Rx,0,8,08,27,56,00,53,01,8A,00
1756490699859475,00000213,false,Rx,0,4,08,00,00,00,00,00,00,00
1756490699859582,00000214,false,Rx,0,4,08,00,00,00,00,00,00,00
1756490699860815,00000188,false,Rx,0,6,BE,FF,16,00,FC,03,00,00
1756490699861447,00000193,false,Rx,0,6,14,00,08,00,FF,FF,00,00
1756490699863712,00000288,false,Rx,0,6,00,00,00,00,00,00,00,00
1756490699866430,00000194,false,Rx,0,6,14,00,F8,FF,01,00,00,00
1756490699866825,00000710,false,Rx,0,1,7F,00,00,00,00,00,00,00
1756490699868881,00000488,false,Rx,0,8,08,27,56,00,53,01,8A,00
1756490699869493,00000188,false,Rx,0,6,B2,FF,12,00,CF,03,00,00
1756490699870566,00000213,false,Rx,0,4,08,00,00,00,00,00,00,00
1756490699870672,00000214,false,Rx,0,4,08,00,00,00,00,00,00,00
1756490699871282,00000193,false,Rx,0,6,14,00,08,00,00,00,00,00
1756490699873692,00000288,false,Rx,0,6,00,00,00,00,00,00,00,00
1756490699875000,00000181,false,Rx,0,8,68,10,00,E9,02,00,00,00
1756490699876426,00000194,false,Rx,0,6,14,00,FA,FF,00,00,00,00
