Time Stamp,ID,Extended,Dir,Bus,LEN,D1,D2,D3,D4,D5,D6,D7,D8,D9,D10,D11,D12
1756487807836578,00000420,false,Rx,0,1,01,00,00,00,00,00,00,00
1756487807836732,00000488,false,Rx,0,8,0A,27,52,00,4A,01,0A,00
1756487807836802,00000393,false,Rx,0,6,FC,00,C5,01,0F,01,00,00
1756487807836865,00000293,false,Rx,0,4,C9,A3,00,00,00,00,00,00
1756487807836926,00000713,false,Rx,0,1,05,00,00,00,00,00,00,00
1756487807836983,00000733,false,Rx,0,8,01,9A,99,19,40,A3,00,05
1756487807837043,00000193,false,Rx,0,6,12,00,F9,FF,00,00,00,00
1756487807838600,00000213,false,Rx,0,4,08,00,00,00,00,00,00,00
1756487807838788,00000390,false,Rx,0,8,00,3D,3C,3D,13,3C,13,3C
1756487807838902,00000390,false,Rx,0,8,07,3C,3D,3C,3D,3D,3D,3C
1756487807839004,00000390,false,Rx,0,8,15,3D,3D,3D,3D,3C,3D,3C
1756487807839123,00000390,false,Rx,0,8,1C,3D,3C,3D,3C,3D,3D,3D
1756487807839244,00000390,false,Rx,0,8,23,3D,3D,3D,13,3D,3D,3C
1756487807839362,00000390,false,Rx,0,8,0E,3D,3D,3D,3D,3D,3D,3D
1756487807839497,00000390,false,Rx,0,8,2A,3D,3D,3D,3D,13,3D,3D
1756487807839599,00000390,false,Rx,0,8,31,3D,3D,3C,3C,3C,3D,3D
1756487807839699,00000390,false,Rx,0,8,3F,13,3D,13,3D,3D,3D,3C
1756487807839817,00000214,false,Rx,0,4,08,00,00,00,00,00,00,00
1756487807839981,00000390,false,Rx,0,8,46,3C,3D,3D,3D,3D,3C,3D
1756487807840089,00000390,false,Rx,0,8,4D,3D,3D,3D,13,13,3D,13
1756487807840210,00000390,false,Rx,0,8,5B,13,3D,13,3D,3D,3D,3D
1756487807840330,00000390,false,Rx,0,8,54,3D,3C,3D,3D,3D,3C,3D
1756487807840449,00000390,false,Rx,0,8,62,3D,3D,13,3D,13,3D,3C
1756487807840567,00000390,false,Rx,0,8,69,3C,3D,3C,3D,13,3D,3D
1756487807840668,00000390,false,Rx,0,8,77,3C,3C,3D,3C,3C,3D,3D
1756487807840767,00000390,false,Rx,0,8,7E,3C,3C,13,3D,3D,3D,3D
1756487807840885,00000390,false,Rx,0,8,70,3D,3C,3D,3D,3C,13,3D
1756487807841004,00000390,false,Rx,0,8,85,3D,3C,13,3D,3D,13,13
1756487807841126,00000390,false,Rx,0,8,8C,13,3D,13,3D,3C,13,3D
1756487807841254,00000390,false,Rx,0,8,9A,3D,3D,3C,3C,3D,3D,3D
1756487807841355,00000390,false,Rx,0,8,93,3D,3C,3D,13,3D,3D,3C
1756487807841455,00000390,false,Rx,0,8,A1,3D,13,3D,13,13,13,3D
1756487807841591,00000390,false,Rx,0,8,A8,3D,3C,13,13,13,3D,13
1756487807841715,00000390,false,Rx,0,8,B6,3D,13,3C,3C,3D,3D,3C
1756487807841835,00000390,false,Rx,0,8,BD,3D,3D,3D,3D,3D,13,13
1756487807841934,00000390,false,Rx,0,8,AF,3D,3D,13,13,13,3D,3D
1756487807842034,00000390,false,Rx,0,8,C4,3C,13,3C,3C,13,3D,3D
1756487807842152,00000181,false,Rx,0,8,04,10,00,EA,02,0A,06,06
1756487807842212,00000390,false,Rx,0,8,D9,3D,3C,3D,3D,3D,3D,3C
1756487807842273,00000390,false,Rx,0,8,D2,13,3D,3C,13,3C,3D,3D
1756487807844669,00000194,false,Rx,0,6,14,00,FF,FF,04,00,00,00
1756487807845323,00000188,false,Rx,0,6,B4,FF,10,00,D2,03,00,00
1756487807845446,00000288,false,Rx,0,6,00,00,00,00,00,00,00,00
1756487807845664,00000488,false,Rx,0,8,0A,27,52,00,4A,01,0A,00
1756487807845896,00000193,false,Rx,0,6,14,00,00,00,00,00,00,00
1756487807849605,00000213,false,Rx,0,4,08,00,00,00,00,00,00,00
1756487807850695,00000214,false,Rx,0,4,08,00,00,00,00,00,00,00
1756487807854492,00000194,false,Rx,0,6,14,00,FF,FF,03,00,00,00
1756487807855138,00000181,false,Rx,0,8,A0,0F,00,E9,02,0A,06,06
1756487807855623,00000188,false,Rx,0,6,C2,FF,09,00,E8,03,00,00
1756487807855731,00000193,false,Rx,0,6,14,00,FF,FF,00,00,00,00
1756487807855862,00000288,false,Rx,0,6,00,00,00,00,00,00,00,00
1756487807855980,00000488,false,Rx,0,8,0A,27,52,00,4A,01,0A,00
1756487807860696,00000213,false,Rx,0,4,08,00,00,00,00,00,00,00
1756487807861793,00000214,false,Rx,0,4,08,00,00,00,00,00,00,00
1756487807864314,00000194,false,Rx,0,6,14,00,04,00,03,00,00,00
1756487807865572,00000193,false,Rx,0,6,14,00,FC,FF,01,00,00,00
1756487807865949,00000188,false,Rx,0,6,BD,FF,11,00,FB,03,00,00
1756487807866109,00000288,false,Rx,0,6,00,00,00,00,00,00,00,00
1756487807866263,00000488,false,Rx,0,8,0A,27,52,00,4A,01,0A,00
1756487807866977,00000710,false,Rx,0,1,7F,00,00,00,00,00,00,00
1756487807868433,00000181,false,Rx,0,8,04,10,00,E9,02,0A,06,06
1756487807871698,00000213,false,Rx,0,4,08,00,00,00,00,00,00,00
1756487807872798,00000214,false,Rx,0,4,08,00,00,00,00,00,00,00
1756487807874120,00000394,false,Rx,0,6,3F,05,CD,01,0E,01,00,00
1756487807874227,00000294,false,Rx,0,4,35,A3,28,00,00,00,00,00
1756487807874326,00000714,false,Rx,0,1,05,00,00,00,00,00,00,00
1756487807874424,00000734,false,Rx,0,8,02,00,00,C0,3F,A3,28,05
1756487807874552,00000194,false,Rx,0,6,14,00,03,00,07,00,00,00
1756487807875407,00000193,false,Rx,0,6,14,00,FC,FF,00,00,00,00
1756487807876238,00000188,false,Rx,0,6,B6,FF,16,00,D8,03,00,00
1756487807876416,00000288,false,Rx,0,6,00,00,00,00,00,00,00,00
1756487807876571,00000488,false,Rx,0,8,0A,27,52,00,4A,01,0A,00
1756487807881693,00000181,false,Rx,0,8,04,10,00,E9,02,09,06,06
1756487807882713,00000213,false,Rx,0,4,08,00,00,00,00,00,00,00
1756487807883838,00000214,false,Rx,0,4,08,00,00,00,00,00,00,00
1756487807883969,00000194,false,Rx,0,6,14,00,03,00,09,00,00,00
1756487807885208,00000193,false,Rx,0,6,14,00,FF,FF,00,00,00,00
1756487807886530,00000188,false,Rx,0,6,C1,FF,0E,00,E2,03,00,00
1756487807886679,00000288,false,Rx,0,6,00,00,00,00,00,00,00,00
1756487807887905,00000488,false,Rx,0,8,0A,27,52,00,4A,01,0A,00
1756487807889678,00000701,false,Rx,0,1,05,00,00,00,00,00,00,00
1756487807893717,00000213,false,Rx,0,4,08,00,00,00,00,00,00,00
1756487807893829,00000194,false,Rx,0,6,14,00,03,00,02,00,00,00
1756487807894844,00000181,false,Rx,0,8,04,10,00,EA,02,09,06,06
1756487807894955,00000214,false,Rx,0,4,08,00,00,00,00,00,00,00
1756487807895081,00000193,false,Rx,0,6,14,00,00,00,FF,FF,00,00
1756487807896804,00000188,false,Rx,0,6,BB,FF,13,00,D9,03,00,00
1756487807897913,00000288,false,Rx,0,6,00,00,00,00,00,00,00,00
1756487807898870,00000488,false,Rx,0,8,0A,27,52,00,4A,01,0A,00
1756487807899647,00000290,false,Rx,0,7,01,E8,00,B6,A7,06,00,00
1756487807899762,00000490,false,Rx,0,5,5C,00,00,00,00,00,00,00
1756487807903626,00000194,false,Rx,0,6,14,00,05,00,03,00,00,00
1756487807904742,00000213,false,Rx,0,4,08,00,00,00,00,00,00,00
1756487807904863,00000193,false,Rx,0,6,14,00,02,00,00,00,00,00
1756487807906918,00000214,false,Rx,0,4,08,00,00,00,00,00,00,00
1756487807907943,00000188,false,Rx,0,6,BE,FF,14,00,E8,03,00,00
1756487807908067,00000288,false,Rx,0,6,00,00,00,00,00,00,00,00
1756487807909099,00000488,false,Rx,0,8,0A,27,52,00,4A,01,0A,00
1756487807912456,00000181,false,Rx,0,8,04,10,00,E9,02,09,06,06
1756487807913451,00000194,false,Rx,0,6,14,00,07,00,01,00,00,00
1756487807914693,00000193,false,Rx,0,6,14,00,04,00,01,00,00,00
1756487807915732,00000213,false,Rx,0,4,08,00,00,00,00,00,00,00
1756487807917931,00000214,false,Rx,0,4,08,00,00,00,00,00,00,00
1756487807918224,00000188,false,Rx,0,6,C1,FF,10,00,F4,03,00,00
1756487807918347,00000288,false,Rx,0,6,00,00,00,00,00,00,00,00
1756487807920071,00000488,false,Rx,0,8,0A,27,52,00,4A,01,0A,00
1756487807923277,00000194,false,Rx,0,6,14,00,01,00,02,00,00,00
1756487807924517,00000193,false,Rx,0,6,14,00,F6,FF,00,00,00,00
1756487807924639,00000181,false,Rx,0,8,04,10,00,E9,02,09,05,06
1756487807927827,00000213,false,Rx,0,4,08,00,00,00,00,00,00,00
1756487807928519,00000188,false,Rx,0,6,B8,FF,16,00,D5,03,00,00
1756487807928639,00000288,false,Rx,0,6,00,00,00,00,00,00,00,00
1756487807928962,00000214,false,Rx,0,4,08,00,00,00,00,00,00,00
1756487807930125,00000488,false,Rx,0,8,0A,27,52,00,4A,01,0A,00
1756487807933106,00000194,false,Rx,0,6,14,00,05,00,04,00,00,00
1756487807934325,00000393,false,Rx,0,6,FC,00,C5,01,07,01,00,00
1756487807934431,00000293,false,Rx,0,4,B2,A3,00,00,00,00,00,00
1756487807934530,00000713,false,Rx,0,1,05,00,00,00,00,00,00,00
1756487807934628,00000733,false,Rx,0,8,02,00,00,C0,3F,A3,00,05
1756487807934754,00000193,false,Rx,0,6,14,00,02,00,FF,FF,00,00
1756487807938431,00000188,false,Rx,0,6,B8,FF,0F,00,FC,03,00,00
1756487807938553,00000288,false,Rx,0,6,00,00,00,00,00,00,00,00
1756487807938850,00000213,false,Rx,0,4,08,00,00,00,00,00,00,00
1756487807939928,00000214,false,Rx,0,4,08,00,00,00,00,00,00,00
1756487807940399,00000488,false,Rx,0,8,0A,27,52,00,4A,01,0A,00
1756487807942166,00000181,false,Rx,0,8,04,10,00,E9,02,09,05,06
1756487807942943,00000194,false,Rx,0,6,14,00,05,00,02,00,00,00
1756487807944179,00000193,false,Rx,0,6,14,00,03,00,00,00,00,00
1756487807948744,00000188,false,Rx,0,6,BB,FF,0E,00,E1,03,00,00
1756487807948885,00000288,false,Rx,0,6,00,00,00,00,00,00,00,00
1756487807949860,00000213,false,Rx,0,4,08,00,00,00,00,00,00,00
1756487807950707,00000488,false,Rx,0,8,0A,27,52,00,4A,01,0A,00
1756487807950955,00000214,false,Rx,0,4,08,00,00,00,00,00,00,00
1756487807952761,00000194,false,Rx,0,6,14,00,04,00,01,00,00,00
1756487807954002,00000193,false,Rx,0,6,14,00,04,00,00,00,00,00
1756487807959028,00000188,false,Rx,0,6,B8,FF,12,00,DA,03,00,00
1756487807959154,00000288,false,Rx,0,6,00,00,00,00,00,00,00,00
1756487807960874,00000213,false,Rx,0,4,08,00,00,00,00,00,00,00
1756487807960996,00000488,false,Rx,0,8,0A,27,52,00,4A,01,0A,00
1756487807961990,00000181,false,Rx,0,8,04,10,00,E9,02,09,05,06
1756487807962095,00000214,false,Rx,0,4,08,00,00,00,00,00,00,00
1756487807962578,00000194,false,Rx,0,6,14,00,00,00,02,00,00,00
1756487807963824,00000193,false,Rx,0,6,14,00,FD,FF,03,00,00,00
1756487807969331,00000188,false,Rx,0,6,C2,FF,0F,00,F6,03,00,00
1756487807970117,00000288,false,Rx,0,6,00,00,00,00,00,00,00,00
1756487807971854,00000488,false,Rx,0,8,0A,27,52,00,4A,01,0A,00
1756487807971961,00000213,false,Rx,0,4,08,00,00,00,00,00,00,00
1756487807972394,00000394,false,Rx,0,6,3F,05,CD,01,16,01,00,00
1756487807972498,00000294,false,Rx,0,4,37,A3,D4,FF,00,00,00,00
1756487807972598,00000714,false,Rx,0,1,05,00,00,00,00,00,00,00
1756487807972694,00000734,false,Rx,0,8,03,6F,12,03,3B,A3,D4,05
1756487807972843,00000194,false,Rx,0,6,14,00,04,00,00,00,00,00
1756487807972998,00000214,false,Rx,0,4,08,00,00,00,00,00,00,00
1756487807973657,00000193,false,Rx,0,6,14,00,FD,FF,FF,FF,00,00
1756487807974976,00000710,false,Rx,0,1,7F,00,00,00,00,00,00,00
1756487807975174,00000181,false,Rx,0,8,04,10,00,E9,02,09,05,06
1756487807980357,00000188,false,Rx,0,6,BF,FF,0F,00,F1,03,00,00
1756487807980466,00000288,false,Rx,0,6,00,00,00,00,00,00,00,00
1756487807982253,00000194,false,Rx,0,6,14,00,04,00,02,00,00,00
1756487807982871,00000213,false,Rx,0,4,08,00,00,00,00,00,00,00
1756487807983156,00000488,false,Rx,0,8,0A,27,52,00,4A,01,0A,00
1756487807983518,00000193,false,Rx,0,6,14,00,00,00,FF,FF,00,00
1756487807984035,00000214,false,Rx,0,4,08,00,00,00,00,00,00,00
1756487807988411,00000181,false,Rx,0,8,04,10,00,E9,02,08,05,05
1756487807989928,00000701,false,Rx,0,1,05,00,00,00,00,00,00,00
1756487807990159,00000188,false,Rx,0,6,BD,FF,12,00,EF,03,00,00
1756487807990279,00000288,false,Rx,0,6,00,00,00,00,00,00,00,00
1756487807992073,00000194,false,Rx,0,6,14,00,FF,FF,01,00,00,00
1756487807993163,00000488,false,Rx,0,8,0A,27,52,00,4A,01,0A,00
1756487807993292,00000193,false,Rx,0,6,14,00,FB,FF,05,00,00,00
1756487807993901,00000213,false,Rx,0,4,08,00,00,00,00,00,00,00
1756487807994954,00000214,false,Rx,0,4,08,00,00,00,00,00,00,00
1756487808000153,00000188,false,Rx,0,6,BE,FF,0F,00,EF,03,00,00
1756487808000271,00000288,false,Rx,0,6,00,00,00,00,00,00,00,00
1756487808001613,00000181,false,Rx,0,8,04,10,00,EA,02,08,05,05
1756487808001889,00000194,false,Rx,0,6,14,00,0C,00,FD,FF,00,00
1756487808003139,00000193,false,Rx,0,6,14,00,FF,FF,03,00,00,00
1756487808003263,00000488,false,Rx,0,8,0A,27,52,00,4A,01,0A,00
1756487808004861,00000213,false,Rx,0,4,08,00,00,00,00,00,00,00
1756487808005969,00000214,false,Rx,0,4,08,00,00,00,00,00,00,00
1756487808010342,00000188,false,Rx,0,6,BE,FF,16,00,D7,03,00,00
1756487808010486,00000288,false,Rx,0,6,00,00,00,00,00,00,00,00
1756487808011722,00000194,false,Rx,0,6,14,00,0C,00,01,00,00,00
1756487808012959,00000193,false,Rx,0,6,14,00,FD,FF,04,00,00,00
1756487808013547,00000488,false,Rx,0,8,0A,27,52,00,4A,01,0A,00
1756487808014809,00000181,false,Rx,0,8,04,10,00,EA,02,08,05,05
1756487808015871,00000213,false,Rx,0,4,08,00,00,00,00,00,00,00
1756487808016970,00000214,false,Rx,0,4,08,00,00,00,00,00,00,00
1756487808020631,00000188,false,Rx,0,6,C3,FF,0D,00,E8,03,00,00
1756487808020774,00000288,false,Rx,0,6,00,00,00,00,00,00,00,00
1756487808021572,00000194,false,Rx,0,6,14,00,08,00,01,00,00,00
1756487808022795,00000193,false,Rx,0,6,14,00,FF,FF,03,00,00,00
1756487808023830,00000488,false,Rx,0,8,0A,27,52,00,4A,01,0A,00
1756487808026879,00000213,false,Rx,0,4,08,00,00,00,00,00,00,00
1756487808028012,00000181,false,Rx,0,8,04,10,00,E9,02,08,05,05
1756487808029075,00000214,false,Rx,0,4,08,00,00,00,00,00,00,00
1756487808030942,00000188,false,Rx,0,6,BD,FF,0E,00,EE,03,00,00
1756487808031065,00000288,false,Rx,0,6,00,00,00,00,00,00,00,00
1756487808031363,00000194,false,Rx,0,6,14,00,05,00,FD,FF,00,00
1756487808032594,00000393,false,Rx,0,6,FC,00,C5,01,07,01,00,00
1756487808032701,00000293,false,Rx,0,4,AB,A3,00,00,00,00,00,00
1756487808032799,00000713,false,Rx,0,1,05,00,00,00,00,00,00,00
1756487808032905,00000733,false,Rx,0,8,03,6F,12,03,3B,A3,00,05
1756487808033033,00000193,false,Rx,0,6,14,00,04,00,05,00,00,00
1756487808034132,00000488,false,Rx,0,8,0A,27,52,00,4A,01,0A,00
1756487808037881,00000213,false,Rx,0,4,08,00,00,00,00,00,00,00
1756487808040090,00000214,false,Rx,0,4,08,00,00,00,00,00,00,00
1756487808041198,00000181,false,Rx,0,8,A0,0F,00,E9,02,07,04,04
1756487808041305,00000188,false,Rx,0,6,B5,FF,0F,00,D6,03,00,00
1756487808041424,00000194,false,Rx,0,6,14,00,04,00,FF,FF,00,00
1756487808041560,00000288,false,Rx,0,6,00,00,00,00,00,00,00,00
1756487808042446,00000193,false,Rx,0,6,14,00,F9,FF,05,00,00,00
1756487808045270,00000488,false,Rx,0,8,0A,27,52,00,4B,01,0A,00
1756487808050030,00000213,false,Rx,0,4,08,00,00,00,00,00,00,00
1756487808051020,00000194,false,Rx,0,6,14,00,05,00,FD,FF,00,00
1756487808051132,00000214,false,Rx,0,4,08,00,00,00,00,00,00,00
1756487808051509,00000188,false,Rx,0,6,C3,FF,0A,00,F4,03,00,00
1756487808051633,00000288,false,Rx,0,6,00,00,00,00,00,00,00,00
1756487808052272,00000193,false,Rx,0,6,14,00,FF,FF,03,00,00,00
1756487808054461,00000181,false,Rx,0,8,04,10,00,E9,02,07,04,04
1756487808055157,00000488,false,Rx,0,8,0A,27,52,00,4B,01,0A,00
1756487808060900,00000194,false,Rx,0,6,14,00,08,00,FC,FF,00,00
1756487808061036,00000213,false,Rx,0,4,08,00,00,00,00,00,00,00
1756487808061420,00000188,false,Rx,0,6,BA,FF,17,00,DC,03,00,00
1756487808061562,00000288,false,Rx,0,6,00,00,00,00,00,00,00,00
1756487808062071,00000193,false,Rx,0,6,14,00,06,00,03,00,00,00
1756487808062170,00000214,false,Rx,0,4,08,00,00,00,00,00,00,00
1756487808065426,00000488,false,Rx,0,8,0A,27,52,00,4A,01,0A,00
1756487808066561,00000181,false,Rx,0,8,04,10,00,E9,02,07,04,04
1756487808070672,00000394,false,Rx,0,6,3F,05,CD,01,16,01,00,00
1756487808070783,00000294,false,Rx,0,4,46,A3,E4,FF,00,00,00,00
1756487808070882,00000714,false,Rx,0,1,05,00,00,00,00,00,00,00
1756487808070978,00000734,false,Rx,0,8,04,8F,C2,F5,3F,A3,E4,05
1756487808071097,00000194,false,Rx,0,6,14,00,06,00,FC,FF,00,00
1756487808071721,00000188,false,Rx,0,6,BE,FF,14,00,DC,03,00,00
1756487808071848,00000288,false,Rx,0,6,00,00,00,00,00,00,00,00
1756487808071949,00000193,false,Rx,0,6,14,00,05,00,07,00,00,00
1756487808072046,00000213,false,Rx,0,4,08,00,00,00,00,00,00,00
1756487808073218,00000214,false,Rx,0,4,08,00,00,00,00,00,00,00
1756487808075716,00000488,false,Rx,0,8,0A,27,52,00,4A,01,0A,00
1756487808079867,00000181,false,Rx,0,8,04,10,00,E9,02,06,04,04
1756487808080551,00000194,false,Rx,0,6,14,00,05,00,FC,FF,00,00
1756487808081805,00000193,false,Rx,0,6,14,00,F8,FF,02,00,00,00
1756487808083006,00000710,false,Rx,0,1,7F,00,00,00,00,00,00,00
1756487808083121,00000213,false,Rx,0,4,08,00,00,00,00,00,00,00
1756487808083222,00000188,false,Rx,0,6,C6,FF,09,00,F8,03,00,00
1756487808083341,00000288,false,Rx,0,6,00,00,00,00,00,00,00,00
1756487808084242,00000214,false,Rx,0,4,08,00,00,00,00,00,00,00
1756487808085166,00000488,false,Rx,0,8,0A,27,52,00,4A,01,0A,00
1756487808090211,00000701,false,Rx,0,1,05,00,00,00,00,00,00,00
1756487808090336,00000194,false,Rx,0,6,14,00,05,00,FD,FF,00,00
1756487808091580,00000193,false,Rx,0,6,14,00,F8,FF,FA,FF,00,00
1756487808093073,00000181,false,Rx,0,8,04,10,00,E9,02,06,04,04
1756487808093378,00000188,false,Rx,0,6,BE,FF,0F,00,EA,03,00,00
1756487808093441,00000288,false,Rx,0,6,00,00,00,00,00,00,00,00
1756487808094139,00000213,false,Rx,0,4,08,00,00,00,00,00,00,00
1756487808095411,00000214,false,Rx,0,4,08,00,00,00,00,00,00,00
1756487808095491,00000488,false,Rx,0,8,0A,27,52,00,4A,01,0A,00
1756487808099606,00000290,false,Rx,0,7,01,E8,00,B6,A7,06,00,00
1756487808099728,00000490,false,Rx,0,5,5C,00,00,00,00,00,00,00
1756487808100171,00000194,false,Rx,0,6,14,00,03,00,06,00,00,00
1756487808101408,00000193,false,Rx,0,6,14,00,0A,00,FE,FF,00,00
1756487808103353,00000188,false,Rx,0,6,B9,FF,11,00,D3,03,00,00
1756487808103482,00000288,false,Rx,0,6,00,00,00,00,00,00,00,00
1756487808105116,00000213,false,Rx,0,4,08,00,00,00,00,00,00,00
1756487808105497,00000488,false,Rx,0,8,0A,27,52,00,4A,01,0A,00
1756487808106261,00000181,false,Rx,0,8,04,10,00,E9,02,06,04,04
1756487808106371,00000214,false,Rx,0,4,08,00,00,00,00,00,00,00
1756487808110030,00000194,false,Rx,0,6,14,00,07,00,04,00,00,00
1756487808111240,00000193,false,Rx,0,6,14,00,08,00,FB,FF,00,00
1756487808113633,00000188,false,Rx,0,6,C2,FF,11,00,F4,03,00,00
1756487808113705,00000288,false,Rx,0,6,00,00,00,00,00,00,00,00
1756487808115703,00000488,false,Rx,0,8,0A,27,52,00,4A,01,0A,00
1756487808116138,00000213,false,Rx,0,4,08,00,00,00,00,00,00,00
1756487808117211,00000214,false,Rx,0,4,08,00,00,00,00,00,00,00
1756487808119464,00000181,false,Rx,0,8,04,10,00,E9,02,06,03,03
1756487808119818,00000194,false,Rx,0,6,14,00,06,00,01,00,00,00
1756487808121065,00000193,false,Rx,0,6,14,00,06,00,01,00,00,00
1756487808123742,00000188,false,Rx,0,6,C0,FF,12,00,E2,03,00,00
1756487808123845,00000288,false,Rx,0,6,00,00,00,00,00,00,00,00
1756487808125908,00000488,false,Rx,0,8,0A,27,52,00,4A,01,0A,00
1756487808127114,00000213,false,Rx,0,4,08,00,00,00,00,00,00,00
1756487808128234,00000214,false,Rx,0,4,08,00,00,00,00,00,00,00
1756487808129652,00000194,false,Rx,0,6,14,00,FF,FF,04,00,00,00
1756487808130873,00000393,false,Rx,0,6,FC,00,C5,01,07,01,00,00
1756487808130982,00000293,false,Rx,0,4,AF,A3,00,00,00,00,00,00
1756487808131084,00000713,false,Rx,0,1,05,00,00,00,00,00,00,00
1756487808131183,00000733,false,Rx,0,8,04,8F,C2,F5,3F,A3,00,05
1756487808131301,00000193,false,Rx,0,6,14,00,02,00,FA,FF,00,00
1756487808132657,00000181,false,Rx,0,8,04,10,00,E9,02,05,03,03
1756487808133947,00000188,false,Rx,0,6,B9,FF,1B,00,D8,03,00,00
1756487808134075,00000288,false,Rx,0,6,00,00,00,00,00,00,00,00
1756487808136210,00000488,false,Rx,0,8,0A,27,52,00,4A,01,0A,00
1756487808138122,00000213,false,Rx,0,4,08,00,00,00,00,00,00,00
1756487808139224,00000214,false,Rx,0,4,08,00,00,00,00,00,00,00
1756487808139471,00000194,false,Rx,0,6,14,00,04,00,02,00,00,00
1756487808140749,00000193,false,Rx,0,6,14,00,04,00,FB,FF,00,00
1756487808144248,00000188,false,Rx,0,6,C8,FF,0D,00,EC,03,00,00
1756487808144384,00000288,false,Rx,0,6,00,00,00,00,00,00,00,00
1756487808145881,00000181,false,Rx,0,8,04,10,00,E9,02,00,03,03
1756487808146502,00000488,false,Rx,0,8,0A,27,52,00,4A,01,0A,00
1756487808149165,00000213,false,Rx,0,4,08,00,00,00,00,00,00,00
1756487808149318,00000194,false,Rx,0,6,14,00,02,00,02,00,00,00
1756487808150242,00000214,false,Rx,0,4,08,00,00,00,00,00,00,00
1756487808150545,00000193,false,Rx,0,6,14,00,FC,FF,00,00,00,00
1756487808155168,00000188,false,Rx,0,6,C0,FF,0D,00,F4,03,00,00
1756487808155275,00000288,false,Rx,0,6,00,00,00,00,00,00,00,00
1756487808156069,00000488,false,Rx,0,8,0A,27,52,00,4A,01,0A,00
1756487808159137,00000194,false,Rx,0,6,14,00,FD,FF,05,00,00,00
1756487808160154,00000213,false,Rx,0,4,08,00,00,00,00,00,00,00
1756487808160366,00000193,false,Rx,0,6,14,00,F7,FF,FD,FF,00,00
1756487808162355,00000181,false,Rx,0,8,04,10,00,E9,02,00,02,03
1756487808162458,00000214,false,Rx,0,4,08,00,00,00,00,00,00,00
1756487808165327,00000188,false,Rx,0,6,B7,FF,15,00,DA,03,00,00
1756487808165453,00000288,false,Rx,0,6,00,00,00,00,00,00,00,00
1756487808166376,00000488,false,Rx,0,8,0A,27,52,00,4A,01,0A,00
1756487808169120,00000394,false,Rx,0,6,3F,05,CD,01,1F,01,00,00
1756487808169472,00000294,false,Rx,0,4,33,A3,40,00,00,00,00,00
1756487808169613,00000714,false,Rx,0,1,05,00,00,00,00,00,00,00
1756487808169690,00000734,false,Rx,0,8,05,00,00,C0,3F,A3,40,05
1756487808169755,00000004,false,Rx,0,8,00,01,00,00,00,00,00,00
1756487808169817,00000194,false,Rx,0,6,14,00,FD,FF,FD,FF,00,00
1756487808170307,00000193,false,Rx,0,6,14,00,03,00,F9,FF,00,00
1756487808171393,00000213,false,Rx,0,4,08,00,00,00,00,00,00,00
1756487808171920,00000100,false,Rx,0,6,A8,38,B5,03,70,3B,00,00
1756487808173467,00000214,false,Rx,0,4,08,00,00,00,00,00,00,00
1756487808175636,00000188,false,Rx,0,6,BB,FF,17,00,DD,03,00,00
1756487808175782,00000288,false,Rx,0,6,00,00,00,00,00,00,00,00
1756487808176677,00000488,false,Rx,0,8,0A,27,52,00,4B,01,0A,00
1756487808179029,00000194,false,Rx,0,6,14,00,FB,FF,FC,FF,00,00
1756487808180274,00000193,false,Rx,0,6,14,00,F7,FF,07,00,00,00
1756487808183321,00000213,false,Rx,0,4,08,00,00,00,00,00,00,00
1756487808184356,00000214,false,Rx,0,4,08,00,00,00,00,00,00,00
1756487808185961,00000188,false,Rx,0,6,C0,FF,07,00,F4,03,00,00
1756487808186093,00000288,false,Rx,0,6,00,00,00,00,00,00,00,00
1756487808186976,00000488,false,Rx,0,8,0A,27,52,00,4B,01,0A,00
1756487808188880,00000194,false,Rx,0,6,14,00,F8,FF,FB,FF,00,00
1756487808190095,00000193,false,Rx,0,6,14,00,00,00,03,00,00,00
1756487808190313,00000701,false,Rx,0,1,05,00,00,00,00,00,00,00
1756487808190970,00000710,false,Rx,0,1,7F,00,00,00,00,00,00,00
1756487808194272,00000213,false,Rx,0,4,08,00,00,00,00,00,00,00
1756487808195359,00000214,false,Rx,0,4,08,00,00,00,00,00,00,00
1756487808196232,00000188,false,Rx,0,6,BB,FF,11,00,DA,03,00,00
1756487808196357,00000288,false,Rx,0,6,00,00,00,00,00,00,00,00
1756487808198068,00000488,false,Rx,0,8,0A,27,52,00,4B,01,0A,00
1756487808198678,00000194,false,Rx,0,6,14,00,F5,FF,F8,FF,00,00
1756487808199920,00000193,false,Rx,0,6,14,00,02,00,07,00,00,00
1756487808205273,00000213,false,Rx,0,4,08,00,00,00,00,00,00,00
1756487808205834,00000188,false,Rx,0,6,C7,FF,08,00,F4,03,00,00
1756487808205975,00000288,false,Rx,0,6,00,00,00,00,00,00,00,00
1756487808206390,00000214,false,Rx,0,4,08,00,00,00,00,00,00,00
1756487808208370,00000488,false,Rx,0,8,0A,27,52,00,4B,01,0A,00
1756487808208498,00000194,false,Rx,0,6,14,00,FA,FF,02,00,00,00
1756487808209780,00000193,false,Rx,0,6,14,00,F8,FF,00,00,00,00
1756487808211912,00000181,false,Rx,0,8,04,10,00,E9,02,00,01,02
1756487808216165,00000188,false,Rx,0,6,BD,FF,11,00,E1,03,00,00
1756487808216281,00000288,false,Rx,0,6,00,00,00,00,00,00,00,00
1756487808216380,00000213,false,Rx,0,4,08,00,00,00,00,00,00,00
1756487808217388,00000214,false,Rx,0,4,08,00,00,00,00,00,00,00
1756487808218333,00000194,false,Rx,0,6,14,00,FD,FF,03,00,00,00
1756487808218626,00000488,false,Rx,0,8,0A,27,52,00,4B,01,0A,00
1756487808219567,00000193,false,Rx,0,6,14,00,FB,FF,FD,FF,00,00
1756487808225111,00000181,false,Rx,0,8,04,10,00,E9,02,00,01,02
1756487808226423,00000188,false,Rx,0,6,C3,FF,14,00,E2,03,00,00
1756487808226548,00000288,false,Rx,0,6,00,00,00,00,00,00,00,00
1756487808227305,00000213,false,Rx,0,4,08,00,00,00,00,00,00,00
1756487808228163,00000194,false,Rx,0,6,14,00,FA,FF,02,00,00,00
1756487808228377,00000214,false,Rx,0,4,08,00,00,00,00,00,00,00
1756487808228936,00000488,false,Rx,0,8,0A,27,52,00,4A,01,0A,00
1756487808229374,00000393,false,Rx,0,6,FC,00,C5,01,07,01,00,00
1756487808229477,00000293,false,Rx,0,4,A3,A3,00,00,00,00,00,00
1756487808229586,00000713,false,Rx,0,1,05,00,00,00,00,00,00,00
1756487808229693,00000733,false,Rx,0,8,05,00,00,C0,3F,A3,00,05
1756487808229816,00000193,false,Rx,0,6,14,00,01,00,03,00,00,00
1756487808236736,00000188,false,Rx,0,6,C7,FF,0C,00,F6,03,00,00
1756487808236876,00000288,false,Rx,0,6,00,00,00,00,00,00,00,00
1756487808237987,00000194,false,Rx,0,6,14,00,FB,FF,03,00,00,00
1756487808238315,00000181,false,Rx,0,8,04,10,00,E9,02,00,01,02
1756487808238417,00000213,false,Rx,0,4,08,00,00,00,00,00,00,00
1756487808239221,00000488,false,Rx,0,8,0A,27,52,00,4A,01,0A,00
1756487808239328,00000193,false,Rx,0,6,14,00,F6,FF,FE,FF,00,00
1756487808239562,00000214,false,Rx,0,4,08,00,00,00,00,00,00,00
1756487808247873,00000194,false,Rx,0,6,14,00,F5,FF,04,00,00,00
1756487808248066,00000188,false,Rx,0,6,C2,FF,0B,00,EC,03,00,00
1756487808248129,00000288,false,Rx,0,6,00,00,00,00,00,00,00,00
1756487808249058,00000193,false,Rx,0,6,14,00,F6,FF,06,00,00,00
1756487808249296,00000213,false,Rx,0,4,08,00,00,00,00,00,00,00
1756487808250302,00000488,false,Rx,0,8,0A,27,52,00,4A,01,0A,00
1756487808250412,00000214,false,Rx,0,4,08,00,00,00,00,00,00,00
1756487808251561,00000181,false,Rx,0,8,04,10,00,E9,02,00,01,02
1756487808257653,00000194,false,Rx,0,6,14,00,F7,FF,01,00,00,00
1756487808258132,00000188,false,Rx,0,6,C7,FF,07,00,E7,03,00,00
1756487808258356,00000288,false,Rx,0,6,00,00,00,00,00,00,00,00
1756487808258875,00000193,false,Rx,0,6,14,00,0A,00,00,00,00,00
1756487808260284,00000213,false,Rx,0,4,08,00,00,00,00,00,00,00
1756487808260609,00000488,false,Rx,0,8,0A,27,52,00,4A,01,0A,00
1756487808261422,00000214,false,Rx,0,4,08,00,00,00,00,00,00,00
1756487808267456,00000394,false,Rx,0,6,42,05,CD,01,16,01,00,00
1756487808267569,00000294,false,Rx,0,4,34,A3,00,00,00,00,00,00
1756487808267668,00000714,false,Rx,0,1,05,00,00,00,00,00,00,00
1756487808267765,00000734,false,Rx,0,8,06,6F,12,03,3B,A3,00,05
1756487808267882,00000194,false,Rx,0,6,14,00,FB,FF,04,00,00,00
1756487808268432,00000188,false,Rx,0,6,BC,FF,0E,00,F8,03,00,00
1756487808268635,00000288,false,Rx,0,6,00,00,00,00,00,00,00,00
1756487808268734,00000193,false,Rx,0,6,14,00,0E,00,FE,FF,00,00
1756487808270911,00000488,false,Rx,0,8,0A,27,52,00,4A,01,0A,00
1756487808271310,00000213,false,Rx,0,4,08,00,00,00,00,00,00,00
1756487808272394,00000214,false,Rx,0,4,08,00,00,00,00,00,00,00
1756487808277300,00000194,false,Rx,0,6,14,00,F9,FF,FE,FF,00,00
1756487808278613,00000193,false,Rx,0,6,14,00,02,00,FD,FF,00,00
1756487808278810,00000188,false,Rx,0,6,BA,FF,13,00,D7,03,00,00
1756487808278966,00000288,false,Rx,0,6,00,00,00,00,00,00,00,00
1756487808281224,00000488,false,Rx,0,8,0A,27,52,00,4A,01,0A,00
1756487808282333,00000213,false,Rx,0,4,08,00,00,00,00,00,00,00
1756487808284583,00000214,false,Rx,0,4,08,00,00,00,00,00,00,00
1756487808287167,00000194,false,Rx,0,6,14,00,FC,FF,02,00,00,00
1756487808288394,00000193,false,Rx,0,6,14,00,FC,FF,FD,FF,00,00
1756487808289036,00000188,false,Rx,0,6,BF,FF,13,00,EA,03,00,00
1756487808289260,00000288,false,Rx,0,6,00,00,00,00,00,00,00,00
1756487808290562,00000701,false,Rx,0,1,05,00,00,00,00,00,00,00
1756487808290673,00000710,false,Rx,0,1,7F,00,00,00,00,00,00,00
1756487808291510,00000488,false,Rx,0,8,0A,27,52,00,4A,01,0A,00
1756487808293302,00000213,false,Rx,0,4,08,00,00,00,00,00,00,00
1756487808295517,00000214,false,Rx,0,4,08,00,00,00,00,00,00,00
1756487808296954,00000194,false,Rx,0,6,14,00,FF,FF,03,00,00,00
1756487808298194,00000193,false,Rx,0,6,14,00,04,00,F9,FF,00,00
1756487808299343,00000188,false,Rx,0,6,C0,FF,07,00,F7,03,00,00
1756487808299565,00000290,false,Rx,0,7,01,E8,00,B6,A7,06,00,00
1756487808299667,00000490,false,Rx,0,5,5C,00,00,00,00,00,00,00
1756487808300250,00000288,false,Rx,0,6,00,00,00,00,00,00,00,00
1756487808303292,00000488,false,Rx,0,8,0A,27,52,00,4A,01,0A,00
1756487808305409,00000213,false,Rx,0,4,08,00,00,00,00,00,00,00
1756487808306509,00000214,false,Rx,0,4,08,00,00,00,00,00,00,00
1756487808306769,00000194,false,Rx,0,6,14,00,01,00,FF,FF,00,00
1756487808308017,00000193,false,Rx,0,6,14,00,0A,00,00,00,00,00
1756487808309419,00000188,false,Rx,0,6,C1,FF,14,00,DC,03,00,00
1756487808310275,00000288,false,Rx,0,6,00,00,00,00,00,00,00,00
1756487808313752,00000488,false,Rx,0,8,0A,27,52,00,4A,01,0A,00
1756487808316459,00000213,false,Rx,0,4,08,00,00,00,00,00,00,00
1756487808316607,00000194,false,Rx,0,6,14,00,FA,FF,FF,FF,00,00
1756487808317545,00000214,false,Rx,0,4,08,00,00,00,00,00,00,00
1756487808317849,00000193,false,Rx,0,6,14,00,01,00,FE,FF,00,00
1756487808320326,00000188,false,Rx,0,6,C3,FF,0A,00,F6,03,00,00
1756487808320452,00000288,false,Rx,0,6,00,00,00,00,00,00,00,00
1756487808321961,00000181,false,Rx,0,8,04,10,00,E9,02,00,00,01
1756487808324040,00000488,false,Rx,0,8,0A,27,52,00,4A,01,0A,00
1756487808326439,00000194,false,Rx,0,6,14,00,FA,FF,FE,FF,00,00
1756487808327442,00000213,false,Rx,0,4,08,00,00,00,00,00,00,00
1756487808327646,00000393,false,Rx,0,6,FC,00,C5,01,07,01,00,00
1756487808327746,00000293,false,Rx,0,4,9F,A3,00,00,00,00,00,00
1756487808327844,00000713,false,Rx,0,1,05,00,00,00,00,00,00,00
1756487808327949,00000733,false,Rx,0,8,06,6F,12,03,3B,A3,00,05
1756487808328071,00000193,false,Rx,0,6,14,00,07,00,FE,FF,00,00
1756487808328570,00000214,false,Rx,0,4,08,00,00,00,00,00,00,00
1756487808330623,00000188,false,Rx,0,6,B9,FF,11,00,DC,03,00,00
1756487808330747,00000288,false,Rx,0,6,00,00,00,00,00,00,00,00
1756487808334335,00000488,false,Rx,0,8,0A,27,52,00,4A,01,0A,00
1756487808336263,00000194,false,Rx,0,6,14,00,FE,FF,FF,FF,00,00
1756487808337499,00000193,false,Rx,0,6,14,00,07,00,FC,FF,00,00
1756487808338437,00000213,false,Rx,0,4,08,00,00,00,00,00,00,00
1756487808339526,00000214,false,Rx,0,4,08,00,00,00,00,00,00,00
1756487808340922,00000188,false,Rx,0,6,B9,FF,1A,00,D3,03,00,00
1756487808341048,00000288,false,Rx,0,6,00,00,00,00,00,00,00,00
1756487808341787,00000181,false,Rx,0,8,04,10,00,E9,02,00,00,01
1756487808345455,00000488,false,Rx,0,8,0A,27,52,00,4A,01,0A,00
1756487808346089,00000194,false,Rx,0,6,14,00,00,00,FF,FF,00,00
1756487808347331,00000193,false,Rx,0,6,14,00,05,00,F9,FF,00,00
1756487808349434,00000213,false,Rx,0,4,08,00,00,00,00,00,00,00
1756487808350420,00000188,false,Rx,0,6,B9,FF,16,00,EE,03,00,00
1756487808350525,00000288,false,Rx,0,6,00,00,00,00,00,00,00,00
1756487808350623,00000214,false,Rx,0,4,08,00,00,00,00,00,00,00
1756487808355761,00000488,false,Rx,0,8,0A,27,52,00,4A,01,0A,00
1756487808355911,00000194,false,Rx,0,6,14,00,FE,FF,01,00,00,00
1756487808357159,00000193,false,Rx,0,6,14,00,FE,FF,00,00,00,00
1756487808360439,00000213,false,Rx,0,4,08,00,00,00,00,00,00,00
1756487808360724,00000188,false,Rx,0,6,BB,FF,0F,00,DB,03,00,00
1756487808360850,00000288,false,Rx,0,6,00,00,00,00,00,00,00,00
1756487808361572,00000214,false,Rx,0,4,08,00,00,00,00,00,00,00
1756487808365724,00000394,false,Rx,0,6,42,05,CD,01,16,01,00,00
1756487808365832,00000294,false,Rx,0,4,3F,A3,44,00,00,00,00,00
1756487808365930,00000714,false,Rx,0,1,05,00,00,00,00,00,00,00
1756487808366025,00000734,false,Rx,0,8,07,00,00,80,3F,A3,44,05
1756487808366124,00000194,false,Rx,0,6,14,00,FE,FF,FF,FF,00,00
1756487808366223,00000488,false,Rx,0,8,0A,27,52,00,4A,01,0A,00
1756487808366986,00000193,false,Rx,0,6,14,00,F9,FF,FF,FF,00,00
1756487808371024,00000188,false,Rx,0,6,C4,FF,06,00,FA,03,00,00
1756487808371155,00000288,false,Rx,0,6,00,00,00,00,00,00,00,00
1756487808371473,00000213,false,Rx,0,4,08,00,00,00,00,00,00,00
1756487808372556,00000181,false,Rx,0,8,04,10,00,E9,02,00,00,01
1756487808372660,00000214,false,Rx,0,4,08,00,00,00,00,00,00,00
1756487808375586,00000194,false,Rx,0,6,14,00,00,00,01,00,00,00
1756487808376334,00000488,false,Rx,0,8,0A,27,52,00,4A,01,0A,00
1756487808376802,00000193,false,Rx,0,6,14,00,0B,00,01,00,00,00
1756487808381324,00000188,false,Rx,0,6,B8,FF,10,00,EB,03,00,00
1756487808381452,00000288,false,Rx,0,6,00,00,00,00,00,00,00,00
1756487808382490,00000213,false,Rx,0,4,08,00,00,00,00,00,00,00
1756487808383546,00000214,false,Rx,0,4,08,00,00,00,00,00,00,00
1756487808385429,00000194,false,Rx,0,6,14,00,FF,FF,FC,FF,00,00
1756487808385803,00000181,false,Rx,0,8,04,10,00,E9,02,00,00,01
1756487808386722,00000488,false,Rx,0,8,0A,27,51,00,4A,01,0A,00
1756487808386821,00000193,false,Rx,0,6,14,00,0D,00,FF,FF,00,00
1756487808390533,00000710,false,Rx,0,1,7F,00,00,00,00,00,00,00
1756487808390812,00000701,false,Rx,0,1,05,00,00,00,00,00,00,00
1756487808391631,00000188,false,Rx,0,6,B3,FF,12,00,D2,03,00,00
1756487808391760,00000288,false,Rx,0,6,00,00,00,00,00,00,00,00
1756487808393457,00000213,false,Rx,0,4,08,00,00,00,00,00,00,00
1756487808394572,00000214,false,Rx,0,4,08,00,00,00,00,00,00,00
1756487808395224,00000194,false,Rx,0,6,14,00,FD,FF,00,00,00,00
1756487808396464,00000193,false,Rx,0,6,14,00,05,00,01,00,00,00
1756487808396947,00000488,false,Rx,0,8,0A,27,51,00,4A,01,0A,00
1756487808401939,00000188,false,Rx,0,6,C0,FF,0C,00,EB,03,00,00
1756487808402072,00000288,false,Rx,0,6,00,00,00,00,00,00,00,00
1756487808404460,00000213,false,Rx,0,4,08,00,00,00,00,00,00,00
1756487808405045,00000194,false,Rx,0,6,14,00,01,00,00,00,00,00
1756487808406297,00000193,false,Rx,0,6,14,00,03,00,00,00,00,00
1756487808406673,00000214,false,Rx,0,4,08,00,00,00,00,00,00,00
1756487808408156,00000488,false,Rx,0,8,0A,27,51,00,4A,01,0A,00
1756487808411350,00000188,false,Rx,0,6,BA,FF,17,00,D4,03,00,00
1756487808411492,00000288,false,Rx,0,6,00,00,00,00,00,00,00,00
1756487808412239,00000181,false,Rx,0,8,04,10,00,E9,02,00,00,01
1756487808414881,00000194,false,Rx,0,6,14,00,07,00,FD,FF,00,00
1756487808415475,00000213,false,Rx,0,4,08,00,00,00,00,00,00,00
1756487808416121,00000193,false,Rx,0,6,14,00,0A,00,01,00,00,00
1756487808417666,00000214,false,Rx,0,4,08,00,00,00,00,00,00,00
1756487808418460,00000488,false,Rx,0,8,0A,27,51,00,4A,01,0A,00
1756487808421651,00000188,false,Rx,0,6,C2,FF,0F,00,E0,03,00,00
1756487808421779,00000288,false,Rx,0,6,00,00,00,00,00,00,00,00
1756487808424708,00000194,false,Rx,0,6,14,00,02,00,FD,FF,00,00
1756487808425419,00000181,false,Rx,0,8,04,10,00,E9,02,00,00,01
1756487808425921,00000393,false,Rx,0,6,FE,00,C5,01,07,01,00,00
1756487808426025,00000293,false,Rx,0,4,AD,A3,00,00,00,00,00,00
1756487808426131,00000713,false,Rx,0,1,05,00,00,00,00,00,00,00
1756487808426235,00000733,false,Rx,0,8,07,00,00,80,3F,A3,00,05
1756487808426353,00000193,false,Rx,0,6,14,00,FB,FF,01,00,00,00
1756487808427570,00000213,false,Rx,0,4,08,00,00,00,00,00,00,00
1756487808428666,00000214,false,Rx,0,4,08,00,00,00,00,00,00,00
1756487808428785,00000488,false,Rx,0,8,0A,27,51,00,4A,01,0A,00
1756487808431929,00000188,false,Rx,0,6,C0,FF,14,00,FC,03,00,00
1756487808432065,00000288,false,Rx,0,6,00,00,00,00,00,00,00,00
1756487808434533,00000194,false,Rx,0,6,14,00,FC,FF,FF,FF,00,00
1756487808435771,00000193,false,Rx,0,6,14,00,00,00,00,00,00,00
1756487808438604,00000181,false,Rx,0,8,04,10,00,E9,02,00,00,01
1756487808438717,00000213,false,Rx,0,4,08,00,00,00,00,00,00,00
1756487808439049,00000488,false,Rx,0,8,0A,27,51,00,4A,01,0A,00
1756487808439694,00000214,false,Rx,0,4,08,00,00,00,00,00,00,00
1756487808443334,00000188,false,Rx,0,6,BA,FF,12,00,DE,03,00,00
1756487808443459,00000288,false,Rx,0,6,00,00,00,00,00,00,00,00
1756487808444359,00000194,false,Rx,0,6,14,00,F9,FF,FE,FF,00,00
1756487808445621,00000193,false,Rx,0,6,14,00,00,00,01,00,00,00
1756487808448131,00000488,false,Rx,0,8,0A,27,51,00,4A,01,0A,00
1756487808449561,00000213,false,Rx,0,4,08,00,00,00,00,00,00,00
1756487808450636,00000214,false,Rx,0,4,08,00,00,00,00,00,00,00
1756487808451773,00000181,false,Rx,0,8,04,10,00,E9,02,00,00,01
1756487808453488,00000188,false,Rx,0,6,BE,FF,16,00,DD,03,00,00
1756487808453605,00000288,false,Rx,0,6,00,00,00,00,00,00,00,00
1756487808454141,00000194,false,Rx,0,6,14,00,F8,FF,FD,FF,00,00
1756487808455382,00000193,false,Rx,0,6,14,00,01,00,00,00,00,00
1756487808458294,00000488,false,Rx,0,8,0A,27,51,00,4A,01,0A,00
1756487808460530,00000213,false,Rx,0,4,08,00,00,00,00,00,00,00
1756487808461637,00000214,false,Rx,0,4,08,00,00,00,00,00,00,00
1756487808463685,00000188,false,Rx,0,6,C2,FF,0E,00,F3,03,00,00
1756487808463798,00000288,false,Rx,0,6,00,00,00,00,00,00,00,00
1756487808463957,00000394,false,Rx,0,6,45,05,CD,01,1F,01,00,00
1756487808464054,00000294,false,Rx,0,4,38,A3,14,00,00,00,00,00
1756487808464154,00000714,false,Rx,0,1,05,00,00,00,00,00,00,00
1756487808464252,00000734,false,Rx,0,8,08,00,00,80,3F,A3,14,05
1756487808464348,00000194,false,Rx,0,6,14,00,FE,FF,FF,FF,00,00
1756487808465207,00000193,false,Rx,0,6,14,00,F9,FF,06,00,00,00
1756487808468514,00000488,false,Rx,0,8,0A,27,52,00,4A,01,0A,00
1756487808471558,00000213,false,Rx,0,4,08,00,00,00,00,00,00,00
1756487808472675,00000181,false,Rx,0,8,A0,0F,00,E9,02,00,00,00
1756487808472771,00000214,false,Rx,0,4,08,00,00,00,00,00,00,00
1756487808473797,00000194,false,Rx,0,6,14,00,00,00,FD,FF,00,00
1756487808473893,00000188,false,Rx,0,6,BA,FF,13,00,D6,03,00,00
1756487808473990,00000288,false,Rx,0,6,00,00,00,00,00,00,00,00
1756487808475036,00000193,false,Rx,0,6,14,00,F3,FF,01,00,00,00
1756487808478699,00000488,false,Rx,0,8,0A,27,52,00,4A,01,0A,00
1756487808482549,00000213,false,Rx,0,4,08,00,00,00,00,00,00,00
1756487808483621,00000194,false,Rx,0,6,14,00,FC,FF,05,00,00,00
1756487808483716,00000214,false,Rx,0,4,08,00,00,00,00,00,00,00
1756487808484078,00000188,false,Rx,0,6,BA,FF,12,00,D5,03,00,00
1756487808484197,00000288,false,Rx,0,6,00,00,00,00,00,00,00,00
1756487808484835,00000181,false,Rx,0,8,04,10,00,E9,02,00,00,00
1756487808484948,00000193,false,Rx,0,6,14,00,F0,FF,FF,FF,00,00
1756487808489022,00000488,false,Rx,0,8,0A,27,52,00,4A,01,0A,00
1756487808490584,00000710,false,Rx,0,1,7F,00,00,00,00,00,00,00
1756487808491061,00000701,false,Rx,0,1,05,00,00,00,00,00,00,00
1756487808493507,00000194,false,Rx,0,6,14,00,FC,FF,01,00,00,00
1756487808493667,00000213,false,Rx,0,4,08,00,00,00,00,00,00,00
1756487808494327,00000188,false,Rx,0,6,C3,FF,0C,00,EF,03,00,00
1756487808494434,00000288,false,Rx,0,6,00,00,00,00,00,00,00,00
1756487808494712,00000193,false,Rx,0,6,14,00,00,00,02,00,00,00
1756487808494810,00000214,false,Rx,0,4,08,00,00,00,00,00,00,00
1756487808498078,00000181,false,Rx,0,8,04,10,00,E9,02,00,00,00
1756487808499144,00000488,false,Rx,0,8,0A,27,52,00,4A,01,0A,00
1756487808499660,00000290,false,Rx,0,7,01,E8,00,00,00,00,00,00
1756487808499769,00000490,false,Rx,0,5,64,00,00,00,00,00,00,00
1756487808503357,00000194,false,Rx,0,6,14,00,FA,FF,01,00,00,00
1756487808504521,00000188,false,Rx,0,6,BE,FF,13,00,F6,03,00,00
1756487808504630,00000193,false,Rx,0,6,14,00,F6,FF,02,00,00,00
1756487808504733,00000213,false,Rx,0,4,08,00,00,00,00,00,00,00
1756487808504831,00000288,false,Rx,0,6,00,00,00,00,00,00,00,00
1756487808505790,00000214,false,Rx,0,4,08,00,00,00,00,00,00,00
1756487808509344,00000488,false,Rx,0,8,0A,27,52,00,4A,01,0A,00
1756487808511378,00000181,false,Rx,0,8,04,10,00,E9,02,00,00,00
1756487808513168,00000194,false,Rx,0,6,14,00,F8,FF,06,00,00,00
1756487808514395,00000193,false,Rx,0,6,14,00,FA,FF,03,00,00,00
1756487808515338,00000188,false,Rx,0,6,B9,FF,14,00,D9,03,00,00
1756487808515462,00000288,false,Rx,0,6,00,00,00,00,00,00,00,00
1756487808515735,00000213,false,Rx,0,4,08,00,00,00,00,00,00,00
1756487808516816,00000214,false,Rx,0,4,08,00,00,00,00,00,00,00
