Time Stamp,ID,Extended,Dir,Bus,LEN,D1,D2,D3,D4,D5,D6,D7,D8,D9,D10,D11,D12
1756488126976620,00000420,false,Rx,0,1,01,00,00,00,00,00,00,00
1756488126977357,00000488,false,Rx,0,8,0A,27,55,00,4D,01,0C,00
1756488126977889,00000193,false,Rx,0,6,12,00,F4,FF,00,00,00,00
1756488126978125,00000188,false,Rx,0,6,C0,FF,0E,00,F6,03,00,00
1756488126978403,00000288,false,Rx,0,6,00,00,00,00,00,00,00,00
1756488126982210,00000213,false,Rx,0,4,08,00,00,00,00,00,00,00
1756488126982443,00000214,false,Rx,0,4,08,00,00,00,00,00,00,00
1756488126984669,00000194,false,Rx,0,6,14,00,02,00,00,00,00,00
1756488126987618,00000488,false,Rx,0,8,0A,27,55,00,4D,01,0C,00
1756488126987916,00000193,false,Rx,0,6,14,00,EF,FF,FC,FF,00,00
1756488126988247,00000188,false,Rx,0,6,B7,FF,0D,00,D3,03,00,00
1756488126989247,00000288,false,Rx,0,6,00,00,00,00,00,00,00,00
1756488126991072,00000181,false,Rx,0,8,04,10,00,E9,02,05,04,03
1756488126993200,00000213,false,Rx,0,4,08,00,00,00,00,00,00,00
1756488126993420,00000214,false,Rx,0,4,08,00,00,00,00,00,00,00
1756488126994487,00000194,false,Rx,0,6,14,00,FF,FF,FA,FF,00,00
1756488126997610,00000193,false,Rx,0,6,14,00,F9,FF,FB,FF,00,00
1756488126998253,00000488,false,Rx,0,8,0A,27,55,00,4D,01,0C,00
1756488126999239,00000188,false,Rx,0,6,C0,FF,1E,00,E1,03,00,00
1756488126999500,00000288,false,Rx,0,6,00,00,00,00,00,00,00,00
1756488127001583,00000190,false,Rx,0,8,00,CA,CA,CA,CA,CA,CA,CA
1756488127001868,00000190,false,Rx,0,8,07,CA,CA,CA,CA,CA,CA,CA
1756488127002184,00000190,false,Rx,0,8,15,CA,CA,CA,CA,CA,CA,CA
1756488127002369,00000190,false,Rx,0,8,23,CA,CA,CA,CA,CA,CA,CA
1756488127002680,00000004,false,Rx,0,8,00,01,00,00,00,00,00,00
1756488127002874,00000190,false,Rx,0,8,2A,CA,CA,CA,CA,CA,CA,CA
1756488127003231,00000190,false,Rx,0,8,31,CA,CA,CA,CA,CA,CA,CA
1756488127003450,00000004,false,Rx,0,8,00,01,00,00,00,00,00,00
1756488127003585,00000190,false,Rx,0,8,38,CA,CA,CA,CA,CA,CA,C9
1756488127003719,00000190,false,Rx,0,8,4D,CA,CA,CA,CA,CA,CA,CA
1756488127003852,00000004,false,Rx,0,8,00,01,00,00,00,00,00,00
1756488127004152,00000190,false,Rx,0,8,5B,CA,CA,CA,CA,CA,CA,CA
1756488127004470,00000710,false,Rx,0,1,7F,00,00,00,00,00,00,00
1756488127004721,00000181,false,Rx,0,8,A0,0F,00,E9,02,05,04,03
1756488127004856,00000194,false,Rx,0,6,14,00,01,00,FC,FF,00,00
1756488127004986,00000004,false,Rx,0,8,00,01,00,00,00,00,00,00
1756488127005117,00000214,false,Rx,0,4,08,00,00,00,00,00,00,00
1756488127006677,00000390,false,Rx,0,8,00,3D,3C,3D,13,3C,13,3C
1756488127006995,00000390,false,Rx,0,8,07,3C,3D,3C,3D,3D,3D,3D
1756488127007304,00000390,false,Rx,0,8,15,3D,3D,3D,3D,3C,3D,3C
1756488127007490,00000390,false,Rx,0,8,23,3D,3D,3D,13,3D,3D,3C
1756488127007707,00000004,false,Rx,0,8,00,01,00,00,00,00,00,00
1756488127007939,00000390,false,Rx,0,8,2A,3D,3D,3D,3D,13,3D,3D
1756488127008304,00000390,false,Rx,0,8,3F,13,3D,3D,3D,3D,3D,3D
1756488127008564,00000390,false,Rx,0,8,38,3C,13,3D,3D,3D,13,3D
1756488127008744,00000390,false,Rx,0,8,54,3D,3C,3D,3D,3D,3D,3D
1756488127009006,00000004,false,Rx,0,8,00,01,00,00,00,00,00,00
1756488127009187,00000390,false,Rx,0,8,62,3D,3D,13,3D,13,3D,3D
1756488127009452,00000390,false,Rx,0,8,69,3D,3D,3C,3D,13,3D,3D
1756488127009871,00000390,false,Rx,0,8,85,3D,3C,13,3D,3D,13,13
1756488127010055,00000390,false,Rx,0,8,77,3C,3C,3C,3C,3C,3D,3D
1756488127010274,00000390,false,Rx,0,8,93,3D,3C,3D,13,3D,3D,3D
1756488127010500,00000390,false,Rx,0,8,A8,3D,3D,13,13,13,3D,13
1756488127010813,00000390,false,Rx,0,8,AF,3D,3D,3D,13,13,3D,3D
1756488127010994,00000390,false,Rx,0,8,C4,3C,13,3C,3C,13,13,3D
1756488127011213,00000004,false,Rx,0,8,00,01,00,00,00,00,00,00
1756488127011345,00000390,false,Rx,0,8,CB,3D,3D,3D,3D,3C,3C,3C
1756488127011475,00000390,false,Rx,0,8,D9,3D,3C,3D,3D,3D,3D,3D
1756488127011605,00000488,false,Rx,0,8,0A,27,55,00,4D,01,0C,00
1756488127011736,00000188,false,Rx,0,6,C3,FF,0A,00,F9,03,00,00
1756488127011869,00000004,false,Rx,0,8,00,01,00,00,00,00,00,00
1756488127012002,00000701,false,Rx,0,1,05,00,00,00,00,00,00,00
1756488127012126,00000193,false,Rx,0,6,14,00,FC,FF,FF,FF,00,00
1756488127014124,00000394,false,Rx,0,6,81,05,DD,01,16,01,00,00
1756488127014493,00000294,false,Rx,0,4,0B,A3,9B,FF,00,00,00,00
1756488127014721,00000004,false,Rx,0,8,00,01,00,00,00,00,00,00
1756488127014861,00000734,false,Rx,0,8,04,8F,C2,F5,3F,A3,9B,05
1756488127015064,00000194,false,Rx,0,6,14,00,01,00,FE,FF,00,00
1756488127015358,00000213,false,Rx,0,4,08,00,00,00,00,00,00,00
1756488127015573,00000214,false,Rx,0,4,08,00,00,00,00,00,00,00
1756488127017297,00000193,false,Rx,0,6,14,00,FC,FF,02,00,00,00
1756488127017636,00000181,false,Rx,0,8,04,10,00,E9,02,05,04,03
1756488127019298,00000488,false,Rx,0,8,0A,27,55,00,4D,01,0C,00
1756488127019527,00000188,false,Rx,0,6,BD,FF,18,00,DE,03,00,00
1756488127019787,00000288,false,Rx,0,6,00,00,00,00,00,00,00,00
1756488127023977,00000194,false,Rx,0,6,14,00,FC,FF,FE,FF,00,00
1756488127026316,00000213,false,Rx,0,4,08,00,00,00,00,00,00,00
1756488127026535,00000214,false,Rx,0,4,08,00,00,00,00,00,00,00
1756488127027035,00000193,false,Rx,0,6,14,00,F9,FF,01,00,00,00
1756488127029811,00000188,false,Rx,0,6,BD,FF,18,00,DE,03,00,00
1756488127030192,00000488,false,Rx,0,8,0A,27,55,00,4D,01,0C,00
1756488127030335,00000288,false,Rx,0,6,00,00,00,00,00,00,00,00
1756488127033847,00000194,false,Rx,0,6,14,00,FF,FF,FD,FF,00,00
1756488127036860,00000193,false,Rx,0,6,14,00,0A,00,00,00,00,00
1756488127037293,00000213,false,Rx,0,4,08,00,00,00,00,00,00,00
1756488127037470,00000214,false,Rx,0,4,08,00,00,00,00,00,00,00
1756488127039746,00000188,false,Rx,0,6,C5,FF,10,00,F9,03,00,00
1756488127039936,00000488,false,Rx,0,8,0A,27,55,00,4D,01,0C,00
1756488127040149,00000288,false,Rx,0,6,00,00,00,00,00,00,00,00
1756488127044525,00000194,false,Rx,0,6,14,00,FC,FF,00,00,00,00
1756488127046678,00000193,false,Rx,0,6,14,00,03,00,06,00,00,00
1756488127048258,00000213,false,Rx,0,4,08,00,00,00,00,00,00,00
1756488127048391,00000214,false,Rx,0,4,08,00,00,00,00,00,00,00
1756488127049951,00000188,false,Rx,0,6,BC,FF,11,00,E1,03,00,00
1756488127050115,00000488,false,Rx,0,8,0A,27,55,00,4D,01,0C,00
1756488127050279,00000288,false,Rx,0,6,00,00,00,00,00,00,00,00
1756488127053322,00000194,false,Rx,0,6,14,00,03,00,FD,FF,00,00
1756488127056403,00000193,false,Rx,0,6,14,00,F7,FF,FF,FF,00,00
1756488127059238,00000213,false,Rx,0,4,08,00,00,00,00,00,00,00
1756488127059401,00000214,false,Rx,0,4,08,00,00,00,00,00,00,00
1756488127060086,00000188,false,Rx,0,6,BB,FF,1C,00,DB,03,00,00
1756488127060258,00000488,false,Rx,0,8,0A,27,55,00,4D,01,0C,00
1756488127060433,00000288,false,Rx,0,6,00,00,00,00,00,00,00,00
1756488127061369,00000290,false,Rx,0,7,01,E8,00,7D,A5,06,00,00
1756488127061563,00000490,false,Rx,0,5,5A,00,00,00,00,00,00,00
1756488127063147,00000194,false,Rx,0,6,14,00,06,00,02,00,00,00
1756488127066235,00000193,false,Rx,0,6,14,00,FD,FF,02,00,00,00
1756488127070241,00000213,false,Rx,0,4,08,00,00,00,00,00,00,00
1756488127070401,00000188,false,Rx,0,6,C3,FF,08,00,F8,03,00,00
1756488127070564,00000214,false,Rx,0,4,08,00,00,00,00,00,00,00
1756488127070743,00000288,false,Rx,0,6,00,00,00,00,00,00,00,00
1756488127070854,00000004,false,Rx,0,8,00,01,00,00,00,00,00,00
1756488127072972,00000194,false,Rx,0,6,14,00,02,00,FF,FF,00,00
1756488127076050,00000193,false,Rx,0,6,14,00,09,00,FF,FF,00,00
1756488127080675,00000188,false,Rx,0,6,BE,FF,0E,00,DD,03,00,00
1756488127080848,00000488,false,Rx,0,8,0A,27,56,00,4D,01,0C,00
1756488127080962,00000288,false,Rx,0,6,00,00,00,00,00,00,00,00
1756488127081440,00000213,false,Rx,0,4,08,00,00,00,00,00,00,00
1756488127081625,00000214,false,Rx,0,4,08,00,00,00,00,00,00,00
1756488127082821,00000194,false,Rx,0,6,14,00,00,00,00,00,00,00
1756488127085898,00000193,false,Rx,0,6,14,00,05,00,04,00,00,00
1756488127090718,00000188,false,Rx,0,6,B7,FF,19,00,DE,03,00,00
1756488127090879,00000488,false,Rx,0,8,0A,27,55,00,4D,01,0C,00
1756488127091042,00000288,false,Rx,0,6,00,00,00,00,00,00,00,00
1756488127092240,00000213,false,Rx,0,4,08,00,00,00,00,00,00,00
1756488127092401,00000214,false,Rx,0,4,08,00,00,00,00,00,00,00
1756488127092606,00000194,false,Rx,0,6,14,00,FE,FF,02,00,00,00
1756488127095739,00000193,false,Rx,0,6,14,00,01,00,05,00,00,00
1756488127100932,00000188,false,Rx,0,6,C5,FF,0F,00,F5,03,00,00
1756488127101086,00000488,false,Rx,0,8,0A,27,55,00,4D,01,0C,00
1756488127101252,00000181,false,Rx,0,8,A0,0F,00,E9,02,05,04,03
1756488127101992,00000288,false,Rx,0,6,00,00,00,00,00,00,00,00
1756488127102456,00000194,false,Rx,0,6,14,00,FF,FF,03,00,00,00
1756488127103259,00000213,false,Rx,0,4,08,00,00,00,00,00,00,00
1756488127104349,00000214,false,Rx,0,4,08,00,00,00,00,00,00,00
1756488127105255,00000710,false,Rx,0,1,7F,00,00,00,00,00,00,00
1756488127105511,00000393,false,Rx,0,6,15,01,D5,01,0F,01,00,00
1756488127105682,00000293,false,Rx,0,4,7A,A3,00,00,00,00,00,00
1756488127105788,00000004,false,Rx,0,8,00,01,00,00,00,00,00,00
1756488127105930,00000733,false,Rx,0,8,09,00,00,00,00,A3,00,05
1756488127106077,00000193,false,Rx,0,6,14,00,03,00,03,00,00,00
1756488127107868,00000701,false,Rx,0,1,05,00,00,00,00,00,00,00
1756488127112022,00000188,false,Rx,0,6,BB,FF,14,00,D8,03,00,00
1756488127112175,00000488,false,Rx,0,8,0A,27,55,00,4D,01,0C,00
1756488127112339,00000288,false,Rx,0,6,00,00,00,00,00,00,00,00
1756488127112518,00000294,false,Rx,0,4,08,A3,59,00,00,00,00,00
1756488127112626,00000004,false,Rx,0,8,00,01,00,00,00,00,00,00
1756488127112765,00000734,false,Rx,0,8,05,00,00,C0,3F,A3,59,05
1756488127112901,00000194,false,Rx,0,6,14,00,FE,FF,00,00,00,00
1756488127114409,00000181,false,Rx,0,8,04,10,00,E9,02,05,04,03
1756488127114563,00000213,false,Rx,0,4,08,00,00,00,00,00,00,00
1756488127115358,00000193,false,Rx,0,6,14,00,07,00,02,00,00,00
1756488127115527,00000214,false,Rx,0,4,08,00,00,00,00,00,00,00
1756488127122112,00000194,false,Rx,0,6,14,00,00,00,FF,FF,00,00
1756488127122306,00000188,false,Rx,0,6,BF,FF,0E,00,F4,03,00,00
1756488127122467,00000288,false,Rx,0,6,00,00,00,00,00,00,00,00
1756488127122633,00000488,false,Rx,0,8,0A,27,55,00,4D,01,0C,00
1756488127125184,00000193,false,Rx,0,6,14,00,05,00,00,00,00,00
1756488127126464,00000213,false,Rx,0,4,08,00,00,00,00,00,00,00
1756488127126643,00000214,false,Rx,0,4,08,00,00,00,00,00,00,00
1756488127131940,00000194,false,Rx,0,6,14,00,00,00,00,00,00,00
1756488127132377,00000188,false,Rx,0,6,C2,FF,0B,00,F5,03,00,00
1756488127132541,00000288,false,Rx,0,6,00,00,00,00,00,00,00,00
1756488127132706,00000488,false,Rx,0,8,0A,27,55,00,4D,01,0C,00
1756488127135017,00000193,false,Rx,0,6,14,00,FC,FF,FF,FF,00,00
1756488127137603,00000213,false,Rx,0,4,08,00,00,00,00,00,00,00
1756488127137774,00000214,false,Rx,0,4,08,00,00,00,00,00,00,00
1756488127141838,00000194,false,Rx,0,6,14,00,00,00,FD,FF,00,00
1756488127142619,00000188,false,Rx,0,6,AF,FF,14,00,D3,03,00,00
1756488127142794,00000288,false,Rx,0,6,00,00,00,00,00,00,00,00
1756488127142974,00000488,false,Rx,0,8,0A,27,55,00,4D,01,0C,00
1756488127144864,00000193,false,Rx,0,6,14,00,0B,00,FE,FF,00,00
1756488127148656,00000213,false,Rx,0,4,08,00,00,00,00,00,00,00
1756488127148805,00000214,false,Rx,0,4,08,00,00,00,00,00,00,00
1756488127151720,00000194,false,Rx,0,6,14,00,01,00,01,00,00,00
1756488127151956,00000181,false,Rx,0,8,A0,0F,00,EA,02,05,04,03
1756488127152820,00000188,false,Rx,0,6,BF,FF,17,00,DF,03,00,00
1756488127152994,00000288,false,Rx,0,6,00,00,00,00,00,00,00,00
1756488127153176,00000488,false,Rx,0,8,0A,27,55,00,4D,01,0C,00
1756488127154711,00000193,false,Rx,0,6,14,00,10,00,FF,FF,00,00
1756488127159603,00000213,false,Rx,0,4,08,00,00,00,00,00,00,00
1756488127159787,00000214,false,Rx,0,4,08,00,00,00,00,00,00,00
1756488127161450,00000194,false,Rx,0,6,14,00,04,00,00,00,00,00
1756488127163016,00000188,false,Rx,0,6,C0,FF,11,00,F7,03,00,00
1756488127163193,00000288,false,Rx,0,6,00,00,00,00,00,00,00,00
1756488127163375,00000488,false,Rx,0,8,0A,27,55,00,4D,01,0C,00
1756488127164097,00000181,false,Rx,0,8,04,10,00,E9,02,05,04,03
1756488127164503,00000193,false,Rx,0,6,14,00,0B,00,FE,FF,00,00
1756488127170731,00000213,false,Rx,0,4,08,00,00,00,00,00,00,00
1756488127170938,00000214,false,Rx,0,4,08,00,00,00,00,00,00,00
1756488127171320,00000194,false,Rx,0,6,14,00,FF,FF,FF,FF,00,00
1756488127173228,00000100,false,Rx,0,6,C0,16,BA,03,70,3B,00,00
1756488127173494,00000188,false,Rx,0,6,BA,FF,11,00,DD,03,00,00
1756488127173733,00000288,false,Rx,0,6,00,00,00,00,00,00,00,00
1756488127173907,00000488,false,Rx,0,8,0A,27,55,00,4D,01,0C,00
1756488127174869,00000193,false,Rx,0,6,14,00,08,00,02,00,00,00
1756488127181446,00000194,false,Rx,0,6,14,00,FF,FF,01,00,00,00
1756488127181663,00000213,false,Rx,0,4,08,00,00,00,00,00,00,00
1756488127181783,00000214,false,Rx,0,4,08,00,00,00,00,00,00,00
1756488127183414,00000188,false,Rx,0,6,C6,FF,15,00,EB,03,00,00
1756488127184253,00000288,false,Rx,0,6,00,00,00,00,00,00,00,00
1756488127184425,00000488,false,Rx,0,8,0A,27,55,00,4D,01,0C,00
1756488127184600,00000193,false,Rx,0,6,14,00,05,00,02,00,00,00
1756488127191187,00000194,false,Rx,0,6,14,00,00,00,00,00,00,00
1756488127192623,00000213,false,Rx,0,4,08,00,00,00,00,00,00,00
1756488127192807,00000214,false,Rx,0,4,08,00,00,00,00,00,00,00
1756488127194252,00000193,false,Rx,0,6,14,00,09,00,02,00,00,00
1756488127194429,00000188,false,Rx,0,6,B4,FF,14,00,DD,03,00,00
1756488127194611,00000288,false,Rx,0,6,00,00,00,00,00,00,00,00
1756488127194751,00000488,false,Rx,0,8,0A,27,55,00,4D,01,0C,00
1756488127194870,00000004,false,Rx,0,8,00,01,00,00,00,00,00,00
1756488127200993,00000194,false,Rx,0,6,14,00,00,00,FC,FF,00,00
1756488127201612,00000181,false,Rx,0,8,A0,0F,00,E9,02,05,04,03
1756488127203731,00000213,false,Rx,0,4,08,00,00,00,00,00,00,00
1756488127203902,00000214,false,Rx,0,4,08,00,00,00,00,00,00,00
1756488127204086,00000393,false,Rx,0,6,15,01,D5,01,0F,01,00,00
1756488127204272,00000293,false,Rx,0,4,72,A3,00,00,00,00,00,00
1756488127204388,00000004,false,Rx,0,8,00,01,00,00,00,00,00,00
1756488127204537,00000733,false,Rx,0,8,01,9A,99,19,40,A3,00,05
1756488127204666,00000188,false,Rx,0,6,C4,FF,0E,00,E0,03,00,00
1756488127204860,00000488,false,Rx,0,8,0A,27,55,00,4D,01,0C,00
1756488127204979,00000004,false,Rx,0,8,00,01,00,00,00,00,00,00
1756488127208115,00000701,false,Rx,0,1,05,00,00,00,00,00,00,00
1756488127210819,00000394,false,Rx,0,6,81,05,DD,01,1F,01,00,00
1756488127211011,00000294,false,Rx,0,4,00,A3,0C,00,00,00,00,00
1756488127211126,00000004,false,Rx,0,8,00,01,00,00,00,00,00,00
1756488127211268,00000734,false,Rx,0,8,06,6F,12,03,3B,A3,0C,05
1756488127211420,00000194,false,Rx,0,6,14,00,02,00,FE,FF,00,00
1756488127213284,00000710,false,Rx,0,1,7F,00,00,00,00,00,00,00
1756488127213903,00000193,false,Rx,0,6,14,00,F5,FF,07,00,00,00
1756488127214634,00000188,false,Rx,0,6,BE,FF,11,00,FC,03,00,00
1756488127214813,00000288,false,Rx,0,6,00,00,00,00,00,00,00,00
1756488127214997,00000488,false,Rx,0,8,0A,27,55,00,4D,01,0C,00
1756488127215150,00000214,false,Rx,0,4,08,00,00,00,00,00,00,00
1756488127215265,00000004,false,Rx,0,8,00,01,00,00,00,00,00,00
1756488127220638,00000194,false,Rx,0,6,14,00,01,00,FE,FF,00,00
1756488127221482,00000181,false,Rx,0,8,04,10,00,E9,02,05,04,03
1756488127223738,00000193,false,Rx,0,6,14,00,0A,00,05,00,00,00
1756488127224830,00000188,false,Rx,0,6,BC,FF,14,00,D8,03,00,00
1756488127225007,00000288,false,Rx,0,6,00,00,00,00,00,00,00,00
1756488127225185,00000488,false,Rx,0,8,0A,27,55,00,4D,01,0C,00
1756488127225881,00000213,false,Rx,0,4,08,00,00,00,00,00,00,00
1756488127226063,00000214,false,Rx,0,4,08,00,00,00,00,00,00,00
1756488127230464,00000194,false,Rx,0,6,14,00,01,00,00,00,00,00
1756488127233601,00000193,false,Rx,0,6,14,00,10,00,06,00,00,00
1756488127234710,00000181,false,Rx,0,8,A0,0F,00,E9,02,05,04,03
1756488127235021,00000188,false,Rx,0,6,BD,FF,18,00,D0,03,00,00
1756488127235197,00000288,false,Rx,0,6,00,00,00,00,00,00,00,00
1756488127235379,00000488,false,Rx,0,8,0A,27,55,00,4D,01,0C,00
1756488127236834,00000213,false,Rx,0,4,08,00,00,00,00,00,00,00
1756488127237011,00000214,false,Rx,0,4,08,00,00,00,00,00,00,00
1756488127240288,00000194,false,Rx,0,6,14,00,FE,FF,FD,FF,00,00
1756488127243401,00000193,false,Rx,0,6,14,00,08,00,00,00,00,00
1756488127245214,00000188,false,Rx,0,6,C3,FF,0E,00,F3,03,00,00
1756488127245499,00000288,false,Rx,0,6,00,00,00,00,00,00,00,00
1756488127245658,00000488,false,Rx,0,8,0A,27,55,00,4D,01,0C,00
1756488127247887,00000181,false,Rx,0,8,04,10,00,E9,02,05,04,03
1756488127248058,00000213,false,Rx,0,4,08,00,00,00,00,00,00,00
1756488127248173,00000004,false,Rx,0,8,00,01,00,00,00,00,00,00
1756488127248326,00000214,false,Rx,0,4,08,00,00,00,00,00,00,00
1756488127250123,00000194,false,Rx,0,6,14,00,FC,FF,FD,FF,00,00
1756488127253276,00000193,false,Rx,0,6,14,00,F8,FF,04,00,00,00
1756488127255518,00000188,false,Rx,0,6,BD,FF,14,00,EE,03,00,00
1756488127255684,00000288,false,Rx,0,6,00,00,00,00,00,00,00,00
1756488127255844,00000488,false,Rx,0,8,0A,27,55,00,4D,01,0C,00
1756488127258856,00000213,false,Rx,0,4,08,00,00,00,00,00,00,00
1756488127259029,00000214,false,Rx,0,4,08,00,00,00,00,00,00,00
1756488127259947,00000194,false,Rx,0,6,14,00,FB,FF,01,00,00,00
1756488127261110,00000181,false,Rx,0,8,04,10,00,E9,02,06,04,03
1756488127263048,00000193,false,Rx,0,6,14,00,F5,FF,00,00,00,00
1756488127265630,00000188,false,Rx,0,6,B7,FF,14,00,D4,03,00,00
1756488127265808,00000288,false,Rx,0,6,00,00,00,00,00,00,00,00
1756488127265987,00000488,false,Rx,0,8,0A,27,55,00,4D,01,0C,00
1756488127267336,00000290,false,Rx,0,7,01,E8,00,7D,A5,06,00,00
1756488127267510,00000490,false,Rx,0,5,5A,00,00,00,00,00,00,00
1756488127269887,00000194,false,Rx,0,6,14,00,FE,FF,FF,FF,00,00
1756488127270047,00000213,false,Rx,0,4,08,00,00,00,00,00,00,00
1756488127270980,00000214,false,Rx,0,4,08,00,00,00,00,00,00,00
1756488127273126,00000193,false,Rx,0,6,14,00,01,00,FF,FF,00,00
1756488127275896,00000188,false,Rx,0,6,BF,FF,08,00,F2,03,00,00
1756488127276059,00000288,false,Rx,0,6,00,00,00,00,00,00,00,00
1756488127276223,00000488,false,Rx,0,8,0A,27,55,00,4D,01,0C,00
1756488127279648,00000194,false,Rx,0,6,14,00,02,00,01,00,00,00
1756488127282004,00000181,false,Rx,0,8,A0,0F,00,E9,02,06,04,03
1756488127282176,00000213,false,Rx,0,4,08,00,00,00,00,00,00,00
1756488127282295,00000004,false,Rx,0,8,00,01,00,00,00,00,00,00
1756488127282442,00000214,false,Rx,0,4,08,00,00,00,00,00,00,00
1756488127282656,00000193,false,Rx,0,6,14,00,01,00,FD,FF,00,00
1756488127286016,00000188,false,Rx,0,6,B9,FF,14,00,E2,03,00,00
1756488127287316,00000288,false,Rx,0,6,00,00,00,00,00,00,00,00
1756488127287492,00000488,false,Rx,0,8,0A,27,55,00,4D,01,0C,00
1756488127289427,00000194,false,Rx,0,6,14,00,02,00,01,00,00,00
1756488127292529,00000193,false,Rx,0,6,14,00,02,00,FF,FF,00,00
1756488127292976,00000213,false,Rx,0,4,08,00,00,00,00,00,00,00
1756488127293162,00000214,false,Rx,0,4,08,00,00,00,00,00,00,00
1756488127294100,00000181,false,Rx,0,8,04,10,00,E9,02,06,04,03
1756488127297315,00000188,false,Rx,0,6,C1,FF,0D,00,F8,03,00,00
1756488127297494,00000288,false,Rx,0,6,00,00,00,00,00,00,00,00
1756488127297677,00000488,false,Rx,0,8,0A,27,55,00,4D,01,0C,00
1756488127299255,00000194,false,Rx,0,6,14,00,FE,FF,07,00,00,00
1756488127302359,00000393,false,Rx,0,6,15,01,D5,01,0F,01,00,00
1756488127302530,00000293,false,Rx,0,4,79,A3,00,00,00,00,00,00
1756488127302650,00000004,false,Rx,0,8,00,01,00,00,00,00,00,00
1756488127302802,00000733,false,Rx,0,8,02,00,00,C0,3F,A3,00,05
1756488127302955,00000193,false,Rx,0,6,14,00,02,00,03,00,00,00
1756488127303965,00000213,false,Rx,0,4,08,00,00,00,00,00,00,00
1756488127304141,00000214,false,Rx,0,4,08,00,00,00,00,00,00,00
1756488127307528,00000188,false,Rx,0,6,C0,FF,0E,00,F3,03,00,00
1756488127307712,00000288,false,Rx,0,6,00,00,00,00,00,00,00,00
1756488127307883,00000488,false,Rx,0,8,0A,27,55,00,4D,01,0C,00
1756488127308242,00000701,false,Rx,0,1,05,00,00,00,00,00,00,00
1756488127309080,00000394,false,Rx,0,6,81,05,DD,01,1F,01,00,00
1756488127309254,00000294,false,Rx,0,4,FF,A2,B9,00,00,00,00,00
1756488127309369,00000004,false,Rx,0,8,00,01,00,00,00,00,00,00
1756488127309562,00000734,false,Rx,0,8,07,00,00,80,3F,A2,B9,05
1756488127309692,00000194,false,Rx,0,6,14,00,FF,FF,08,00,00,00
1756488127311709,00000181,false,Rx,0,8,04,10,00,E9,02,06,04,03
1756488127312230,00000193,false,Rx,0,6,14,00,07,00,FB,FF,00,00
1756488127313295,00000710,false,Rx,0,1,7F,00,00,00,00,00,00,00
1756488127314977,00000213,false,Rx,0,4,08,00,00,00,00,00,00,00
1756488127315154,00000214,false,Rx,0,4,08,00,00,00,00,00,00,00
1756488127317774,00000188,false,Rx,0,6,B9,FF,15,00,D6,03,00,00
1756488127317923,00000288,false,Rx,0,6,00,00,00,00,00,00,00,00
1756488127318101,00000488,false,Rx,0,8,0A,27,55,00,4D,01,0C,00
1756488127318911,00000194,false,Rx,0,6,14,00,FE,FF,07,00,00,00
1756488127322026,00000193,false,Rx,0,6,14,00,FA,FF,FC,FF,00,00
1756488127326006,00000213,false,Rx,0,4,08,00,00,00,00,00,00,00
1756488127326178,00000214,false,Rx,0,4,08,00,00,00,00,00,00,00
1756488127327925,00000188,false,Rx,0,6,C6,FF,0F,00,EC,03,00,00
1756488127328102,00000288,false,Rx,0,6,00,00,00,00,00,00,00,00
1756488127328285,00000488,false,Rx,0,8,0A,27,55,00,4D,01,0C,00
1756488127328725,00000194,false,Rx,0,6,14,00,FB,FF,FD,FF,00,00
1756488127331516,00000181,false,Rx,0,8,A0,0F,00,E9,02,06,04,03
1756488127331830,00000193,false,Rx,0,6,14,00,F5,FF,FC,FF,00,00
1756488127336989,00000213,false,Rx,0,4,08,00,00,00,00,00,00,00
1756488127337159,00000214,false,Rx,0,4,08,00,00,00,00,00,00,00
1756488127338119,00000188,false,Rx,0,6,C2,FF,11,00,F4,03,00,00
1756488127338295,00000288,false,Rx,0,6,00,00,00,00,00,00,00,00
1756488127338492,00000488,false,Rx,0,8,0A,27,55,00,4C,01,0C,00
1756488127338669,00000194,false,Rx,0,6,14,00,FE,FF,03,00,00,00
1756488127341670,00000193,false,Rx,0,6,14,00,05,00,02,00,00,00
1756488127344827,00000181,false,Rx,0,8,04,10,00,E9,02,06,04,03
1756488127348094,00000213,false,Rx,0,4,08,00,00,00,00,00,00,00
1756488127348272,00000214,false,Rx,0,4,08,00,00,00,00,00,00,00
1756488127348455,00000188,false,Rx,0,6,BA,FF,0F,00,D2,03,00,00
1756488127348633,00000288,false,Rx,0,6,00,00,00,00,00,00,00,00
1756488127348750,00000004,false,Rx,0,8,00,01,00,00,00,00,00,00
1756488127348904,00000488,false,Rx,0,8,0A,27,55,00,4D,01,0C,00
1756488127351493,00000193,false,Rx,0,6,14,00,FE,FF,FE,FF,00,00
1756488127358080,00000181,false,Rx,0,8,A0,0F,00,E9,02,06,04,03
1756488127358283,00000194,false,Rx,0,6,14,00,FF,FF,FE,FF,00,00
1756488127358524,00000188,false,Rx,0,6,C1,FF,18,00,E4,03,00,00
1756488127359132,00000213,false,Rx,0,4,08,00,00,00,00,00,00,00
1756488127359337,00000214,false,Rx,0,4,08,00,00,00,00,00,00,00
1756488127359560,00000288,false,Rx,0,6,00,00,00,00,00,00,00,00
1756488127359688,00000488,false,Rx,0,8,0A,27,55,00,4D,01,0C,00
1756488127359810,00000004,false,Rx,0,8,00,01,00,00,00,00,00,00
1756488127361384,00000193,false,Rx,0,6,14,00,02,00,00,00,00,00
1756488127368072,00000194,false,Rx,0,6,14,00,01,00,FE,FF,00,00
1756488127369311,00000188,false,Rx,0,6,B4,FF,14,00,D0,03,00,00
1756488127369493,00000288,false,Rx,0,6,00,00,00,00,00,00,00,00
1756488127369686,00000488,false,Rx,0,8,0A,27,55,00,4D,01,0C,00
1756488127370165,00000213,false,Rx,0,4,08,00,00,00,00,00,00,00
1756488127370341,00000214,false,Rx,0,4,08,00,00,00,00,00,00,00
1756488127371146,00000193,false,Rx,0,6,14,00,01,00,04,00,00,00
1756488127371356,00000181,false,Rx,0,8,04,10,00,E9,02,06,04,03
1756488127377878,00000194,false,Rx,0,6,14,00,FC,FF,FB,FF,00,00
1756488127379507,00000188,false,Rx,0,6,C3,FF,13,00,EA,03,00,00
1756488127379679,00000288,false,Rx,0,6,00,00,00,00,00,00,00,00
1756488127379863,00000488,false,Rx,0,8,0A,27,55,00,4D,01,0C,00
1756488127380965,00000193,false,Rx,0,6,14,00,FF,FF,01,00,00,00
1756488127381229,00000213,false,Rx,0,4,08,00,00,00,00,00,00,00
1756488127381406,00000214,false,Rx,0,4,08,00,00,00,00,00,00,00
1756488127383465,00000181,false,Rx,0,8,04,10,00,E9,02,06,04,03
1756488127387701,00000194,false,Rx,0,6,14,00,FD,FF,00,00,00,00
1756488127389712,00000188,false,Rx,0,6,C1,FF,0E,00,F9,03,00,00
1756488127389890,00000288,false,Rx,0,6,00,00,00,00,00,00,00,00
1756488127390074,00000488,false,Rx,0,8,0A,27,55,00,4D,01,0C,00
1756488127390793,00000193,false,Rx,0,6,14,00,FD,FF,00,00,00,00
1756488127392204,00000213,false,Rx,0,4,08,00,00,00,00,00,00,00
1756488127392381,00000214,false,Rx,0,4,08,00,00,00,00,00,00,00
1756488127397633,00000194,false,Rx,0,6,14,00,01,00,FC,FF,00,00
1756488127399992,00000188,false,Rx,0,6,B5,FF,15,00,D2,03,00,00
1756488127400151,00000288,false,Rx,0,6,00,00,00,00,00,00,00,00
1756488127400313,00000488,false,Rx,0,8,0A,27,55,00,4D,01,0C,00
1756488127400631,00000393,false,Rx,0,6,15,01,D5,01,0F,01,00,00
1756488127400806,00000293,false,Rx,0,4,6C,A3,00,00,00,00,00,00
1756488127400922,00000004,false,Rx,0,8,00,01,00,00,00,00,00,00
1756488127401063,00000733,false,Rx,0,8,03,6F,12,03,3B,A3,00,05
1756488127401217,00000193,false,Rx,0,6,14,00,FD,FF,FE,FF,00,00
1756488127403330,00000213,false,Rx,0,4,08,00,00,00,00,00,00,00
1756488127403503,00000214,false,Rx,0,4,08,00,00,00,00,00,00,00
1756488127407356,00000394,false,Rx,0,6,81,05,DD,01,3C,01,00,00
1756488127407530,00000294,false,Rx,0,4,F2,A2,B3,FF,00,00,00,00
1756488127407646,00000004,false,Rx,0,8,00,01,00,00,00,00,00,00
1756488127407792,00000734,false,Rx,0,8,08,00,00,80,3F,A2,B3,05
1756488127407950,00000194,false,Rx,0,6,14,00,FF,FF,FB,FF,00,00
1756488127408527,00000701,false,Rx,0,1,05,00,00,00,00,00,00,00
1756488127410114,00000188,false,Rx,0,6,B9,FF,1C,00,DF,03,00,00
1756488127410287,00000288,false,Rx,0,6,00,00,00,00,00,00,00,00
1756488127410466,00000488,false,Rx,0,8,0A,27,55,00,4D,01,0C,00
1756488127410620,00000193,false,Rx,0,6,14,00,02,00,05,00,00,00
1756488127413414,00000710,false,Rx,0,1,7F,00,00,00,00,00,00,00
1756488127414419,00000213,false,Rx,0,4,08,00,00,00,00,00,00,00
1756488127414602,00000214,false,Rx,0,4,08,00,00,00,00,00,00,00
1756488127417183,00000194,false,Rx,0,6,14,00,FF,FF,FA,FF,00,00
1756488127420279,00000193,false,Rx,0,6,14,00,0B,00,05,00,00,00
1756488127420457,00000188,false,Rx,0,6,C2,FF,0F,00,FC,03,00,00
1756488127420635,00000288,false,Rx,0,6,00,00,00,00,00,00,00,00
1756488127420785,00000488,false,Rx,0,8,0A,27,56,00,4D,01,0C,00
1756488127420911,00000004,false,Rx,0,8,00,01,00,00,00,00,00,00
1756488127425559,00000213,false,Rx,0,4,08,00,00,00,00,00,00,00
1756488127425720,00000214,false,Rx,0,4,08,00,00,00,00,00,00,00
1756488127427006,00000194,false,Rx,0,6,14,00,02,00,02,00,00,00
1756488127430107,00000193,false,Rx,0,6,14,00,08,00,04,00,00,00
1756488127430500,00000188,false,Rx,0,6,B7,FF,11,00,DB,03,00,00
1756488127430679,00000288,false,Rx,0,6,00,00,00,00,00,00,00,00
1756488127430859,00000488,false,Rx,0,8,0A,27,56,00,4D,01,0C,00
1756488127436643,00000213,false,Rx,0,4,08,00,00,00,00,00,00,00
1756488127436812,00000214,false,Rx,0,4,08,00,00,00,00,00,00,00
1756488127436991,00000194,false,Rx,0,6,14,00,FF,FF,01,00,00,00
1756488127439941,00000193,false,Rx,0,6,14,00,00,00,FF,FF,00,00
1756488127440706,00000188,false,Rx,0,6,BC,FF,14,00,E2,03,00,00
1756488127440885,00000288,false,Rx,0,6,00,00,00,00,00,00,00,00
1756488127441069,00000488,false,Rx,0,8,0A,27,56,00,4D,01,0C,00
1756488127442305,00000181,false,Rx,0,8,04,10,00,E9,02,06,04,03
1756488127446695,00000194,false,Rx,0,6,14,00,00,00,02,00,00,00
1756488127447792,00000213,false,Rx,0,4,08,00,00,00,00,00,00,00
1756488127447991,00000214,false,Rx,0,4,08,00,00,00,00,00,00,00
1756488127449815,00000193,false,Rx,0,6,14,00,FC,FF,03,00,00,00
1756488127450942,00000188,false,Rx,0,6,C0,FF,07,00,FB,03,00,00
1756488127451137,00000288,false,Rx,0,6,00,00,00,00,00,00,00,00
1756488127451335,00000488,false,Rx,0,8,0A,27,56,00,4D,01,0C,00
1756488127454410,00000181,false,Rx,0,8,04,10,00,E9,02,06,04,03
1756488127456517,00000194,false,Rx,0,6,14,00,FC,FF,01,00,00,00
1756488127458769,00000213,false,Rx,0,4,08,00,00,00,00,00,00,00
1756488127458964,00000214,false,Rx,0,4,08,00,00,00,00,00,00,00
1756488127459617,00000193,false,Rx,0,6,14,00,07,00,00,00,00,00
1756488127462175,00000188,false,Rx,0,6,BA,FF,0D,00,E6,03,00,00
1756488127462350,00000288,false,Rx,0,6,00,00,00,00,00,00,00,00
1756488127462483,00000004,false,Rx,0,8,00,01,00,00,00,00,00,00
1756488127462658,00000488,false,Rx,0,8,0A,27,55,00,4D,01,0C,00
1756488127466493,00000194,false,Rx,0,6,14,00,04,00,01,00,00,00
1756488127467576,00000290,false,Rx,0,7,01,E8,00,00,00,00,00,00
1756488127467752,00000490,false,Rx,0,5,64,00,00,00,00,00,00,00
1756488127467888,00000004,false,Rx,0,8,00,01,00,00,00,00,00,00
1756488127468097,00000181,false,Rx,0,8,04,10,00,E9,02,06,04,03
1756488127469643,00000193,false,Rx,0,6,14,00,FE,FF,FE,FF,00,00
1756488127469860,00000213,false,Rx,0,4,08,00,00,00,00,00,00,00
1756488127471089,00000214,false,Rx,0,4,08,00,00,00,00,00,00,00
1756488127472464,00000188,false,Rx,0,6,C3,FF,0D,00,F9,03,00,00
1756488127472701,00000288,false,Rx,0,6,00,00,00,00,00,00,00,00
1756488127472849,00000488,false,Rx,0,8,0A,27,55,00,4D,01,0C,00
1756488127476308,00000194,false,Rx,0,6,14,00,01,00,01,00,00,00
1756488127479413,00000193,false,Rx,0,6,14,00,01,00,FF,FF,00,00
1756488127480896,00000181,false,Rx,0,8,04,10,00,E9,02,00,03,02
1756488127481982,00000213,false,Rx,0,4,08,00,00,00,00,00,00,00
1756488127482160,00000214,false,Rx,0,4,08,00,00,00,00,00,00,00
1756488127482500,00000188,false,Rx,0,6,BD,FF,0A,00,ED,03,00,00
1756488127482697,00000288,false,Rx,0,6,00,00,00,00,00,00,00,00
1756488127482902,00000488,false,Rx,0,8,0A,27,55,00,4D,01,0C,00
1756488127486069,00000194,false,Rx,0,6,14,00,FF,FF,00,00,00,00
1756488127489255,00000193,false,Rx,0,6,14,00,FE,FF,FF,FF,00,00
1756488127493011,00000188,false,Rx,0,6,B5,FF,19,00,D0,03,00,00
1756488127493273,00000288,false,Rx,0,6,00,00,00,00,00,00,00,00
1756488127493482,00000004,false,Rx,0,8,00,01,00,00,00,00,00,00
1756488127494057,00000213,false,Rx,0,4,08,00,00,00,00,00,00,00
1756488127494255,00000214,false,Rx,0,4,08,00,00,00,00,00,00,00
1756488127496154,00000194,false,Rx,0,6,14,00,00,00,FF,FF,00,00
1756488127499085,00000393,false,Rx,0,6,15,01,D5,01,0F,01,00,00
1756488127499291,00000293,false,Rx,0,4,7C,A3,00,00,00,00,00,00
1756488127499424,00000004,false,Rx,0,8,00,01,00,00,00,00,00,00
1756488127499561,00000733,false,Rx,0,8,04,8F,C2,F5,3F,A3,00,05
1756488127499695,00000193,false,Rx,0,6,14,00,FC,FF,04,00,00,00
1756488127502879,00000188,false,Rx,0,6,C0,FF,0D,00,E5,03,00,00
1756488127503038,00000288,false,Rx,0,6,00,00,00,00,00,00,00,00
1756488127503248,00000488,false,Rx,0,8,0A,27,55,00,4D,01,0C,00
1756488127503938,00000213,false,Rx,0,4,08,00,00,00,00,00,00,00
1756488127504134,00000214,false,Rx,0,4,08,00,00,00,00,00,00,00
1756488127505661,00000394,false,Rx,0,6,84,05,DD,01,31,01,00,00
1756488127505845,00000294,false,Rx,0,4,06,A3,A7,FF,00,00,00,00
1756488127505975,00000004,false,Rx,0,8,00,01,00,00,00,00,00,00
1756488127506106,00000734,false,Rx,0,8,09,00,00,00,00,A3,A7,05
1756488127506277,00000194,false,Rx,0,6,14,00,01,00,00,00,00,00
1756488127508698,00000701,false,Rx,0,1,05,00,00,00,00,00,00,00
1756488127508879,00000193,false,Rx,0,6,14,00,02,00,FA,FF,00,00
1756488127513285,00000188,false,Rx,0,6,C3,FF,18,00,03,04,00,00
1756488127513464,00000288,false,Rx,0,6,00,00,00,00,00,00,00,00
1756488127513641,00000488,false,Rx,0,8,0A,27,55,00,4D,01,0C,00
1756488127513820,00000710,false,Rx,0,1,7F,00,00,00,00,00,00,00
1756488127514002,00000004,false,Rx,0,8,00,01,00,00,00,00,00,00
1756488127514908,00000213,false,Rx,0,4,08,00,00,00,00,00,00,00
1756488127515095,00000214,false,Rx,0,4,08,00,00,00,00,00,00,00
1756488127515469,00000194,false,Rx,0,6,14,00,FF,FF,01,00,00,00
1756488127518591,00000193,false,Rx,0,6,14,00,01,00,FD,FF,00,00
1756488127523251,00000188,false,Rx,0,6,BF,FF,0D,00,D8,03,00,00
1756488127523442,00000288,false,Rx,0,6,00,00,00,00,00,00,00,00
1756488127523646,00000488,false,Rx,0,8,0A,27,55,00,4D,01,0C,00
1756488127525314,00000194,false,Rx,0,6,14,00,FF,FF,FE,FF,00,00
1756488127525926,00000213,false,Rx,0,4,08,00,00,00,00,00,00,00
1756488127526119,00000214,false,Rx,0,4,08,00,00,00,00,00,00,00
1756488127528419,00000193,false,Rx,0,6,14,00,FB,FF,FB,FF,00,00
1756488127533452,00000188,false,Rx,0,6,C2,FF,0F,00,E6,03,00,00
1756488127533663,00000288,false,Rx,0,6,00,00,00,00,00,00,00,00
1756488127533857,00000488,false,Rx,0,8,0A,27,55,00,4D,01,0C,00
1756488127535142,00000194,false,Rx,0,6,14,00,03,00,03,00,00,00
1756488127536930,00000213,false,Rx,0,4,08,00,00,00,00,00,00,00
1756488127537122,00000214,false,Rx,0,4,08,00,00,00,00,00,00,00
1756488127538251,00000193,false,Rx,0,6,14,00,00,00,FE,FF,00,00
1756488127543578,00000188,false,Rx,0,6,BC,FF,11,00,EB,03,00,00
1756488127544384,00000288,false,Rx,0,6,00,00,00,00,00,00,00,00
1756488127544529,00000488,false,Rx,0,8,0A,27,55,00,4D,01,0C,00
1756488127544884,00000194,false,Rx,0,6,14,00,03,00,FD,FF,00,00
1756488127547849,00000213,false,Rx,0,4,08,00,00,00,00,00,00,00
1756488127548003,00000214,false,Rx,0,4,08,00,00,00,00,00,00,00
1756488127548158,00000193,false,Rx,0,6,14,00,0C,00,FB,FF,00,00
1756488127554397,00000188,false,Rx,0,6,C7,FF,15,00,E9,03,00,00
1756488127554542,00000288,false,Rx,0,6,00,00,00,00,00,00,00,00
1756488127554693,00000488,false,Rx,0,8,0A,27,55,00,4D,01,0C,00
1756488127554845,00000194,false,Rx,0,6,14,00,FC,FF,04,00,00,00
1756488127557819,00000193,false,Rx,0,6,14,00,0D,00,FE,FF,00,00
1756488127558985,00000213,false,Rx,0,4,08,00,00,00,00,00,00,00
1756488127559133,00000214,false,Rx,0,4,08,00,00,00,00,00,00,00
1756488127564553,00000194,false,Rx,0,6,14,00,FC,FF,02,00,00,00
1756488127564697,00000188,false,Rx,0,6,C2,FF,11,00,F7,03,00,00
1756488127564848,00000288,false,Rx,0,6,00,00,00,00,00,00,00,00
1756488127564970,00000488,false,Rx,0,8,0A,27,56,00,4D,01,0C,00
1756488127567647,00000193,false,Rx,0,6,14,00,01,00,02,00,00,00
1756488127570052,00000213,false,Rx,0,4,08,00,00,00,00,00,00,00
1756488127570206,00000214,false,Rx,0,4,08,00,00,00,00,00,00,00
1756488127574371,00000194,false,Rx,0,6,14,00,00,00,03,00,00,00
1756488127574762,00000188,false,Rx,0,6,AB,FF,22,00,D4,03,00,00
1756488127574916,00000288,false,Rx,0,6,00,00,00,00,00,00,00,00
1756488127575073,00000488,false,Rx,0,8,0A,27,56,00,4D,01,0C,00
1756488127577473,00000193,false,Rx,0,6,14,00,F5,FF,00,00,00,00
1756488127581194,00000181,false,Rx,0,8,A0,0F,00,E9,02,00,01,01
1756488127581346,00000213,false,Rx,0,4,08,00,00,00,00,00,00,00
1756488127581494,00000214,false,Rx,0,4,08,00,00,00,00,00,00,00
