Time Stamp,ID,Extended,Dir,Bus,LEN,D1,D2,D3,D4,D5,D6,D7,D8,D9,D10,D11,D12
1756490210672030,00000281,false,Rx,0,1,60,00,00,00,00,00,00,00
1756490210673369,00000188,false,Rx,0,6,C5,FF,0E,00,FC,03,00,00
1756490210673443,00000288,false,Rx,0,6,00,00,00,00,00,00,00,00
1756490210673558,00000488,false,Rx,0,8,08,27,55,00,50,01,8A,00
1756490210679540,00000393,false,Rx,0,6,0A,01,D5,01,07,01,00,00
1756490210679637,00000293,false,Rx,0,4,A5,A2,00,00,00,00,00,00
1756490210679726,00000713,false,Rx,0,1,05,00,00,00,00,00,00,00
1756490210679818,00000733,false,Rx,0,8,02,00,00,C0,3F,A2,00,05
1756490210679917,00000193,false,Rx,0,6,14,00,FA,FF,01,00,00,00
1756490210681336,00000194,false,Rx,0,6,14,00,FB,FF,01,00,00,00
1756490210681429,00000213,false,Rx,0,4,08,00,00,00,00,00,00,00
1756490210681528,00000214,false,Rx,0,4,08,00,00,00,00,00,00,00
1756490210682584,00000181,false,Rx,0,8,04,10,00,E9,02,00,00,01
1756490210683522,00000188,false,Rx,0,6,BF,FF,0A,00,E9,03,00,00
1756490210683634,00000288,false,Rx,0,6,00,00,00,00,00,00,00,00
1756490210683749,00000488,false,Rx,0,8,08,27,55,00,50,01,8A,00
1756490210689127,00000213,false,Rx,0,4,08,00,00,00,00,00,00,00
1756490210689304,00000193,false,Rx,0,6,14,00,F5,FF,FD,FF,00,00
1756490210691199,00000194,false,Rx,0,6,14,00,F5,FF,01,00,00,00
1756490210692430,00000214,false,Rx,0,4,08,00,00,00,00,00,00,00
1756490210693731,00000188,false,Rx,0,6,B8,FF,1E,00,D5,03,00,00
1756490210693830,00000288,false,Rx,0,6,00,00,00,00,00,00,00,00
1756490210694507,00000488,false,Rx,0,8,08,27,55,00,50,01,8A,00
1756490210695754,00000181,false,Rx,0,8,68,10,00,E9,02,00,00,01
1756490210696823,00000213,false,Rx,0,4,08,00,00,00,00,00,00,00
1756490210699138,00000193,false,Rx,0,6,14,00,01,00,04,00,00,00
1756490210700996,00000194,false,Rx,0,6,14,00,F7,FF,03,00,00,00
1756490210702330,00000214,false,Rx,0,4,08,00,00,00,00,00,00,00
1756490210704557,00000188,false,Rx,0,6,C2,FF,18,00,FA,03,00,00
1756490210704630,00000213,false,Rx,0,4,08,00,00,00,00,00,00,00
1756490210704733,00000288,false,Rx,0,6,00,00,00,00,00,00,00,00
1756490210704848,00000488,false,Rx,0,8,08,27,55,00,50,01,8A,00
1756490210708978,00000193,false,Rx,0,6,14,00,FE,FF,FF,FF,00,00
1756490210710821,00000194,false,Rx,0,6,14,00,F8,FF,03,00,00,00
1756490210712233,00000214,false,Rx,0,4,08,00,00,00,00,00,00,00
1756490210713329,00000213,false,Rx,0,4,08,00,00,00,00,00,00,00
1756490210714703,00000188,false,Rx,0,6,B6,FF,13,00,D8,03,00,00
1756490210714842,00000288,false,Rx,0,6,00,00,00,00,00,00,00,00
1756490210714969,00000488,false,Rx,0,8,09,27,55,00,50,01,8A,00
1756490210718796,00000193,false,Rx,0,6,14,00,E9,FF,02,00,00,00
1756490210720644,00000194,false,Rx,0,6,14,00,FA,FF,FF,FF,00,00
1756490210721400,00000701,false,Rx,0,1,05,00,00,00,00,00,00,00
1756490210722136,00000213,false,Rx,0,4,08,00,00,00,00,00,00,00
1756490210722233,00000214,false,Rx,0,4,08,00,00,00,00,00,00,00
1756490210723270,00000181,false,Rx,0,8,04,10,00,E9,02,00,00,01
1756490210724902,00000188,false,Rx,0,6,BE,FF,17,00,EB,03,00,00
1756490210725041,00000288,false,Rx,0,6,00,00,00,00,00,00,00,00
1756490210725157,00000488,false,Rx,0,8,09,27,55,00,50,01,8A,00
1756490210728637,00000193,false,Rx,0,6,14,00,F0,FF,FE,FF,00,00
1756490210730539,00000194,false,Rx,0,6,14,00,FD,FF,FE,FF,00,00
1756490210733137,00000213,false,Rx,0,4,08,00,00,00,00,00,00,00
1756490210733228,00000214,false,Rx,0,4,08,00,00,00,00,00,00,00
1756490210735219,00000188,false,Rx,0,6,BF,FF,0C,00,F8,03,00,00
1756490210735304,00000288,false,Rx,0,6,00,00,00,00,00,00,00,00
1756490210735371,00000488,false,Rx,0,8,08,27,55,00,50,01,8A,00
1756490210736504,00000181,false,Rx,0,8,04,10,00,E9,02,00,00,01
1756490210738447,00000193,false,Rx,0,6,14,00,1C,00,FF,FF,00,00
1756490210740289,00000394,false,Rx,0,6,5F,05,ED,01,1F,01,00,00
1756490210740389,00000294,false,Rx,0,4,31,A2,E0,FF,00,00,00,00
1756490210740488,00000714,false,Rx,0,1,05,00,00,00,00,00,00,00
1756490210740582,00000734,false,Rx,0,8,06,00,00,00,00,A2,E0,05
1756490210740680,00000194,false,Rx,0,6,14,00,FD,FF,FF,FF,00,00
1756490210743037,00000213,false,Rx,0,4,08,00,00,00,00,00,00,00
1756490210743131,00000214,false,Rx,0,4,08,00,00,00,00,00,00,00
1756490210745301,00000188,false,Rx,0,6,B8,FF,16,00,DA,03,00,00
1756490210745445,00000288,false,Rx,0,6,00,00,00,00,00,00,00,00
1756490210745566,00000488,false,Rx,0,8,08,27,55,00,50,01,8A,00
1756490210748273,00000193,false,Rx,0,6,14,00,0C,00,00,00,00,00
1756490210749679,00000181,false,Rx,0,8,68,10,00,E9,02,00,00,01
1756490210750116,00000194,false,Rx,0,6,14,00,FA,FF,00,00,00,00
1756490210752953,00000213,false,Rx,0,4,08,00,00,00,00,00,00,00
1756490210753046,00000214,false,Rx,0,4,08,00,00,00,00,00,00,00
1756490210755510,00000188,false,Rx,0,6,B9,FF,14,00,DB,03,00,00
1756490210755650,00000288,false,Rx,0,6,00,00,00,00,00,00,00,00
1756490210755765,00000488,false,Rx,0,8,08,27,55,00,50,01,8A,00
1756490210756561,00000710,false,Rx,0,1,7F,00,00,00,00,00,00,00
1756490210758102,00000193,false,Rx,0,6,14,00,F7,FF,00,00,00,00
1756490210759946,00000194,false,Rx,0,6,14,00,FA,FF,FF,FF,00,00
1756490210762881,00000181,false,Rx,0,8,04,10,00,E9,02,00,00,01
1756490210762974,00000213,false,Rx,0,4,08,00,00,00,00,00,00,00
1756490210763071,00000214,false,Rx,0,4,08,00,00,00,00,00,00,00
1756490210765701,00000188,false,Rx,0,6,C3,FF,0D,00,F7,03,00,00
1756490210765847,00000288,false,Rx,0,6,00,00,00,00,00,00,00,00
1756490210765968,00000488,false,Rx,0,8,08,27,55,00,51,01,8A,00
1756490210767923,00000193,false,Rx,0,6,14,00,EE,FF,01,00,00,00
1756490210769772,00000194,false,Rx,0,6,14,00,FA,FF,FE,FF,00,00
1756490210773853,00000213,false,Rx,0,4,08,00,00,00,00,00,00,00
1756490210773949,00000214,false,Rx,0,4,08,00,00,00,00,00,00,00
1756490210775898,00000188,false,Rx,0,6,B5,FF,17,00,DB,03,00,00
1756490210776042,00000288,false,Rx,0,6,00,00,00,00,00,00,00,00
1756490210776161,00000181,false,Rx,0,8,68,10,00,E9,02,00,00,01
1756490210776280,00000488,false,Rx,0,8,08,27,55,00,51,01,8A,00
1756490210777754,00000393,false,Rx,0,6,0A,01,D5,01,07,01,00,00
1756490210777848,00000293,false,Rx,0,4,83,A2,00,00,00,00,00,00
1756490210777943,00000713,false,Rx,0,1,05,00,00,00,00,00,00,00
1756490210778040,00000733,false,Rx,0,8,03,6F,12,03,3B,A2,00,05
1756490210778137,00000193,false,Rx,0,6,14,00,F9,FF,01,00,00,00
1756490210779623,00000194,false,Rx,0,6,14,00,FF,FF,FF,FF,00,00
1756490210783858,00000213,false,Rx,0,4,08,00,00,00,00,00,00,00
1756490210783964,00000214,false,Rx,0,4,08,00,00,00,00,00,00,00
1756490210786097,00000188,false,Rx,0,6,B3,FF,0D,00,D5,03,00,00
1756490210786242,00000288,false,Rx,0,6,00,00,00,00,00,00,00,00
1756490210786359,00000488,false,Rx,0,8,08,27,55,00,51,01,8A,00
1756490210787576,00000193,false,Rx,0,6,14,00,F8,FF,01,00,00,00
1756490210789390,00000181,false,Rx,0,8,04,10,00,E9,02,00,00,01
1756490210789535,00000194,false,Rx,0,6,14,00,FD,FF,FE,FF,00,00
1756490210793775,00000213,false,Rx,0,4,08,00,00,00,00,00,00,00
1756490210793870,00000214,false,Rx,0,4,08,00,00,00,00,00,00,00
1756490210797410,00000193,false,Rx,0,6,14,00,F5,FF,01,00,00,00
1756490210797516,00000188,false,Rx,0,6,C7,FF,11,00,F6,03,00,00
1756490210797607,00000288,false,Rx,0,6,00,00,00,00,00,00,00,00
1756490210797724,00000488,false,Rx,0,8,08,27,55,00,51,01,8A,00
1756490210799251,00000194,false,Rx,0,6,14,00,F9,FF,01,00,00,00
1756490210802698,00000181,false,Rx,0,8,04,10,00,E9,02,00,00,01
1756490210803759,00000213,false,Rx,0,4,08,00,00,00,00,00,00,00
1756490210803855,00000214,false,Rx,0,4,08,00,00,00,00,00,00,00
1756490210807233,00000193,false,Rx,0,6,14,00,0C,00,03,00,00,00
1756490210807552,00000188,false,Rx,0,6,B7,FF,1B,00,D2,03,00,00
1756490210807746,00000288,false,Rx,0,6,00,00,00,00,00,00,00,00
1756490210807862,00000488,false,Rx,0,8,08,27,55,00,51,01,8A,00
1756490210809079,00000194,false,Rx,0,6,14,00,FA,FF,FE,FF,00,00
1756490210814921,00000181,false,Rx,0,8,68,10,00,E9,02,00,00,01
1756490210815001,00000213,false,Rx,0,4,08,00,00,00,00,00,00,00
1756490210815107,00000214,false,Rx,0,4,08,00,00,00,00,00,00,00
1756490210817072,00000193,false,Rx,0,6,14,00,12,00,FF,FF,00,00
1756490210817810,00000188,false,Rx,0,6,BF,FF,0E,00,ED,03,00,00
1756490210817948,00000288,false,Rx,0,6,00,00,00,00,00,00,00,00
1756490210818135,00000488,false,Rx,0,8,08,27,55,00,51,01,8A,00
1756490210818916,00000194,false,Rx,0,6,14,00,F8,FF,02,00,00,00
1756490210821543,00000701,false,Rx,0,1,05,00,00,00,00,00,00,00
1756490210824674,00000213,false,Rx,0,4,08,00,00,00,00,00,00,00
1756490210824767,00000214,false,Rx,0,4,08,00,00,00,00,00,00,00
1756490210826894,00000193,false,Rx,0,6,14,00,FE,FF,04,00,00,00
1756490210828024,00000188,false,Rx,0,6,C2,FF,11,00,FA,03,00,00
1756490210828137,00000288,false,Rx,0,6,00,00,00,00,00,00,00,00
1756490210828255,00000488,false,Rx,0,8,08,27,55,00,51,01,8A,00
1756490210828733,00000194,false,Rx,0,6,14,00,FB,FF,02,00,00,00
1756490210834738,00000213,false,Rx,0,4,08,00,00,00,00,00,00,00
1756490210834835,00000214,false,Rx,0,4,08,00,00,00,00,00,00,00
1756490210836719,00000193,false,Rx,0,6,14,00,F0,FF,03,00,00,00
1756490210837188,00000290,false,Rx,0,7,01,E8,00,00,00,00,00,00
1756490210837283,00000490,false,Rx,0,5,64,00,00,00,00,00,00,00
1756490210838245,00000188,false,Rx,0,6,BA,FF,13,00,D7,03,00,00
1756490210838358,00000288,false,Rx,0,6,00,00,00,00,00,00,00,00
1756490210838475,00000488,false,Rx,0,8,08,27,55,00,51,01,8A,00
1756490210838573,00000394,false,Rx,0,6,62,05,ED,01,0E,01,00,00
1756490210838671,00000294,false,Rx,0,4,2F,A2,20,00,00,00,00,00
1756490210838766,00000714,false,Rx,0,1,05,00,00,00,00,00,00,00
1756490210838864,00000734,false,Rx,0,8,07,00,00,80,3F,A2,20,05
1756490210838961,00000194,false,Rx,0,6,14,00,FC,FF,03,00,00,00
1756490210843620,00000181,false,Rx,0,8,04,10,00,E9,02,00,00,00
1756490210844679,00000213,false,Rx,0,4,08,00,00,00,00,00,00,00
1756490210844773,00000214,false,Rx,0,4,08,00,00,00,00,00,00,00
1756490210846542,00000193,false,Rx,0,6,14,00,F1,FF,05,00,00,00
1756490210848387,00000194,false,Rx,0,6,14,00,FC,FF,FD,FF,00,00
1756490210848501,00000188,false,Rx,0,6,BD,FF,1A,00,D8,03,00,00
1756490210848602,00000288,false,Rx,0,6,00,00,00,00,00,00,00,00
1756490210848703,00000488,false,Rx,0,8,08,27,55,00,51,01,8A,00
1756490210854594,00000213,false,Rx,0,4,08,00,00,00,00,00,00,00
1756490210855686,00000214,false,Rx,0,4,08,00,00,00,00,00,00,00
1756490210856365,00000193,false,Rx,0,6,14,00,0E,00,00,00,00,00
1756490210858221,00000194,false,Rx,0,6,14,00,FB,FF,FF,FF,00,00
1756490210858601,00000188,false,Rx,0,6,C7,FF,0D,00,F9,03,00,00
1756490210858741,00000288,false,Rx,0,6,00,00,00,00,00,00,00,00
1756490210858857,00000488,false,Rx,0,8,08,27,55,00,51,01,8A,00
1756490210864561,00000710,false,Rx,0,1,7F,00,00,00,00,00,00,00
1756490210865695,00000213,false,Rx,0,4,08,00,00,00,00,00,00,00
1756490210865789,00000214,false,Rx,0,4,08,00,00,00,00,00,00,00
1756490210866194,00000193,false,Rx,0,6,14,00,10,00,FF,FF,00,00
1756490210868044,00000194,false,Rx,0,6,14,00,F8,FF,00,00,00,00
1756490210868807,00000188,false,Rx,0,6,BB,FF,18,00,E5,03,00,00
1756490210869552,00000288,false,Rx,0,6,00,00,00,00,00,00,00,00
1756490210869666,00000488,false,Rx,0,8,08,27,55,00,51,01,8A,00
1756490210873428,00000181,false,Rx,0,8,68,10,00,E9,03,00,00,00
1756490210875593,00000213,false,Rx,0,4,08,00,00,00,00,00,00,00
1756490210875688,00000214,false,Rx,0,4,08,00,00,00,00,00,00,00
1756490210876013,00000393,false,Rx,0,6,0A,01,D5,01,0F,01,00,00
1756490210876110,00000293,false,Rx,0,4,81,A2,00,00,00,00,00,00
1756490210876207,00000713,false,Rx,0,1,05,00,00,00,00,00,00,00
1756490210876304,00000733,false,Rx,0,8,04,8F,C2,F5,3F,A2,00,05
1756490210876404,00000193,false,Rx,0,6,14,00,00,00,01,00,00,00
1756490210877870,00000194,false,Rx,0,6,14,00,FA,FF,FE,FF,00,00
1756490210879825,00000188,false,Rx,0,6,C3,FF,0F,00,FB,03,00,00
1756490210879918,00000288,false,Rx,0,6,00,00,00,00,00,00,00,00
1756490210880018,00000488,false,Rx,0,8,08,27,55,00,51,01,8A,00
1756490210885542,00000213,false,Rx,0,4,08,00,00,00,00,00,00,00
1756490210885619,00000214,false,Rx,0,4,08,00,00,00,00,00,00,00
1756490210885858,00000193,false,Rx,0,6,14,00,FF,FF,F7,FF,00,00
1756490210886653,00000181,false,Rx,0,8,04,10,00,E9,02,00,00,00
1756490210887701,00000194,false,Rx,0,6,14,00,F8,FF,00,00,00,00
1756490210889618,00000188,false,Rx,0,6,BB,FF,0D,00,E5,03,00,00
1756490210889729,00000288,false,Rx,0,6,00,00,00,00,00,00,00,00
1756490210889845,00000488,false,Rx,0,8,08,27,55,00,51,01,8A,00
1756490210895679,00000193,false,Rx,0,6,14,00,01,00,FE,FF,00,00
1756490210896529,00000213,false,Rx,0,4,08,00,00,00,00,00,00,00
1756490210896623,00000214,false,Rx,0,4,08,00,00,00,00,00,00,00
1756490210897527,00000194,false,Rx,0,6,14,00,FB,FF,FD,FF,00,00
1756490210899616,00000188,false,Rx,0,6,B8,FF,17,00,D7,03,00,00
1756490210899737,00000288,false,Rx,0,6,00,00,00,00,00,00,00,00
1756490210899852,00000488,false,Rx,0,8,08,27,55,00,51,01,8A,00
1756490210899970,00000181,false,Rx,0,8,68,10,00,E9,02,00,00,00
1756490210905528,00000193,false,Rx,0,6,14,00,FE,FF,FA,FF,00,00
1756490210906427,00000213,false,Rx,0,4,08,00,00,00,00,00,00,00
1756490210906525,00000214,false,Rx,0,4,08,00,00,00,00,00,00,00
1756490210907355,00000194,false,Rx,0,6,14,00,FF,FF,00,00,00,00
1756490210909635,00000188,false,Rx,0,6,C0,FF,0F,00,E9,03,00,00
1756490210909750,00000288,false,Rx,0,6,00,00,00,00,00,00,00,00
1756490210909866,00000488,false,Rx,0,8,08,27,55,00,51,01,8A,00
1756490210913047,00000181,false,Rx,0,8,04,10,00,E9,02,00,00,00
1756490210915338,00000193,false,Rx,0,6,14,00,F4,FF,FE,FF,00,00
1756490210916338,00000213,false,Rx,0,4,08,00,00,00,00,00,00,00
1756490210916432,00000214,false,Rx,0,4,08,00,00,00,00,00,00,00
1756490210917179,00000194,false,Rx,0,6,14,00,FE,FF,FC,FF,00,00
1756490210919712,00000188,false,Rx,0,6,C0,FF,0E,00,FA,03,00,00
1756490210919828,00000288,false,Rx,0,6,00,00,00,00,00,00,00,00
1756490210919944,00000488,false,Rx,0,8,08,27,55,00,50,01,8A,00
1756490210921810,00000701,false,Rx,0,1,05,00,00,00,00,00,00,00
1756490210925161,00000193,false,Rx,0,6,14,00,00,00,F8,FF,00,00
1756490210927008,00000194,false,Rx,0,6,14,00,FD,FF,00,00,00,00
1756490210927326,00000213,false,Rx,0,4,08,00,00,00,00,00,00,00
1756490210927426,00000214,false,Rx,0,4,08,00,00,00,00,00,00,00
1756490210929910,00000188,false,Rx,0,6,B4,FF,16,00,D2,03,00,00
1756490210930024,00000288,false,Rx,0,6,00,00,00,00,00,00,00,00
1756490210930141,00000488,false,Rx,0,8,08,27,55,00,50,01,8A,00
1756490210935048,00000193,false,Rx,0,6,14,00,09,00,FA,FF,00,00
1756490210936840,00000394,false,Rx,0,6,62,05,ED,01,0E,01,00,00
1756490210936935,00000294,false,Rx,0,4,36,A2,B7,FF,00,00,00,00
1756490210937030,00000714,false,Rx,0,1,05,00,00,00,00,00,00,00
1756490210937127,00000734,false,Rx,0,8,08,00,00,80,3F,A2,B7,05
1756490210937224,00000194,false,Rx,0,6,14,00,FA,FF,FE,FF,00,00
1756490210937320,00000213,false,Rx,0,4,08,00,00,00,00,00,00,00
1756490210937419,00000214,false,Rx,0,4,08,00,00,00,00,00,00,00
1756490210940117,00000188,false,Rx,0,6,BD,FF,13,00,E1,03,00,00
1756490210940229,00000288,false,Rx,0,6,00,00,00,00,00,00,00,00
1756490210940351,00000488,false,Rx,0,8,08,27,55,00,51,01,8A,00
1756490210944820,00000193,false,Rx,0,6,14,00,02,00,FA,FF,00,00
1756490210946667,00000194,false,Rx,0,6,14,00,F7,FF,02,00,00,00
1756490210947137,00000213,false,Rx,0,4,08,00,00,00,00,00,00,00
1756490210947234,00000214,false,Rx,0,4,08,00,00,00,00,00,00,00
1756490210950314,00000188,false,Rx,0,6,C2,FF,0F,00,FA,03,00,00
1756490210950429,00000288,false,Rx,0,6,00,00,00,00,00,00,00,00
1756490210950546,00000488,false,Rx,0,8,08,27,55,00,51,01,8A,00
1756490210954650,00000193,false,Rx,0,6,14,00,F6,FF,00,00,00,00
1756490210956503,00000194,false,Rx,0,6,14,00,FE,FF,04,00,00,00
1756490210957046,00000213,false,Rx,0,4,08,00,00,00,00,00,00,00
1756490210957142,00000214,false,Rx,0,4,08,00,00,00,00,00,00,00
1756490210960514,00000188,false,Rx,0,6,B4,FF,10,00,D4,03,00,00
1756490210960628,00000288,false,Rx,0,6,00,00,00,00,00,00,00,00
1756490210960744,00000488,false,Rx,0,8,08,27,55,00,50,01,8A,00
1756490210964468,00000193,false,Rx,0,6,14,00,F2,FF,FD,FF,00,00
1756490210966324,00000194,false,Rx,0,6,14,00,FE,FF,05,00,00,00
1756490210968033,00000213,false,Rx,0,4,08,00,00,00,00,00,00,00
1756490210968130,00000214,false,Rx,0,4,08,00,00,00,00,00,00,00
1756490210970713,00000188,false,Rx,0,6,B7,FF,13,00,D9,03,00,00
1756490210970891,00000288,false,Rx,0,6,00,00,00,00,00,00,00,00
1756490210970952,00000488,false,Rx,0,8,08,27,55,00,51,01,8A,00
1756490210972569,00000710,false,Rx,0,1,7F,00,00,00,00,00,00,00
1756490210974298,00000393,false,Rx,0,6,0A,01,D5,01,07,01,00,00
1756490210974392,00000293,false,Rx,0,4,A2,A2,00,00,00,00,00,00
1756490210974489,00000713,false,Rx,0,1,05,00,00,00,00,00,00,00
1756490210974587,00000733,false,Rx,0,8,05,00,00,C0,3F,A2,00,05
1756490210974685,00000193,false,Rx,0,6,14,00,F5,FF,FF,FF,00,00
1756490210976144,00000194,false,Rx,0,6,14,00,FE,FF,02,00,00,00
1756490210977943,00000213,false,Rx,0,4,08,00,00,00,00,00,00,00
1756490210978033,00000214,false,Rx,0,4,08,00,00,00,00,00,00,00
1756490210980943,00000188,false,Rx,0,6,C4,FF,0C,00,FB,03,00,00
1756490210981042,00000288,false,Rx,0,6,00,00,00,00,00,00,00,00
1756490210981132,00000488,false,Rx,0,8,08,27,55,00,51,01,8A,00
1756490210984138,00000193,false,Rx,0,6,14,00,01,00,04,00,00,00
1756490210986003,00000194,false,Rx,0,6,14,00,F6,FF,02,00,00,00
1756490210987848,00000213,false,Rx,0,4,08,00,00,00,00,00,00,00
1756490210987942,00000214,false,Rx,0,4,08,00,00,00,00,00,00,00
1756490210991115,00000188,false,Rx,0,6,B7,FF,14,00,E9,03,00,00
1756490210991227,00000288,false,Rx,0,6,00,00,00,00,00,00,00,00
1756490210991343,00000488,false,Rx,0,8,08,27,55,00,51,01,8A,00
1756490210993955,00000193,false,Rx,0,6,14,00,FF,FF,FD,FF,00,00
1756490210995796,00000194,false,Rx,0,6,14,00,F8,FF,01,00,00,00
1756490210998847,00000213,false,Rx,0,4,08,00,00,00,00,00,00,00
1756490210998942,00000214,false,Rx,0,4,08,00,00,00,00,00,00,00
1756490211001310,00000188,false,Rx,0,6,B9,FF,13,00,D8,03,00,00
1756490211001424,00000288,false,Rx,0,6,00,00,00,00,00,00,00,00
1756490211002442,00000488,false,Rx,0,8,08,27,55,00,51,01,8A,00
1756490211003776,00000193,false,Rx,0,6,14,00,02,00,03,00,00,00
1756490211005629,00000194,false,Rx,0,6,14,00,FE,FF,00,00,00,00
1756490211008754,00000213,false,Rx,0,4,08,00,00,00,00,00,00,00
1756490211008869,00000214,false,Rx,0,4,08,00,00,00,00,00,00,00
1756490211012482,00000188,false,Rx,0,6,C1,FF,0B,00,EF,03,00,00
1756490211012585,00000288,false,Rx,0,6,00,00,00,00,00,00,00,00
1756490211012681,00000488,false,Rx,0,8,08,27,55,00,51,01,8A,00
1756490211013648,00000193,false,Rx,0,6,14,00,0B,00,FB,FF,00,00
1756490211015475,00000194,false,Rx,0,6,14,00,FF,FF,05,00,00,00
1756490211018662,00000213,false,Rx,0,4,08,00,00,00,00,00,00,00
1756490211018755,00000214,false,Rx,0,4,08,00,00,00,00,00,00,00
1756490211022026,00000701,false,Rx,0,1,05,00,00,00,00,00,00,00
1756490211022594,00000188,false,Rx,0,6,B8,FF,17,00,CD,03,00,00
1756490211022745,00000288,false,Rx,0,6,00,00,00,00,00,00,00,00
1756490211022865,00000488,false,Rx,0,8,08,27,55,00,51,01,8A,00
1756490211023434,00000193,false,Rx,0,6,14,00,FE,FF,06,00,00,00
1756490211024220,00000181,false,Rx,0,8,68,10,00,E9,02,00,00,00
1756490211025281,00000194,false,Rx,0,6,14,00,FE,FF,FD,FF,00,00
1756490211028560,00000213,false,Rx,0,4,08,00,00,00,00,00,00,00
1756490211028655,00000214,false,Rx,0,4,08,00,00,00,00,00,00,00
1756490211032851,00000188,false,Rx,0,6,C0,FF,0F,00,ED,03,00,00
1756490211032960,00000288,false,Rx,0,6,00,00,00,00,00,00,00,00
1756490211033079,00000488,false,Rx,0,8,08,27,55,00,51,01,8A,00
1756490211033281,00000193,false,Rx,0,6,14,00,F7,FF,04,00,00,00
1756490211035287,00000394,false,Rx,0,6,65,05,ED,01,0E,01,00,00
1756490211035431,00000294,false,Rx,0,4,1E,A2,40,00,00,00,00,00
1756490211035498,00000004,false,Rx,0,8,00,01,00,00,00,00,00,00
1756490211035563,00000734,false,Rx,0,8,09,00,00,00,00,A2,40,05
1756490211035625,00000194,false,Rx,0,6,14,00,00,00,01,00,00,00
1756490211036435,00000181,false,Rx,0,8,04,10,00,E9,02,00,00,00
1756490211039219,00000290,false,Rx,0,7,01,E8,00,00,00,00,00,00
1756490211039340,00000490,false,Rx,0,5,64,00,00,00,00,00,00,00
1756490211039702,00000213,false,Rx,0,4,08,00,00,00,00,00,00,00
1756490211039811,00000214,false,Rx,0,4,08,00,00,00,00,00,00,00
1756490211043033,00000188,false,Rx,0,6,C3,FF,0E,00,F7,03,00,00
1756490211043122,00000193,false,Rx,0,6,14,00,FA,FF,04,00,00,00
1756490211043218,00000288,false,Rx,0,6,00,00,00,00,00,00,00,00
1756490211043335,00000488,false,Rx,0,8,08,27,55,00,51,01,8A,00
1756490211044950,00000194,false,Rx,0,6,14,00,FE,FF,FE,FF,00,00
1756490211049698,00000213,false,Rx,0,4,08,00,00,00,00,00,00,00
1756490211049785,00000214,false,Rx,0,4,08,00,00,00,00,00,00,00
1756490211052927,00000193,false,Rx,0,6,14,00,03,00,02,00,00,00
1756490211053195,00000188,false,Rx,0,6,B9,FF,17,00,D7,03,00,00
1756490211053344,00000288,false,Rx,0,6,00,00,00,00,00,00,00,00
1756490211053460,00000488,false,Rx,0,8,08,27,55,00,51,01,8A,00
1756490211054775,00000194,false,Rx,0,6,14,00,FD,FF,FF,FF,00,00
1756490211059582,00000213,false,Rx,0,4,08,00,00,00,00,00,00,00
1756490211059674,00000214,false,Rx,0,4,08,00,00,00,00,00,00,00
1756490211062752,00000193,false,Rx,0,6,14,00,01,00,FF,FF,00,00
1756490211063409,00000188,false,Rx,0,6,BF,FF,18,00,E3,03,00,00
1756490211063548,00000288,false,Rx,0,6,00,00,00,00,00,00,00,00
1756490211063664,00000488,false,Rx,0,8,08,27,55,00,51,01,8A,00
1756490211064057,00000181,false,Rx,0,8,68,10,00,E9,02,00,00,00
1756490211064596,00000194,false,Rx,0,6,14,00,FD,FF,FD,FF,00,00
1756490211069522,00000213,false,Rx,0,4,08,00,00,00,00,00,00,00
1756490211069600,00000214,false,Rx,0,4,08,00,00,00,00,00,00,00
1756490211072582,00000393,false,Rx,0,6,0C,01,D5,01,07,01,00,00
1756490211072685,00000293,false,Rx,0,4,A0,A2,00,00,00,00,00,00
1756490211072795,00000713,false,Rx,0,1,05,00,00,00,00,00,00,00
1756490211072889,00000733,false,Rx,0,8,06,6F,12,03,3B,A2,00,05
1756490211072986,00000193,false,Rx,0,6,14,00,09,00,01,00,00,00
1756490211073605,00000188,false,Rx,0,6,C1,FF,14,00,FA,03,00,00
1756490211073745,00000288,false,Rx,0,6,00,00,00,00,00,00,00,00
1756490211073867,00000488,false,Rx,0,8,08,27,55,00,51,01,8A,00
1756490211074425,00000194,false,Rx,0,6,14,00,FD,FF,01,00,00,00
1756490211080515,00000213,false,Rx,0,4,08,00,00,00,00,00,00,00
1756490211080590,00000214,false,Rx,0,4,08,00,00,00,00,00,00,00
1756490211080696,00000710,false,Rx,0,1,7F,00,00,00,00,00,00,00
1756490211082406,00000193,false,Rx,0,6,14,00,08,00,01,00,00,00
1756490211083824,00000181,false,Rx,0,8,04,10,00,E9,02,00,00,00
1756490211083917,00000188,false,Rx,0,6,B6,FF,12,00,D6,03,00,00
1756490211084239,00000194,false,Rx,0,6,14,00,F9,FF,FF,FF,00,00
1756490211084646,00000288,false,Rx,0,6,00,00,00,00,00,00,00,00
1756490211084761,00000488,false,Rx,0,8,08,27,55,00,51,01,8A,00
1756490211090397,00000213,false,Rx,0,4,08,00,00,00,00,00,00,00
1756490211090492,00000214,false,Rx,0,4,08,00,00,00,00,00,00,00
1756490211092230,00000193,false,Rx,0,6,14,00,05,00,03,00,00,00
1756490211094076,00000194,false,Rx,0,6,14,00,F9,FF,01,00,00,00
1756490211094687,00000188,false,Rx,0,6,C5,FF,0B,00,FA,03,00,00
1756490211094802,00000288,false,Rx,0,6,00,00,00,00,00,00,00,00
1756490211094925,00000488,false,Rx,0,8,08,27,55,00,51,01,8A,00
1756490211100302,00000213,false,Rx,0,4,08,00,00,00,00,00,00,00
1756490211100391,00000214,false,Rx,0,4,08,00,00,00,00,00,00,00
1756490211102060,00000193,false,Rx,0,6,14,00,01,00,01,00,00,00
1756490211103909,00000194,false,Rx,0,6,14,00,F8,FF,01,00,00,00
1756490211104946,00000188,false,Rx,0,6,BD,FF,0F,00,EB,03,00,00
1756490211105058,00000288,false,Rx,0,6,00,00,00,00,00,00,00,00
1756490211105175,00000488,false,Rx,0,8,08,27,55,00,51,01,8A,00
1756490211110222,00000213,false,Rx,0,4,08,00,00,00,00,00,00,00
1756490211110316,00000214,false,Rx,0,4,08,00,00,00,00,00,00,00
1756490211111887,00000193,false,Rx,0,6,14,00,F4,FF,04,00,00,00
1756490211113734,00000194,false,Rx,0,6,14,00,FE,FF,FD,FF,00,00
1756490211115029,00000188,false,Rx,0,6,B5,FF,13,00,CF,03,00,00
1756490211115151,00000288,false,Rx,0,6,00,00,00,00,00,00,00,00
1756490211115246,00000488,false,Rx,0,8,08,27,55,00,51,01,8A,00
1756490211121214,00000213,false,Rx,0,4,08,00,00,00,00,00,00,00
1756490211121307,00000214,false,Rx,0,4,08,00,00,00,00,00,00,00
1756490211121703,00000193,false,Rx,0,6,14,00,FF,FF,FD,FF,00,00
1756490211122174,00000701,false,Rx,0,1,05,00,00,00,00,00,00,00
1756490211123438,00000181,false,Rx,0,8,68,10,00,E9,02,00,00,00
1756490211123625,00000194,false,Rx,0,6,14,00,FF,FF,03,00,00,00
1756490211125233,00000188,false,Rx,0,6,C2,FF,0C,00,EB,03,00,00
1756490211125344,00000288,false,Rx,0,6,00,00,00,00,00,00,00,00
1756490211125441,00000488,false,Rx,0,8,08,27,55,00,51,01,8A,00
1756490211131121,00000213,false,Rx,0,4,08,00,00,00,00,00,00,00
1756490211131212,00000214,false,Rx,0,4,08,00,00,00,00,00,00,00
1756490211131544,00000193,false,Rx,0,6,14,00,17,00,00,00,00,00
1756490211133385,00000394,false,Rx,0,6,65,05,ED,01,16,01,00,00
1756490211133497,00000294,false,Rx,0,4,F3,A1,2C,00,00,00,00,00
1756490211133581,00000714,false,Rx,0,1,05,00,00,00,00,00,00,00
1756490211133677,00000734,false,Rx,0,8,01,00,00,C0,3F,A1,2C,05
1756490211133780,00000194,false,Rx,0,6,14,00,FE,FF,02,00,00,00
1756490211135475,00000188,false,Rx,0,6,BF,FF,09,00,F0,03,00,00
1756490211135556,00000288,false,Rx,0,6,00,00,00,00,00,00,00,00
1756490211135671,00000488,false,Rx,0,8,08,27,55,00,51,01,8A,00
1756490211141231,00000213,false,Rx,0,4,08,00,00,00,00,00,00,00
1756490211141832,00000214,false,Rx,0,4,08,00,00,00,00,00,00,00
1756490211141924,00000193,false,Rx,0,6,14,00,09,00,00,00,00,00
1756490211143266,00000194,false,Rx,0,6,14,00,F4,FF,01,00,00,00
1756490211144375,00000181,false,Rx,0,8,04,10,00,E9,02,00,00,00
1756490211145648,00000188,false,Rx,0,6,B3,FF,17,00,DA,03,00,00
1756490211145755,00000288,false,Rx,0,6,00,00,00,00,00,00,00,00
1756490211145852,00000488,false,Rx,0,8,08,27,55,00,51,01,8A,00
1756490211150925,00000213,false,Rx,0,4,08,00,00,00,00,00,00,00
1756490211151015,00000214,false,Rx,0,4,08,00,00,00,00,00,00,00
1756490211151189,00000193,false,Rx,0,6,14,00,03,00,FF,FF,00,00
1756490211153076,00000194,false,Rx,0,6,14,00,F4,FF,FE,FF,00,00
1756490211155826,00000188,false,Rx,0,6,C2,FF,11,00,F1,03,00,00
1756490211155938,00000288,false,Rx,0,6,00,00,00,00,00,00,00,00
1756490211156062,00000488,false,Rx,0,8,08,27,55,00,51,01,8A,00
1756490211156506,00000181,false,Rx,0,8,68,10,00,E9,02,00,00,00
1756490211161033,00000193,false,Rx,0,6,14,00,F4,FF,04,00,00,00
1756490211161936,00000213,false,Rx,0,4,08,00,00,00,00,00,00,00
1756490211162041,00000214,false,Rx,0,4,08,00,00,00,00,00,00,00
1756490211162860,00000194,false,Rx,0,6,14,00,F8,FF,FF,FF,00,00
1756490211166014,00000188,false,Rx,0,6,BA,FF,12,00,F3,03,00,00
1756490211166152,00000288,false,Rx,0,6,00,00,00,00,00,00,00,00
1756490211166268,00000488,false,Rx,0,8,08,27,55,00,51,01,8A,00
1756490211170850,00000393,false,Rx,0,6,0C,01,D5,01,07,01,00,00
1756490211170942,00000293,false,Rx,0,4,89,A2,00,00,00,00,00,00
1756490211171039,00000713,false,Rx,0,1,05,00,00,00,00,00,00,00
1756490211171136,00000733,false,Rx,0,8,07,00,00,80,3F,A2,00,05
1756490211171243,00000193,false,Rx,0,6,14,00,F6,FF,FE,FF,00,00
1756490211171885,00000213,false,Rx,0,4,08,00,00,00,00,00,00,00
1756490211171975,00000214,false,Rx,0,4,08,00,00,00,00,00,00,00
1756490211172695,00000194,false,Rx,0,6,14,00,FF,FF,01,00,00,00
1756490211174167,00000181,false,Rx,0,8,04,10,00,E9,02,00,00,00
1756490211176213,00000188,false,Rx,0,6,B5,FF,1A,00,C8,03,00,00
1756490211176351,00000288,false,Rx,0,6,00,00,00,00,00,00,00,00
1756490211176469,00000488,false,Rx,0,8,08,27,55,00,51,01,8A,00
1756490211180150,00000710,false,Rx,0,1,7F,00,00,00,00,00,00,00
1756490211180673,00000193,false,Rx,0,6,14,00,F6,FF,02,00,00,00
1756490211181860,00000213,false,Rx,0,4,08,00,00,00,00,00,00,00
1756490211181958,00000214,false,Rx,0,4,08,00,00,00,00,00,00,00
1756490211182524,00000194,false,Rx,0,6,14,00,FF,FF,FF,FF,00,00
1756490211186413,00000188,false,Rx,0,6,BD,FF,13,00,E1,03,00,00
1756490211187380,00000181,false,Rx,0,8,68,10,00,E9,02,00,00,00
1756490211187711,00000288,false,Rx,0,6,00,00,00,00,00,00,00,00
1756490211187831,00000488,false,Rx,0,8,08,27,55,00,51,01,8A,00
1756490211190508,00000193,false,Rx,0,6,14,00,FA,FF,FF,FF,00,00
1756490211191732,00000213,false,Rx,0,4,08,00,00,00,00,00,00,00
1756490211191824,00000214,false,Rx,0,4,08,00,00,00,00,00,00,00
1756490211192337,00000194,false,Rx,0,6,14,00,F6,FF,FE,FF,00,00
1756490211197739,00000188,false,Rx,0,6,B4,FF,1C,00,CF,03,00,00
1756490211197848,00000288,false,Rx,0,6,00,00,00,00,00,00,00,00
1756490211197965,00000488,false,Rx,0,8,08,27,55,00,51,01,8A,00
1756490211199475,00000181,false,Rx,0,8,04,10,00,E9,02,00,00,00
1756490211200333,00000193,false,Rx,0,6,14,00,02,00,02,00,00,00
1756490211202177,00000194,false,Rx,0,6,14,00,F8,FF,01,00,00,00
1756490211202746,00000213,false,Rx,0,4,08,00,00,00,00,00,00,00
1756490211202844,00000214,false,Rx,0,4,08,00,00,00,00,00,00,00
1756490211207918,00000188,false,Rx,0,6,B9,FF,10,00,D6,03,00,00
1756490211208065,00000288,false,Rx,0,6,00,00,00,00,00,00,00,00
1756490211208182,00000488,false,Rx,0,8,08,27,55,00,51,01,8A,00
1756490211210174,00000193,false,Rx,0,6,14,00,06,00,00,00,00,00
1756490211212005,00000194,false,Rx,0,6,14,00,FE,FF,01,00,00,00
1756490211212690,00000181,false,Rx,0,8,68,10,00,E9,02,00,00,00
1756490211212784,00000213,false,Rx,0,4,08,00,00,00,00,00,00,00
1756490211212881,00000214,false,Rx,0,4,08,00,00,00,00,00,00,00
1756490211218145,00000188,false,Rx,0,6,C4,FF,13,00,F6,03,00,00
1756490211218263,00000288,false,Rx,0,6,00,00,00,00,00,00,00,00
1756490211218387,00000488,false,Rx,0,8,08,27,55,00,51,01,8A,00
1756490211219985,00000193,false,Rx,0,6,14,00,FB,FF,04,00,00,00
1756490211221833,00000194,false,Rx,0,6,14,00,F8,FF,FF,FF,00,00
1756490211222413,00000701,false,Rx,0,1,05,00,00,00,00,00,00,00
1756490211222556,00000213,false,Rx,0,4,08,00,00,00,00,00,00,00
1756490211222653,00000214,false,Rx,0,4,08,00,00,00,00,00,00,00
1756490211225888,00000181,false,Rx,0,8,04,10,00,E9,02,00,00,00
1756490211228317,00000188,false,Rx,0,6,C1,FF,09,00,EE,03,00,00
1756490211228432,00000288,false,Rx,0,6,00,00,00,00,00,00,00,00
1756490211228548,00000488,false,Rx,0,8,08,27,55,00,51,01,8A,00
1756490211229808,00000193,false,Rx,0,6,14,00,FD,FF,01,00,00,00
1756490211231655,00000394,false,Rx,0,6,69,05,ED,01,16,01,00,00
1756490211231748,00000294,false,Rx,0,4,24,A2,E8,FF,00,00,00,00
1756490211231845,00000714,false,Rx,0,1,05,00,00,00,00,00,00,00
1756490211231942,00000734,false,Rx,0,8,02,00,00,20,3F,A2,E8,05
1756490211232038,00000194,false,Rx,0,6,14,00,F9,FF,01,00,00,00
1756490211232490,00000213,false,Rx,0,4,08,00,00,00,00,00,00,00
1756490211233555,00000214,false,Rx,0,4,08,00,00,00,00,00,00,00
1756490211238603,00000188,false,Rx,0,6,B0,FF,19,00,D2,03,00,00
1756490211238705,00000288,false,Rx,0,6,00,00,00,00,00,00,00,00
1756490211238777,00000488,false,Rx,0,8,08,27,55,00,51,01,8A,00
1756490211239162,00000181,false,Rx,0,8,68,10,00,E9,02,00,00,00
1756490211239275,00000290,false,Rx,0,7,01,E8,00,00,00,00,00,00
1756490211239376,00000490,false,Rx,0,5,64,00,00,00,00,00,00,00
1756490211239655,00000193,false,Rx,0,6,14,00,08,00,02,00,00,00
1756490211241546,00000194,false,Rx,0,6,14,00,F7,FF,00,00,00,00
1756490211243466,00000213,false,Rx,0,4,08,00,00,00,00,00,00,00
1756490211243564,00000214,false,Rx,0,4,08,00,00,00,00,00,00,00
1756490211248735,00000188,false,Rx,0,6,C0,FF,12,00,FC,03,00,00
1756490211248846,00000288,false,Rx,0,6,00,00,00,00,00,00,00,00
1756490211248961,00000488,false,Rx,0,8,08,27,55,00,51,01,8A,00
1756490211249465,00000193,false,Rx,0,6,14,00,FF,FF,FF,FF,00,00
1756490211251321,00000194,false,Rx,0,6,14,00,FB,FF,02,00,00,00
1756490211253364,00000213,false,Rx,0,4,08,00,00,00,00,00,00,00
1756490211253457,00000214,false,Rx,0,4,08,00,00,00,00,00,00,00
1756490211258924,00000188,false,Rx,0,6,BD,FF,0D,00,F6,03,00,00
1756490211259287,00000193,false,Rx,0,6,14,00,0B,00,FF,FF,00,00
1756490211259704,00000288,false,Rx,0,6,00,00,00,00,00,00,00,00
1756490211259821,00000488,false,Rx,0,8,08,27,55,00,51,01,8A,00
1756490211261142,00000194,false,Rx,0,6,14,00,FE,FF,04,00,00,00
1756490211263401,00000213,false,Rx,0,4,08,00,00,00,00,00,00,00
1756490211263494,00000214,false,Rx,0,4,08,00,00,00,00,00,00,00
1756490211264509,00000181,false,Rx,0,8,04,10,00,E9,02,00,00,00
1756490211269125,00000393,false,Rx,0,6,0C,01,D5,01,07,01,00,00
1756490211269218,00000293,false,Rx,0,4,A2,A2,00,00,00,00,00,00
1756490211269316,00000713,false,Rx,0,1,05,00,00,00,00,00,00,00
1756490211269421,00000733,false,Rx,0,8,08,00,00,80,3F,A2,00,05
1756490211269646,00000193,false,Rx,0,6,14,00,05,00,00,00,00,00
1756490211269741,00000188,false,Rx,0,6,BF,FF,11,00,E9,03,00,00
1756490211269854,00000288,false,Rx,0,6,00,00,00,00,00,00,00,00
1756490211269971,00000488,false,Rx,0,8,08,27,55,00,51,01,8A,00
1756490211270972,00000194,false,Rx,0,6,14,00,FE,FF,00,00,00,00
1756490211274476,00000213,false,Rx,0,4,08,00,00,00,00,00,00,00
1756490211274569,00000214,false,Rx,0,4,08,00,00,00,00,00,00,00
1756490211276706,00000181,false,Rx,0,8,68,10,00,E9,02,00,00,00
1756490211278955,00000193,false,Rx,0,6,14,00,06,00,F9,FF,00,00
1756490211279947,00000188,false,Rx,0,6,C3,FF,08,00,F8,03,00,00
1756490211280071,00000288,false,Rx,0,6,00,00,00,00,00,00,00,00
1756490211280192,00000488,false,Rx,0,8,08,27,55,00,51,01,8A,00
1756490211280798,00000194,false,Rx,0,6,14,00,FE,FF,FE,FF,00,00
1756490211284386,00000213,false,Rx,0,4,08,00,00,00,00,00,00,00
1756490211284479,00000214,false,Rx,0,4,08,00,00,00,00,00,00,00
1756490211288776,00000193,false,Rx,0,6,14,00,F6,FF,02,00,00,00
1756490211290104,00000188,false,Rx,0,6,BC,FF,15,00,D2,03,00,00
1756490211290248,00000288,false,Rx,0,6,00,00,00,00,00,00,00,00
1756490211290365,00000488,false,Rx,0,8,08,27,55,00,51,01,8A,00
1756490211290609,00000194,false,Rx,0,6,14,00,FC,FF,02,00,00,00
1756490211294326,00000181,false,Rx,0,8,04,10,00,E9,02,00,00,00
1756490211294419,00000213,false,Rx,0,4,08,00,00,00,00,00,00,00
1756490211294517,00000214,false,Rx,0,4,08,00,00,00,00,00,00,00
1756490211298600,00000193,false,Rx,0,6,14,00,F2,FF,FB,FF,00,00
1756490211300297,00000188,false,Rx,0,6,BA,FF,17,00,DD,03,00,00
1756490211300437,00000194,false,Rx,0,6,14,00,F3,FF,FE,FF,00,00
1756490211300551,00000288,false,Rx,0,6,00,00,00,00,00,00,00,00
1756490211300665,00000488,false,Rx,0,8,08,27,55,00,51,01,8A,00
1756490211305394,00000213,false,Rx,0,4,08,00,00,00,00,00,00,00
1756490211305499,00000214,false,Rx,0,4,08,00,00,00,00,00,00,00
1756490211306520,00000181,false,Rx,0,8,68,10,00,E9,02,00,00,00
1756490211308431,00000193,false,Rx,0,6,14,00,FC,FF,01,00,00,00
1756490211310276,00000194,false,Rx,0,6,14,00,F7,FF,FE,FF,00,00
1756490211310504,00000188,false,Rx,0,6,C9,FF,0C,00,F1,03,00,00
1756490211310659,00000288,false,Rx,0,6,00,00,00,00,00,00,00,00
1756490211310774,00000488,false,Rx,0,8,08,27,55,00,51,01,8A,00
1756490211315389,00000213,false,Rx,0,4,08,00,00,00,00,00,00,00
1756490211315483,00000214,false,Rx,0,4,08,00,00,00,00,00,00,00
1756490211318256,00000193,false,Rx,0,6,14,00,FA,FF,FD,FF,00,00
1756490211320104,00000194,false,Rx,0,6,14,00,FA,FF,00,00,00,00
1756490211320694,00000188,false,Rx,0,6,BB,FF,14,00,DC,03,00,00
1756490211320848,00000288,false,Rx,0,6,00,00,00,00,00,00,00,00
1756490211320963,00000488,false,Rx,0,8,08,27,55,00,51,01,8A,00
1756490211322661,00000701,false,Rx,0,1,05,00,00,00,00,00,00,00
1756490211325290,00000213,false,Rx,0,4,08,00,00,00,00,00,00,00
1756490211325384,00000214,false,Rx,0,4,08,00,00,00,00,00,00,00
1756490211328089,00000193,false,Rx,0,6,14,00,FC,FF,FC,FF,00,00
1756490211329930,00000394,false,Rx,0,6,69,05,ED,01,16,01,00,00
1756490211330022,00000294,false,Rx,0,4,38,A2,E8,FF,00,00,00,00
1756490211330120,00000714,false,Rx,0,1,05,00,00,00,00,00,00,00
1756490211330218,00000734,false,Rx,0,8,03,00,00,00,00,A2,E8,05
1756490211330316,00000194,false,Rx,0,6,14,00,FD,FF,FD,FF,00,00
1756490211330901,00000188,false,Rx,0,6,BA,FF,12,00,DB,03,00,00
1756490211331048,00000288,false,Rx,0,6,00,00,00,00,00,00,00,00
1756490211331165,00000488,false,Rx,0,8,08,27,55,00,51,01,8A,00
1756490211334134,00000181,false,Rx,0,8,04,10,00,E9,02,00,00,00
1756490211335203,00000213,false,Rx,0,4,08,00,00,00,00,00,00,00
1756490211335302,00000214,false,Rx,0,4,08,00,00,00,00,00,00,00
1756490211337915,00000193,false,Rx,0,6,14,00,06,00,FF,FF,00,00
1756490211339757,00000194,false,Rx,0,6,14,00,FF,FF,FE,FF,00,00
1756490211341168,00000188,false,Rx,0,6,C6,FF,0E,00,F5,03,00,00
1756490211341257,00000288,false,Rx,0,6,00,00,00,00,00,00,00,00
1756490211341395,00000488,false,Rx,0,8,08,27,55,00,51,01,8A,00
1756490211346251,00000213,false,Rx,0,4,08,00,00,00,00,00,00,00
1756490211346338,00000214,false,Rx,0,4,08,00,00,00,00,00,00,00
1756490211347340,00000181,false,Rx,0,8,68,10,00,E9,02,00,00,00
1756490211347753,00000193,false,Rx,0,6,14,00,FF,FF,FE,FF,00,00
1756490211349660,00000194,false,Rx,0,6,14,00,FD,FF,FE,FF,00,00
1756490211351318,00000188,false,Rx,0,6,C0,FF,0B,00,F2,03,00,00
1756490211351453,00000288,false,Rx,0,6,00,00,00,00,00,00,00,00
1756490211351570,00000488,false,Rx,0,8,08,27,55,00,51,01,8A,00
1756490211356112,00000213,false,Rx,0,4,08,00,00,00,00,00,00,00
1756490211356205,00000214,false,Rx,0,4,08,00,00,00,00,00,00,00
1756490211357570,00000193,false,Rx,0,6,14,00,ED,FF,01,00,00,00
1756490211359416,00000194,false,Rx,0,6,14,00,FA,FF,FC,FF,00,00
1756490211361522,00000188,false,Rx,0,6,B7,FF,16,00,D2,03,00,00
1756490211362607,00000288,false,Rx,0,6,00,00,00,00,00,00,00,00
1756490211362719,00000488,false,Rx,0,8,08,27,55,00,51,01,8A,00
1756490211366018,00000213,false,Rx,0,4,08,00,00,00,00,00,00,00
1756490211366108,00000214,false,Rx,0,4,08,00,00,00,00,00,00,00
1756490211367390,00000393,false,Rx,0,6,0C,01,D5,01,07,01,00,00
1756490211367493,00000293,false,Rx,0,4,7C,A2,00,00,00,00,00,00
1756490211367601,00000713,false,Rx,0,1,05,00,00,00,00,00,00,00
1756490211367697,00000733,false,Rx,0,8,09,00,00,00,00,A2,00,05
1756490211367794,00000193,false,Rx,0,6,14,00,01,00,00,00,00,00
1756490211369251,00000194,false,Rx,0,6,14,00,FD,FF,00,00,00,00
1756490211372616,00000188,false,Rx,0,6,C0,FF,0D,00,F7,03,00,00
1756490211372753,00000288,false,Rx,0,6,00,00,00,00,00,00,00,00
1756490211372869,00000488,false,Rx,0,8,08,27,55,00,51,01,8A,00
1756490211373807,00000181,false,Rx,0,8,04,10,00,E9,02,00,00,00
1756490211375921,00000213,false,Rx,0,4,08,00,00,00,00,00,00,00
1756490211376014,00000214,false,Rx,0,4,08,00,00,00,00,00,00,00
1756490211377221,00000193,false,Rx,0,6,14,00,FE,FF,02,00,00,00
1756490211379089,00000194,false,Rx,0,6,14,00,FD,FF,01,00,00,00
1756490211380069,00000710,false,Rx,0,1,7F,00,00,00,00,00,00,00
1756490211382818,00000188,false,Rx,0,6,B3,FF,17,00,D4,03,00,00
1756490211382967,00000288,false,Rx,0,6,00,00,00,00,00,00,00,00
1756490211383092,00000488,false,Rx,0,8,08,27,55,00,51,01,8A,00
1756490211386962,00000181,false,Rx,0,8,68,10,00,E9,02,00,00,00
1756490211387074,00000193,false,Rx,0,6,14,00,09,00,FD,FF,00,00
1756490211387171,00000213,false,Rx,0,4,08,00,00,00,00,00,00,00
1756490211387269,00000214,false,Rx,0,4,08,00,00,00,00,00,00,00
1756490211388898,00000194,false,Rx,0,6,14,00,FE,FF,02,00,00,00
1756490211393013,00000188,false,Rx,0,6,BE,FF,17,00,E7,03,00,00
1756490211393153,00000288,false,Rx,0,6,00,00,00,00,00,00,00,00
1756490211393269,00000488,false,Rx,0,8,08,27,55,00,51,01,8A,00
1756490211396827,00000213,false,Rx,0,4,08,00,00,00,00,00,00,00
1756490211396917,00000193,false,Rx,0,6,14,00,0A,00,01,00,00,00
1756490211397015,00000214,false,Rx,0,4,08,00,00,00,00,00,00,00
1756490211398726,00000194,false,Rx,0,6,14,00,FC,FF,01,00,00,00
1756490211400165,00000181,false,Rx,0,8,04,10,00,E9,02,00,00,00
1756490211403220,00000188,false,Rx,0,6,BF,FF,0F,00,FD,03,00,00
1756490211403354,00000288,false,Rx,0,6,00,00,00,00,00,00,00,00
1756490211403469,00000488,false,Rx,0,8,08,27,55,00,51,01,8A,00
1756490211406723,00000193,false,Rx,0,6,14,00,02,00,FB,FF,00,00
1756490211406811,00000213,false,Rx,0,4,08,00,00,00,00,00,00,00
1756490211406909,00000214,false,Rx,0,4,08,00,00,00,00,00,00,00
1756490211408552,00000194,false,Rx,0,6,14,00,FB,FF,03,00,00,00
1756490211413374,00000181,false,Rx,0,8,04,10,00,E9,02,00,00,00
1756490211413491,00000188,false,Rx,0,6,B9,FF,15,00,D0,03,00,00
1756490211413579,00000288,false,Rx,0,6,00,00,00,00,00,00,00,00
1756490211413699,00000488,false,Rx,0,8,08,27,55,00,51,01,8A,00
1756490211416530,00000193,false,Rx,0,6,14,00,FA,FF,06,00,00,00
1756490211417730,00000213,false,Rx,0,4,08,00,00,00,00,00,00,00
1756490211417826,00000214,false,Rx,0,4,08,00,00,00,00,00,00,00
1756490211418375,00000194,false,Rx,0,6,14,00,F8,FF,01,00,00,00
1756490211422916,00000701,false,Rx,0,1,05,00,00,00,00,00,00,00
1756490211423611,00000188,false,Rx,0,6,B8,FF,17,00,D9,03,00,00
1756490211423795,00000288,false,Rx,0,6,00,00,00,00,00,00,00,00
1756490211423877,00000488,false,Rx,0,8,08,27,55,00,51,01,8A,00
1756490211426367,00000193,false,Rx,0,6,14,00,FD,FF,02,00,00,00
1756490211426599,00000181,false,Rx,0,8,68,10,00,E9,02,00,00,00
1756490211427636,00000213,false,Rx,0,4,08,00,00,00,00,00,00,00
1756490211427736,00000214,false,Rx,0,4,08,00,00,00,00,00,00,00
1756490211428202,00000394,false,Rx,0,6,69,05,ED,01,02,01,00,00
1756490211428295,00000294,false,Rx,0,4,36,A2,D8,FF,00,00,00,00
1756490211428393,00000714,false,Rx,0,1,05,00,00,00,00,00,00,00
1756490211428490,00000734,false,Rx,0,8,04,66,66,66,3F,A2,D8,05
1756490211428586,00000194,false,Rx,0,6,14,00,F6,FF,FF,FF,00,00
1756490211433818,00000188,false,Rx,0,6,C6,FF,0A,00,F5,03,00,00
1756490211433957,00000288,false,Rx,0,6,00,00,00,00,00,00,00,00
1756490211434074,00000488,false,Rx,0,8,08,27,55,00,51,01,8A,00
1756490211436184,00000193,false,Rx,0,6,14,00,EE,FF,03,00,00,00
1756490211437539,00000213,false,Rx,0,4,08,00,00,00,00,00,00,00
1756490211437639,00000214,false,Rx,0,4,08,00,00,00,00,00,00,00
1756490211438020,00000194,false,Rx,0,6,14,00,F9,FF,00,00,00,00
1756490211439147,00000290,false,Rx,0,7,01,E8,00,00,00,00,00,00
1756490211439242,00000490,false,Rx,0,5,64,00,00,00,00,00,00,00
1756490211444083,00000188,false,Rx,0,6,BE,FF,16,00,E3,03,00,00
1756490211444196,00000181,false,Rx,0,8,04,10,00,E9,02,00,00,00
1756490211444813,00000288,false,Rx,0,6,00,00,00,00,00,00,00,00
1756490211444950,00000488,false,Rx,0,8,08,27,55,00,51,01,8A,00
1756490211446018,00000193,false,Rx,0,6,14,00,FC,FF,02,00,00,00
1756490211447453,00000213,false,Rx,0,4,08,00,00,00,00,00,00,00
1756490211447551,00000214,false,Rx,0,4,08,00,00,00,00,00,00,00
1756490211447850,00000194,false,Rx,0,6,14,00,FC,FF,FE,FF,00,00
1756490211454836,00000188,false,Rx,0,6,BF,FF,14,00,F7,03,00,00
1756490211454948,00000288,false,Rx,0,6,00,00,00,00,00,00,00,00
1756490211455065,00000488,false,Rx,0,8,08,27,55,00,51,01,8A,00
1756490211455839,00000193,false,Rx,0,6,14,00,06,00,FB,FF,00,00
1756490211457384,00000181,false,Rx,0,8,68,10,00,E9,02,00,00,00
1756490211457677,00000194,false,Rx,0,6,14,00,FD,FF,00,00,00,00
1756490211458470,00000213,false,Rx,0,4,08,00,00,00,00,00,00,00
1756490211458565,00000214,false,Rx,0,4,08,00,00,00,00,00,00,00
1756490211465017,00000188,false,Rx,0,6,BC,FF,07,00,F0,03,00,00
1756490211465156,00000288,false,Rx,0,6,00,00,00,00,00,00,00,00
1756490211465273,00000488,false,Rx,0,8,08,27,55,00,51,01,8A,00
1756490211465653,00000393,false,Rx,0,6,0C,01,D5,01,0F,01,00,00
1756490211465750,00000293,false,Rx,0,4,95,A2,00,00,00,00,00,00
1756490211465847,00000713,false,Rx,0,1,05,00,00,00,00,00,00,00
1756490211465948,00000733,false,Rx,0,8,01,9A,99,19,40,A2,00,05
1756490211466053,00000193,false,Rx,0,6,14,00,0C,00,03,00,00,00
1756490211467515,00000194,false,Rx,0,6,14,00,FB,FF,FE,FF,00,00
1756490211468466,00000213,false,Rx,0,4,08,00,00,00,00,00,00,00
1756490211468576,00000214,false,Rx,0,4,08,00,00,00,00,00,00,00
1756490211474018,00000181,false,Rx,0,8,04,10,00,E9,02,00,00,00
1756490211475219,00000188,false,Rx,0,6,B5,FF,1A,00,D3,03,00,00
1756490211475354,00000288,false,Rx,0,6,00,00,00,00,00,00,00,00
1756490211475480,00000488,false,Rx,0,8,08,27,55,00,51,01,8A,00
1756490211475604,00000193,false,Rx,0,6,14,00,03,00,00,00,00,00
1756490211477344,00000194,false,Rx,0,6,14,00,F6,FF,00,00,00,00
1756490211478367,00000213,false,Rx,0,4,08,00,00,00,00,00,00,00
1756490211478461,00000214,false,Rx,0,4,08,00,00,00,00,00,00,00
1756490211483063,00000710,false,Rx,0,1,7F,00,00,00,00,00,00,00
1756490211485356,00000193,false,Rx,0,6,14,00,00,00,02,00,00,00
1756490211485433,00000188,false,Rx,0,6,BD,FF,08,00,EC,03,00,00
1756490211485558,00000288,false,Rx,0,6,00,00,00,00,00,00,00,00
1756490211485674,00000488,false,Rx,0,8,08,27,55,00,51,01,8A,00
1756490211487171,00000194,false,Rx,0,6,14,00,F7,FF,00,00,00,00
1756490211487282,00000181,false,Rx,0,8,68,10,00,E9,02,00,00,00
1756490211488374,00000213,false,Rx,0,4,08,00,00,00,00,00,00,00
1756490211488468,00000214,false,Rx,0,4,08,00,00,00,00,00,00,00
1756490211492804,00000100,false,Rx,0,6,A1,E4,D9,03,70,3B,00,00
1756490211495451,00000193,false,Rx,0,6,14,00,FD,FF,FE,FF,00,00
1756490211495592,00000188,false,Rx,0,6,BE,FF,11,00,F2,03,00,00
1756490211495743,00000288,false,Rx,0,6,00,00,00,00,00,00,00,00
1756490211495859,00000488,false,Rx,0,8,08,27,55,00,52,01,8A,00
1756490211497234,00000194,false,Rx,0,6,14,00,FD,FF,02,00,00,00
1756490211499476,00000213,false,Rx,0,4,08,00,00,00,00,00,00,00
1756490211499566,00000214,false,Rx,0,4,08,00,00,00,00,00,00,00
1756490211505229,00000193,false,Rx,0,6,14,00,08,00,FF,FF,00,00
1756490211505818,00000188,false,Rx,0,6,B6,FF,15,00,D7,03,00,00
1756490211505964,00000288,false,Rx,0,6,00,00,00,00,00,00,00,00
1756490211506078,00000488,false,Rx,0,8,08,27,55,00,52,01,8A,00
1756490211507055,00000194,false,Rx,0,6,14,00,FA,FF,02,00,00,00
1756490211509379,00000213,false,Rx,0,4,08,00,00,00,00,00,00,00
1756490211509499,00000214,false,Rx,0,4,08,00,00,00,00,00,00,00
1756490211513820,00000181,false,Rx,0,8,04,10,00,E9,02,00,00,00
1756490211515041,00000193,false,Rx,0,6,14,00,FB,FF,FF,FF,00,00
1756490211516014,00000188,false,Rx,0,6,BF,FF,14,00,E3,03,00,00
1756490211516152,00000288,false,Rx,0,6,00,00,00,00,00,00,00,00
1756490211516270,00000488,false,Rx,0,8,08,27,55,00,52,01,8A,00
1756490211516884,00000194,false,Rx,0,6,14,00,FC,FF,01,00,00,00
1756490211519274,00000213,false,Rx,0,4,08,00,00,00,00,00,00,00
1756490211519368,00000214,false,Rx,0,4,08,00,00,00,00,00,00,00
1756490211523161,00000701,false,Rx,0,1,05,00,00,00,00,00,00,00
1756490211524870,00000193,false,Rx,0,6,14,00,FE,FF,FE,FF,00,00
1756490211526216,00000188,false,Rx,0,6,C1,FF,0F,00,F4,03,00,00
1756490211526354,00000288,false,Rx,0,6,00,00,00,00,00,00,00,00
1756490211526471,00000488,false,Rx,0,8,08,27,55,00,52,01,8A,00
1756490211526696,00000394,false,Rx,0,6,6C,05,ED,01,0E,01,00,00
1756490211526793,00000294,false,Rx,0,4,3A,A2,9F,FF,00,00,00,00
1756490211526894,00000714,false,Rx,0,1,05,00,00,00,00,00,00,00
1756490211526999,00000734,false,Rx,0,8,05,00,00,20,3F,A2,9F,05
1756490211527104,00000194,false,Rx,0,6,14,00,F8,FF,02,00,00,00
1756490211527199,00000181,false,Rx,0,8,68,10,00,E9,02,00,00,00
1756490211529278,00000213,false,Rx,0,4,08,00,00,00,00,00,00,00
1756490211529379,00000214,false,Rx,0,4,08,00,00,00,00,00,00,00
1756490211534704,00000193,false,Rx,0,6,14,00,07,00,FA,FF,00,00
1756490211536423,00000188,false,Rx,0,6,B5,FF,12,00,DA,03,00,00
1756490211536548,00000194,false,Rx,0,6,14,00,FF,FF,00,00,00,00
1756490211536654,00000288,false,Rx,0,6,00,00,00,00,00,00,00,00
1756490211536750,00000488,false,Rx,0,8,08,27,55,00,52,01,8A,00
1756490211540424,00000213,false,Rx,0,4,08,00,00,00,00,00,00,00
1756490211540508,00000214,false,Rx,0,4,08,00,00,00,00,00,00,00
1756490211543740,00000181,false,Rx,0,8,04,10,00,E9,02,00,00,00
1756490211544554,00000193,false,Rx,0,6,14,00,03,00,FF,FF,00,00
1756490211546429,00000194,false,Rx,0,6,14,00,FA,FF,00,00,00,00
1756490211547804,00000188,false,Rx,0,6,BB,FF,17,00,DC,03,00,00
1756490211547915,00000288,false,Rx,0,6,00,00,00,00,00,00,00,00
1756490211548012,00000488,false,Rx,0,8,08,27,55,00,52,01,8A,00
1756490211550298,00000213,false,Rx,0,4,08,00,00,00,00,00,00,00
1756490211550391,00000214,false,Rx,0,4,08,00,00,00,00,00,00,00
1756490211554358,00000193,false,Rx,0,6,14,00,F7,FF,04,00,00,00
1756490211556197,00000194,false,Rx,0,6,14,00,FA,FF,00,00,00,00
1756490211556940,00000181,false,Rx,0,8,68,10,00,E9,02,00,00,00
1756490211557879,00000188,false,Rx,0,6,BC,FF,12,00,E1,03,00,00
1756490211557989,00000288,false,Rx,0,6,00,00,00,00,00,00,00,00
1756490211558086,00000488,false,Rx,0,8,08,27,55,00,52,01,8A,00
1756490211560199,00000213,false,Rx,0,4,08,00,00,00,00,00,00,00
1756490211560293,00000214,false,Rx,0,4,08,00,00,00,00,00,00,00
1756490211564174,00000393,false,Rx,0,6,0C,01,D5,01,07,01,00,00
1756490211564267,00000293,false,Rx,0,4,90,A2,00,00,00,00,00,00
1756490211564364,00000713,false,Rx,0,1,05,00,00,00,00,00,00,00
1756490211564462,00000733,false,Rx,0,8,02,00,00,C0,3F,A2,00,05
1756490211564566,00000193,false,Rx,0,6,14,00,00,00,00,00,00,00
1756490211566045,00000194,false,Rx,0,6,14,00,F6,FF,FC,FF,00,00
1756490211568185,00000188,false,Rx,0,6,BB,FF,0C,00,DC,03,00,00
1756490211568306,00000288,false,Rx,0,6,00,00,00,00,00,00,00,00
1756490211568408,00000488,false,Rx,0,8,08,27,55,00,52,01,8A,00
1756490211570153,00000181,false,Rx,0,8,04,10,00,E9,02,00,00,00
1756490211571200,00000213,false,Rx,0,4,08,00,00,00,00,00,00,00
1756490211571293,00000214,false,Rx,0,4,08,00,00,00,00,00,00,00
1756490211574004,00000193,false,Rx,0,6,14,00,05,00,02,00,00,00
1756490211575850,00000194,false,Rx,0,6,14,00,FA,FF,FB,FF,00,00
1756490211578221,00000188,false,Rx,0,6,C2,FF,0E,00,FF,03,00,00
1756490211578359,00000288,false,Rx,0,6,00,00,00,00,00,00,00,00
1756490211578475,00000488,false,Rx,0,8,08,27,55,00,52,01,8A,00
1756490211578712,00000190,false,Rx,0,8,00,C9,C9,C9,C9,C9,C9,C9
1756490211578837,00000190,false,Rx,0,8,07,C9,C9,C9,C9,C9,C9,C9
1756490211578961,00000190,false,Rx,0,8,0E,C9,C9,C9,C9,C9,C9,C9
1756490211581115,00000213,false,Rx,0,4,08,00,00,00,00,00,00,00
1756490211581213,00000214,false,Rx,0,4,08,00,00,00,00,00,00,00
1756490211583345,00000181,false,Rx,0,8,04,10,00,E9,02,00,00,00
1756490211583829,00000193,false,Rx,0,6,14,00,00,00,06,00,00,00
1756490211585677,00000194,false,Rx,0,6,14,00,F8,FF,00,00,00,00
1756490211588468,00000188,false,Rx,0,6,BD,FF,0C,00,ED,03,00,00
1756490211588558,00000288,false,Rx,0,6,00,00,00,00,00,00,00,00
1756490211588682,00000488,false,Rx,0,8,08,27,55,00,52,01,8A,00
1756490211591029,00000213,false,Rx,0,4,08,00,00,00,00,00,00,00
1756490211591135,00000190,false,Rx,0,8,15,C9,C9,C9,C9,C9,C9,C9
1756490211591233,00000190,false,Rx,0,8,1C,C9,C9,C9,C9,C9,C9,C9
1756490211591330,00000190,false,Rx,0,8,2A,C9,C9,C9,C9,C9,C9,C9
1756490211591446,00000190,false,Rx,0,8,31,C9,C9,C9,C9,C9,C9,C9
1756490211591563,00000190,false,Rx,0,8,38,C9,C9,C9,C9,C9,C9,C7
1756490211591678,00000190,false,Rx,0,8,3F,C9,C9,C9,C9,C9,C9,C9
1756490211591795,00000190,false,Rx,0,8,23,C9,C9,C9,C9,C9,C9,C9
1756490211591912,00000190,false,Rx,0,8,46,C9,C9,C9,C9,C9,C9,CA
1756490211592039,00000190,false,Rx,0,8,4D,C9,C9,C9,C9,C9,C9,C9
1756490211592144,00000190,false,Rx,0,8,5B,C9,C9,C9,C9,C9,C9,C9
1756490211592242,00000190,false,Rx,0,8,54,C9,C9,CA,C9,C9,C9,C9
1756490211592359,00000190,false,Rx,0,8,62,C9,C7,C9,C9,C9,C9,C9
1756490211592456,00000214,false,Rx,0,4,08,00,00,00,00,00,00,00
1756490211592553,00000390,false,Rx,0,8,00,3D,3D,3D,3D,3D,3D,3D
1756490211592670,00000390,false,Rx,0,8,07,3D,3D,3D,3D,3D,3D,3D
1756490211592787,00000390,false,Rx,0,8,0E,3D,3D,3D,3D,3D,3D,3D
1756490211592904,00000390,false,Rx,0,8,1C,3D,3D,3D,3D,13,13,13
1756490211593020,00000390,false,Rx,0,8,23,13,13,13,13,13,13,13
1756490211593137,00000390,false,Rx,0,8,2A,13,13,13,13,13,13,3D
1756490211593237,00000390,false,Rx,0,8,15,3D,3D,3D,3D,3D,3D,3D
1756490211593341,00000390,false,Rx,0,8,31,3D,3D,3D,3D,3D,3D,3D
1756490211593466,00000390,false,Rx,0,8,38,3D,3D,3D,3D,3D,3D,3D
1756490211593587,00000390,false,Rx,0,8,46,3D,3D,3D,3D,3D,3D,3D
1756490211593682,00000193,false,Rx,0,6,14,00,F7,FF,02,00,00,00
1756490211593780,00000390,false,Rx,0,8,3F,3D,3D,3D,3D,3D,3D,3D
1756490211593897,00000390,false,Rx,0,8,54,3D,3D,3D,3D,3D,3D,3D
1756490211594014,00000390,false,Rx,0,8,5B,3D,3D,3D,3D,3D,13,13
1756490211594131,00000390,false,Rx,0,8,69,3D,3D,3D,3D,3D,3D,3D
1756490211594246,00000390,false,Rx,0,8,62,13,13,13,13,13,13,3D
1756490211594364,00000390,false,Rx,0,8,70,3D,3D,3D,3D,3D,3D,3D
1756490211594480,00000390,false,Rx,0,8,77,3D,3D,3D,3D,3D,3D,3D
1756490211594603,00000390,false,Rx,0,8,85,3C,3C,3C,13,13,13,13
1756490211594707,00000390,false,Rx,0,8,7E,3D,3D,3C,3C,3C,3C,3C
1756490211594811,00000390,false,Rx,0,8,8C,13,13,13,13,13,13,13
1756490211594929,00000390,false,Rx,0,8,93,13,13,13,13,13,3D,3D
1756490211595045,00000390,false,Rx,0,8,A1,13,13,13,13,13,13,13
1756490211595161,00000390,false,Rx,0,8,A8,13,13,13,13,13,13,13
1756490211595259,00000390,false,Rx,0,8,9A,3D,3D,3D,3D,3D,3D,13
1756490211595356,00000390,false,Rx,0,8,AF,13,3D,3D,3D,3D,3D,3D
1756490211595472,00000390,false,Rx,0,8,B6,3D,3D,3D,3D,3D,3D,3D
1756490211595588,00000194,false,Rx,0,6,14,00,FA,FF,01,00,00,00
1756490211595706,00000390,false,Rx,0,8,BD,3D,3D,3D,3D,3D,3D,3D
1756490211595823,00000390,false,Rx,0,8,CB,3D,3D,3D,3D,3D,3D,3D
1756490211595955,00000390,false,Rx,0,8,D2,3D,3D,3D,3D,3D,3D,3D
1756490211596058,00000390,false,Rx,0,8,D9,3D,3D,3D,3D,3D,3D,3D
1756490211596156,00000710,false,Rx,0,1,7F,00,00,00,00,00,00,00
1756490211596550,00000181,false,Rx,0,8,68,10,00,E9,02,00,00,00
1756490211598635,00000188,false,Rx,0,6,B5,FF,18,00,D2,03,00,00
1756490211598743,00000288,false,Rx,0,6,00,00,00,00,00,00,00,00
1756490211598857,00000488,false,Rx,0,8,08,27,55,00,52,01,8A,00
1756490211600913,00000213,false,Rx,0,4,08,00,00,00,00,00,00,00
1756490211601007,00000214,false,Rx,0,4,08,00,00,00,00,00,00,00
1756490211603493,00000193,false,Rx,0,6,14,00,00,00,00,00,00,00
1756490211605335,00000194,false,Rx,0,6,14,00,F9,FF,00,00,00,00
1756490211608827,00000188,false,Rx,0,6,BE,FF,12,00,EC,03,00,00
1756490211608945,00000288,false,Rx,0,6,00,00,00,00,00,00,00,00
1756490211609070,00000488,false,Rx,0,8,08,27,55,00,52,01,8A,00
1756490211609798,00000181,false,Rx,0,8,04,10,00,EA,02,00,00,00
1756490211611931,00000213,false,Rx,0,4,08,00,00,00,00,00,00,00
1756490211612023,00000214,false,Rx,0,4,08,00,00,00,00,00,00,00
1756490211613314,00000193,false,Rx,0,6,14,00,06,00,04,00,00,00
1756490211615328,00000194,false,Rx,0,6,14,00,FD,FF,02,00,00,00
1756490211619199,00000188,false,Rx,0,6,C2,FF,0C,00,EF,03,00,00
1756490211619992,00000288,false,Rx,0,6,00,00,00,00,00,00,00,00
1756490211620200,00000488,false,Rx,0,8,08,27,55,00,52,01,8A,00
1756490211622004,00000213,false,Rx,0,4,08,00,00,00,00,00,00,00
1756490211622198,00000214,false,Rx,0,4,08,00,00,00,00,00,00,00
1756490211623123,00000181,false,Rx,0,8,68,10,00,E9,02,00,00,00
1756490211623331,00000193,false,Rx,0,6,14,00,0B,00,03,00,00,00
1756490211623529,00000701,false,Rx,0,1,05,00,00,00,00,00,00,00
1756490211625145,00000394,false,Rx,0,6,6C,05,ED,01,0E,01,00,00
1756490211625341,00000294,false,Rx,0,4,2B,A2,04,00,00,00,00,00
1756490211625471,00000004,false,Rx,0,8,00,01,00,00,00,00,00,00
1756490211625647,00000734,false,Rx,0,8,06,00,00,00,00,A2,04,05
1756490211625819,00000194,false,Rx,0,6,14,00,F7,FF,00,00,00,00
1756490211630255,00000188,false,Rx,0,6,BB,FF,16,00,E0,03,00,00
1756490211630446,00000288,false,Rx,0,6,00,00,00,00,00,00,00,00
1756490211630647,00000488,false,Rx,0,8,08,27,55,00,52,01,8A,00
1756490211631889,00000213,false,Rx,0,4,08,00,00,00,00,00,00,00
1756490211632084,00000214,false,Rx,0,4,08,00,00,00,00,00,00,00
1756490211633130,00000193,false,Rx,0,6,14,00,EA,FF,04,00,00,00
1756490211634994,00000194,false,Rx,0,6,14,00,F8,FF,04,00,00,00
1756490211640149,00000188,false,Rx,0,6,C3,FF,0D,00,F8,03,00,00
1756490211640352,00000288,false,Rx,0,6,00,00,00,00,00,00,00,00
1756490211640561,00000488,false,Rx,0,8,08,27,55,00,52,01,8A,00
1756490211642903,00000213,false,Rx,0,4,08,00,00,00,00,00,00,00
1756490211643099,00000193,false,Rx,0,6,14,00,EE,FF,FF,FF,00,00
1756490211643233,00000004,false,Rx,0,8,00,01,00,00,00,00,00,00
1756490211643402,00000214,false,Rx,0,4,08,00,00,00,00,00,00,00
1756490211644811,00000194,false,Rx,0,6,14,00,FB,FF,02,00,00,00
1756490211645261,00000290,false,Rx,0,7,01,E8,00,00,00,00,00,00
1756490211645456,00000490,false,Rx,0,5,64,00,00,00,00,00,00,00
1756490211650187,00000188,false,Rx,0,6,B6,FF,14,00,D1,03,00,00
1756490211650362,00000288,false,Rx,0,6,00,00,00,00,00,00,00,00
1756490211650496,00000004,false,Rx,0,8,00,01,00,00,00,00,00,00
1756490211650630,00000488,false,Rx,0,8,08,27,55,00,52,01,8A,00
1756490211652799,00000193,false,Rx,0,6,14,00,03,00,FD,FF,00,00
1756490211652988,00000213,false,Rx,0,4,08,00,00,00,00,00,00,00
1756490211653119,00000004,false,Rx,0,8,00,01,00,00,00,00,00,00
1756490211653256,00000214,false,Rx,0,4,08,00,00,00,00,00,00,00
1756490211653972,00000181,false,Rx,0,8,04,10,00,E9,02,00,00,00
1756490211654616,00000194,false,Rx,0,6,14,00,FE,FF,01,00,00,00
1756490211660134,00000188,false,Rx,0,6,C0,FF,17,00,E8,03,00,00
1756490211660334,00000288,false,Rx,0,6,00,00,00,00,00,00,00,00
1756490211660644,00000004,false,Rx,0,8,00,01,00,00,00,00,00,00
1756490211660777,00000488,false,Rx,0,8,08,27,55,00,52,01,8A,00
1756490211662623,00000393,false,Rx,0,6,0E,01,D5,01,07,01,00,00
1756490211662827,00000293,false,Rx,0,4,98,A2,00,00,00,00,00,00
1756490211662962,00000004,false,Rx,0,8,00,01,00,00,00,00,00,00
1756490211663137,00000214,false,Rx,0,4,08,00,00,00,00,00,00,00
1756490211663309,00000733,false,Rx,0,8,03,6F,12,03,3B,A2,00,05
1756490211663441,00000004,false,Rx,0,8,00,01,00,00,00,00,00,00
1756490211663570,00000193,false,Rx,0,6,14,00,06,00,02,00,00,00
1756490211664463,00000194,false,Rx,0,6,14,00,FE,FF,01,00,00,00
1756490211667250,00000181,false,Rx,0,8,68,10,00,E9,02,00,00,00
1756490211670117,00000188,false,Rx,0,6,C4,FF,0C,00,01,04,00,00
1756490211670319,00000288,false,Rx,0,6,00,00,00,00,00,00,00,00
1756490211670517,00000488,false,Rx,0,8,08,27,55,00,52,01,8A,00
1756490211672439,00000193,false,Rx,0,6,14,00,FD,FF,FE,FF,00,00
1756490211672739,00000213,false,Rx,0,4,08,00,00,00,00,00,00,00
1756490211672979,00000214,false,Rx,0,4,08,00,00,00,00,00,00,00
1756490211674301,00000194,false,Rx,0,6,14,00,FC,FF,06,00,00,00
1756490211680361,00000188,false,Rx,0,6,BC,FF,14,00,E1,03,00,00
1756490211680534,00000288,false,Rx,0,6,00,00,00,00,00,00,00,00
1756490211680664,00000004,false,Rx,0,8,00,01,00,00,00,00,00,00
1756490211680841,00000488,false,Rx,0,8,08,27,55,00,52,01,8A,00
1756490211682322,00000193,false,Rx,0,6,14,00,0E,00,FD,FF,00,00
1756490211683734,00000213,false,Rx,0,4,08,00,00,00,00,00,00,00
1756490211683935,00000214,false,Rx,0,4,08,00,00,00,00,00,00,00
1756490211684142,00000194,false,Rx,0,6,14,00,FE,FF,01,00,00,00
1756490211690136,00000188,false,Rx,0,6,B4,FF,13,00,D7,03,00,00
1756490211690322,00000288,false,Rx,0,6,00,00,00,00,00,00,00,00
1756490211690533,00000488,false,Rx,0,8,08,27,55,00,52,01,8A,00
1756490211692119,00000193,false,Rx,0,6,14,00,09,00,01,00,00,00
1756490211693629,00000213,false,Rx,0,4,08,00,00,00,00,00,00,00
1756490211693838,00000214,false,Rx,0,4,08,00,00,00,00,00,00,00
1756490211694037,00000194,false,Rx,0,6,14,00,FC,FF,FD,FF,00,00
1756490211694758,00000181,false,Rx,0,8,04,10,00,E9,02,00,00,00
1756490211695263,00000710,false,Rx,0,1,7F,00,00,00,00,00,00,00
1756490211700108,00000188,false,Rx,0,6,C3,FF,16,00,F3,03,00,00
1756490211700312,00000288,false,Rx,0,6,00,00,00,00,00,00,00,00
1756490211700525,00000488,false,Rx,0,8,08,27,55,00,52,01,8A,00
1756490211701923,00000193,false,Rx,0,6,14,00,FC,FF,00,00,00,00
1756490211703541,00000213,false,Rx,0,4,08,00,00,00,00,00,00,00
1756490211703734,00000214,false,Rx,0,4,08,00,00,00,00,00,00,00
1756490211703932,00000194,false,Rx,0,6,14,00,FB,FF,FE,FF,00,00
1756490211706876,00000181,false,Rx,0,8,68,10,00,E9,02,00,00,00
1756490211710295,00000188,false,Rx,0,6,BD,FF,0B,00,EA,03,00,00
1756490211710491,00000288,false,Rx,0,6,00,00,00,00,00,00,00,00
1756490211710690,00000488,false,Rx,0,8,08,27,55,00,52,01,8A,00
1756490211711748,00000193,false,Rx,0,6,14,00,F9,FF,00,00,00,00
1756490211713428,00000213,false,Rx,0,4,08,00,00,00,00,00,00,00
1756490211713637,00000214,false,Rx,0,4,08,00,00,00,00,00,00,00
1756490211713770,00000004,false,Rx,0,8,00,01,00,00,00,00,00,00
1756490211713939,00000194,false,Rx,0,6,14,00,FE,FF,01,00,00,00
1756490211720023,00000181,false,Rx,0,8,04,10,00,E9,02,00,00,00
1756490211720436,00000188,false,Rx,0,6,B4,FF,1A,00,D2,03,00,00
1756490211720612,00000288,false,Rx,0,6,00,00,00,00,00,00,00,00
1756490211720776,00000488,false,Rx,0,8,08,27,55,00,52,01,8A,00
1756490211721525,00000193,false,Rx,0,6,14,00,0D,00,FF,FF,00,00
1756490211723365,00000394,false,Rx,0,6,6C,05,ED,01,16,01,00,00
1756490211723526,00000294,false,Rx,0,4,11,A2,D0,FF,00,00,00,00
1756490211723630,00000004,false,Rx,0,8,00,01,00,00,00,00,00,00
1756490211723763,00000734,false,Rx,0,8,07,00,00,80,3F,A2,D0,05
1756490211723898,00000194,false,Rx,0,6,14,00,F9,FF,FF,FF,00,00
1756490211724002,00000004,false,Rx,0,8,00,01,00,00,00,00,00,00
1756490211724134,00000701,false,Rx,0,1,05,00,00,00,00,00,00,00
1756490211724413,00000213,false,Rx,0,4,08,00,00,00,00,00,00,00
1756490211724583,00000214,false,Rx,0,4,08,00,00,00,00,00,00,00
1756490211730649,00000188,false,Rx,0,6,BE,FF,15,00,E5,03,00,00
1756490211730816,00000288,false,Rx,0,6,00,00,00,00,00,00,00,00
1756490211730984,00000488,false,Rx,0,8,08,27,55,00,52,01,8A,00
1756490211731333,00000193,false,Rx,0,6,14,00,14,00,FF,FF,00,00
1756490211733209,00000181,false,Rx,0,8,68,10,00,E9,02,00,00,00
1756490211733379,00000194,false,Rx,0,6,14,00,FB,FF,00,00,00,00
1756490211734289,00000213,false,Rx,0,4,08,00,00,00,00,00,00,00
1756490211734449,00000214,false,Rx,0,4,08,00,00,00,00,00,00,00
1756490211740898,00000188,false,Rx,0,6,C1,FF,10,00,FC,03,00,00
1756490211741037,00000288,false,Rx,0,6,00,00,00,00,00,00,00,00
1756490211741212,00000488,false,Rx,0,8,08,27,55,00,52,01,8A,00
1756490211741322,00000193,false,Rx,0,6,14,00,02,00,01,00,00,00
1756490211741434,00000004,false,Rx,0,8,00,01,00,00,00,00,00,00
1756490211743026,00000194,false,Rx,0,6,14,00,FA,FF,00,00,00,00
1756490211744197,00000213,false,Rx,0,4,08,00,00,00,00,00,00,00
1756490211744356,00000214,false,Rx,0,4,08,00,00,00,00,00,00,00
1756490211751088,00000193,false,Rx,0,6,14,00,F3,FF,03,00,00,00
1756490211751228,00000188,false,Rx,0,6,B7,FF,14,00,DC,03,00,00
1756490211751486,00000288,false,Rx,0,6,00,00,00,00,00,00,00,00
1756490211751615,00000488,false,Rx,0,8,08,27,55,00,52,01,8A,00
1756490211751727,00000004,false,Rx,0,8,00,01,00,00,00,00,00,00
1756490211752914,00000194,false,Rx,0,6,14,00,FC,FF,FF,FF,00,00
1756490211754181,00000213,false,Rx,0,4,08,00,00,00,00,00,00,00
1756490211754327,00000214,false,Rx,0,4,08,00,00,00,00,00,00,00
1756490211760953,00000393,false,Rx,0,6,0E,01,D5,01,07,01,00,00
1756490211761115,00000293,false,Rx,0,4,AA,A2,00,00,00,00,00,00
1756490211761225,00000004,false,Rx,0,8,00,01,00,00,00,00,00,00
1756490211761338,00000733,false,Rx,0,8,04,8F,C2,F5,3F,A2,00,05
1756490211761449,00000188,false,Rx,0,6,B7,FF,10,00,DD,03,00,00
1756490211761647,00000488,false,Rx,0,8,08,27,55,00,52,01,8A,00
1756490211761757,00000004,false,Rx,0,8,00,01,00,00,00,00,00,00
1756490211762717,00000194,false,Rx,0,6,14,00,F8,FF,03,00,00,00
1756490211765321,00000213,false,Rx,0,4,08,00,00,00,00,00,00,00
1756490211765519,00000214,false,Rx,0,4,08,00,00,00,00,00,00,00
1756490211770766,00000193,false,Rx,0,6,14,00,F7,FF,02,00,00,00
1756490211771535,00000188,false,Rx,0,6,BD,FF,0E,00,F7,03,00,00
1756490211771681,00000288,false,Rx,0,6,00,00,00,00,00,00,00,00
1756490211771828,00000488,false,Rx,0,8,08,27,55,00,52,01,8A,00
1756490211772534,00000194,false,Rx,0,6,14,00,FD,FF,FE,FF,00,00
1756490211775277,00000213,false,Rx,0,4,08,00,00,00,00,00,00,00
1756490211775423,00000214,false,Rx,0,4,08,00,00,00,00,00,00,00
1756490211780738,00000193,false,Rx,0,6,14,00,FD,FF,01,00,00,00
1756490211781876,00000188,false,Rx,0,6,B6,FF,10,00,DA,03,00,00
1756490211782076,00000288,false,Rx,0,6,00,00,00,00,00,00,00,00
1756490211782217,00000004,false,Rx,0,8,00,01,00,00,00,00,00,00
1756490211782339,00000488,false,Rx,0,8,08,27,55,00,52,01,8A,00
1756490211782468,00000194,false,Rx,0,6,14,00,F7,FF,01,00,00,00
1756490211784367,00000181,false,Rx,0,8,04,10,00,E9,02,00,00,00
1756490211786605,00000213,false,Rx,0,4,08,00,00,00,00,00,00,00
1756490211786828,00000214,false,Rx,0,4,08,00,00,00,00,00,00,00
1756490211790468,00000193,false,Rx,0,6,14,00,04,00,02,00,00,00
1756490211792358,00000194,false,Rx,0,6,14,00,F8,FF,00,00,00,00
1756490211793139,00000188,false,Rx,0,6,BC,FF,17,00,DC,03,00,00
1756490211793360,00000288,false,Rx,0,6,00,00,00,00,00,00,00,00
1756490211793531,00000004,false,Rx,0,8,00,01,00,00,00,00,00,00
1756490211793671,00000488,false,Rx,0,8,08,27,55,00,52,01,8A,00
1756490211795243,00000213,false,Rx,0,4,08,00,00,00,00,00,00,00
1756490211795443,00000214,false,Rx,0,4,08,00,00,00,00,00,00,00
1756490211797338,00000181,false,Rx,0,8,68,10,00,E9,02,00,00,00
1756490211800243,00000193,false,Rx,0,6,14,00,16,00,FF,FF,00,00
1756490211802053,00000194,false,Rx,0,6,14,00,F9,FF,01,00,00,00
1756490211802942,00000188,false,Rx,0,6,BE,FF,13,00,E5,03,00,00
1756490211803082,00000288,false,Rx,0,6,00,00,00,00,00,00,00,00
1756490211803371,00000488,false,Rx,0,8,08,27,55,00,52,01,8A,00
1756490211806130,00000213,false,Rx,0,4,08,00,00,00,00,00,00,00
1756490211806290,00000214,false,Rx,0,4,08,00,00,00,00,00,00,00
1756490211806726,00000710,false,Rx,0,1,7F,00,00,00,00,00,00,00
1756490211810050,00000193,false,Rx,0,6,14,00,0C,00,02,00,00,00
1756490211811911,00000194,false,Rx,0,6,14,00,F8,FF,FC,FF,00,00
1756490211813278,00000188,false,Rx,0,6,B7,FF,14,00,CF,03,00,00
1756490211813433,00000288,false,Rx,0,6,00,00,00,00,00,00,00,00
1756490211813663,00000488,false,Rx,0,8,08,27,55,00,52,01,8A,00
1756490211816202,00000213,false,Rx,0,4,08,00,00,00,00,00,00,00
1756490211816361,00000214,false,Rx,0,4,08,00,00,00,00,00,00,00
1756490211819749,00000193,false,Rx,0,6,14,00,EE,FF,FF,FF,00,00
1756490211821549,00000394,false,Rx,0,6,6F,05,ED,01,1F,01,00,00
1756490211821640,00000294,false,Rx,0,4,2D,A2,7B,FF,00,00,00,00
1756490211821737,00000714,false,Rx,0,1,05,00,00,00,00,00,00,00
1756490211821836,00000734,false,Rx,0,8,08,00,00,80,3F,A2,7B,05
1756490211821932,00000194,false,Rx,0,6,14,00,FC,FF,FF,FF,00,00
1756490211823140,00000188,false,Rx,0,6,C2,FF,13,00,F2,03,00,00
1756490211823257,00000288,false,Rx,0,6,00,00,00,00,00,00,00,00
1756490211823357,00000488,false,Rx,0,8,08,27,55,00,52,01,8A,00
1756490211823775,00000701,false,Rx,0,1,05,00,00,00,00,00,00,00
1756490211824648,00000181,false,Rx,0,8,04,10,00,E9,02,00,00,00
1756490211825714,00000213,false,Rx,0,4,08,00,00,00,00,00,00,00
1756490211825809,00000214,false,Rx,0,4,08,00,00,00,00,00,00,00
1756490211829535,00000193,false,Rx,0,6,14,00,EC,FF,00,00,00,00
1756490211831494,00000194,false,Rx,0,6,14,00,F8,FF,FD,FF,00,00
1756490211833567,00000188,false,Rx,0,6,C1,FF,0E,00,FC,03,00,00
1756490211833835,00000288,false,Rx,0,6,00,00,00,00,00,00,00,00
1756490211834065,00000488,false,Rx,0,8,08,27,55,00,52,01,8A,00
1756490211835863,00000213,false,Rx,0,4,08,00,00,00,00,00,00,00
1756490211836043,00000214,false,Rx,0,4,08,00,00,00,00,00,00,00
1756490211836929,00000181,false,Rx,0,8,68,10,00,E9,02,00,00,00
1756490211839649,00000193,false,Rx,0,6,14,00,FD,FF,FF,FF,00,00
1756490211841414,00000194,false,Rx,0,6,14,00,F8,FF,FF,FF,00,00
1756490211843792,00000188,false,Rx,0,6,B4,FF,18,00,D0,03,00,00
1756490211843935,00000288,false,Rx,0,6,00,00,00,00,00,00,00,00
1756490211844005,00000488,false,Rx,0,8,08,27,55,00,52,01,8A,00
1756490211845466,00000290,false,Rx,0,7,01,E8,00,00,00,00,00,00
1756490211845728,00000490,false,Rx,0,5,64,00,00,00,00,00,00,00
1756490211847180,00000213,false,Rx,0,4,08,00,00,00,00,00,00,00
1756490211847333,00000214,false,Rx,0,4,08,00,00,00,00,00,00,00
1756490211849452,00000193,false,Rx,0,6,14,00,FA,FF,FB,FF,00,00
1756490211851241,00000194,false,Rx,0,6,14,00,FA,FF,FF,FF,00,00
1756490211854006,00000188,false,Rx,0,6,BE,FF,17,00,E6,03,00,00
1756490211854184,00000288,false,Rx,0,6,00,00,00,00,00,00,00,00
1756490211854325,00000488,false,Rx,0,8,08,27,55,00,52,01,8A,00
1756490211854538,00000181,false,Rx,0,8,04,10,00,E9,02,00,00,00
1756490211856696,00000213,false,Rx,0,4,08,00,00,00,00,00,00,00
1756490211856833,00000214,false,Rx,0,4,08,00,00,00,00,00,00,00
1756490211859248,00000393,false,Rx,0,6,0E,01,D5,01,07,01,00,00
1756490211859416,00000293,false,Rx,0,4,C3,A2,00,00,00,00,00,00
1756490211859501,00000004,false,Rx,0,8,00,01,00,00,00,00,00,00
1756490211859579,00000733,false,Rx,0,8,05,00,00,C0,3F,A2,00,05
1756490211859655,00000193,false,Rx,0,6,14,00,F8,FF,00,00,00,00
1756490211861071,00000194,false,Rx,0,6,14,00,FD,FF,FD,FF,00,00
1756490211864647,00000188,false,Rx,0,6,C5,FF,09,00,FA,03,00,00
1756490211864995,00000288,false,Rx,0,6,00,00,00,00,00,00,00,00
1756490211865192,00000488,false,Rx,0,8,08,27,55,00,52,01,8A,00
1756490211867663,00000213,false,Rx,0,4,08,00,00,00,00,00,00,00
1756490211867941,00000214,false,Rx,0,4,08,00,00,00,00,00,00,00
1756490211869222,00000193,false,Rx,0,6,14,00,02,00,FD,FF,00,00
1756490211870857,00000194,false,Rx,0,6,14,00,FB,FF,00,00,00,00
1756490211874395,00000188,false,Rx,0,6,BD,FF,14,00,E4,03,00,00
1756490211874549,00000181,false,Rx,0,8,68,10,00,E9,02,00,00,00
1756490211874620,00000288,false,Rx,0,6,00,00,00,00,00,00,00,00
1756490211875375,00000488,false,Rx,0,8,08,27,55,00,52,01,8A,00
1756490211877631,00000213,false,Rx,0,4,08,00,00,00,00,00,00,00
1756490211877766,00000214,false,Rx,0,4,08,00,00,00,00,00,00,00
1756490211879688,00000193,false,Rx,0,6,14,00,0E,00,FB,FF,00,00
1756490211880749,00000194,false,Rx,0,6,14,00,FE,FF,FD,FF,00,00
1756490211885589,00000188,false,Rx,0,6,C0,FF,0D,00,FC,03,00,00
1756490211885916,00000288,false,Rx,0,6,00,00,00,00,00,00,00,00
1756490211886103,00000488,false,Rx,0,8,08,27,55,00,52,01,8A,00
1756490211887832,00000213,false,Rx,0,4,08,00,00,00,00,00,00,00
1756490211888096,00000214,false,Rx,0,4,08,00,00,00,00,00,00,00
1756490211889271,00000193,false,Rx,0,6,14,00,F3,FF,FE,FF,00,00
1756490211890798,00000194,false,Rx,0,6,14,00,FF,FF,05,00,00,00
1756490211895648,00000188,false,Rx,0,6,B5,FF,13,00,E1,03,00,00
1756490211895805,00000288,false,Rx,0,6,00,00,00,00,00,00,00,00
1756490211895884,00000488,false,Rx,0,8,08,27,55,00,52,01,8A,00
1756490211897709,00000213,false,Rx,0,4,08,00,00,00,00,00,00,00
1756490211897904,00000214,false,Rx,0,4,08,00,00,00,00,00,00,00
1756490211898480,00000193,false,Rx,0,6,14,00,F7,FF,FF,FF,00,00
1756490211900304,00000194,false,Rx,0,6,14,00,FB,FF,04,00,00,00
1756490211904032,00000181,false,Rx,0,8,04,10,00,E9,02,00,00,00
1756490211905702,00000188,false,Rx,0,6,B1,FF,18,00,D8,03,00,00
1756490211905829,00000288,false,Rx,0,6,00,00,00,00,00,00,00,00
1756490211905907,00000488,false,Rx,0,8,08,27,55,00,52,01,8A,00
1756490211907344,00000213,false,Rx,0,4,08,00,00,00,00,00,00,00
1756490211907462,00000214,false,Rx,0,4,08,00,00,00,00,00,00,00
1756490211908291,00000193,false,Rx,0,6,14,00,FE,FF,FB,FF,00,00
1756490211910197,00000194,false,Rx,0,6,14,00,F3,FF,02,00,00,00
1756490211914712,00000710,false,Rx,0,1,7F,00,00,00,00,00,00,00
1756490211915692,00000188,false,Rx,0,6,BD,FF,0C,00,F3,03,00,00
1756490211915850,00000288,false,Rx,0,6,00,00,00,00,00,00,00,00
1756490211915915,00000488,false,Rx,0,8,08,27,55,00,52,01,8A,00
1756490211917133,00000181,false,Rx,0,8,68,10,00,E9,02,00,00,00
1756490211918290,00000193,false,Rx,0,6,14,00,13,00,FE,FF,00,00
1756490211918404,00000213,false,Rx,0,4,08,00,00,00,00,00,00,00
1756490211918465,00000214,false,Rx,0,4,08,00,00,00,00,00,00,00
1756490211919923,00000394,false,Rx,0,6,6F,05,ED,01,1F,01,00,00
1756490211920060,00000294,false,Rx,0,4,21,A2,24,00,00,00,00,00
1756490211920164,00000714,false,Rx,0,1,05,00,00,00,00,00,00,00
1756490211920289,00000734,false,Rx,0,8,09,00,00,00,00,A2,24,05
1756490211920355,00000194,false,Rx,0,6,14,00,F9,FF,02,00,00,00
1756490211923984,00000701,false,Rx,0,1,05,00,00,00,00,00,00,00
1756490211925891,00000188,false,Rx,0,6,BD,FF,14,00,E7,03,00,00
1756490211926003,00000288,false,Rx,0,6,00,00,00,00,00,00,00,00
1756490211926110,00000488,false,Rx,0,8,08,27,55,00,52,01,8A,00
1756490211927828,00000193,false,Rx,0,6,14,00,0F,00,FE,FF,00,00
1756490211928089,00000213,false,Rx,0,4,08,00,00,00,00,00,00,00
1756490211928188,00000214,false,Rx,0,4,08,00,00,00,00,00,00,00
1756490211929695,00000194,false,Rx,0,6,14,00,F9,FF,04,00,00,00
1756490211934747,00000181,false,Rx,0,8,04,10,00,E9,02,00,00,00
1756490211936085,00000188,false,Rx,0,6,B6,FF,15,00,D9,03,00,00
1756490211936196,00000288,false,Rx,0,6,00,00,00,00,00,00,00,00
1756490211936293,00000488,false,Rx,0,8,08,27,55,00,52,01,8A,00
1756490211937673,00000193,false,Rx,0,6,14,00,05,00,FF,FF,00,00
1756490211938006,00000213,false,Rx,0,4,08,00,00,00,00,00,00,00
1756490211938111,00000214,false,Rx,0,4,08,00,00,00,00,00,00,00
1756490211939519,00000194,false,Rx,0,6,14,00,F7,FF,00,00,00,00
1756490211946389,00000188,false,Rx,0,6,C5,FF,0A,00,F0,03,00,00
1756490211946554,00000288,false,Rx,0,6,00,00,00,00,00,00,00,00
1756490211946615,00000488,false,Rx,0,8,08,27,55,00,52,01,8A,00
1756490211947489,00000193,false,Rx,0,6,14,00,03,00,05,00,00,00
1756490211948995,00000213,false,Rx,0,4,08,00,00,00,00,00,00,00
1756490211949103,00000214,false,Rx,0,4,08,00,00,00,00,00,00,00
1756490211949325,00000194,false,Rx,0,6,14,00,F3,FF,03,00,00,00
1756490211954579,00000181,false,Rx,0,8,68,10,00,E9,02,00,00,00
1756490211956500,00000188,false,Rx,0,6,C0,FF,10,00,F3,03,00,00
1756490211956696,00000288,false,Rx,0,6,00,00,00,00,00,00,00,00
1756490211956761,00000488,false,Rx,0,8,08,27,55,00,52,01,8A,00
1756490211957291,00000393,false,Rx,0,6,0E,01,D5,01,07,01,00,00
1756490211957394,00000293,false,Rx,0,4,97,A2,00,00,00,00,00,00
1756490211957510,00000713,false,Rx,0,1,05,00,00,00,00,00,00,00
1756490211957612,00000733,false,Rx,0,8,06,6F,12,03,3B,A2,00,05
1756490211957743,00000193,false,Rx,0,6,14,00,00,00,FC,FF,00,00
1756490211958999,00000213,false,Rx,0,4,08,00,00,00,00,00,00,00
1756490211959104,00000214,false,Rx,0,4,08,00,00,00,00,00,00,00
1756490211959220,00000194,false,Rx,0,6,14,00,FF,FF,01,00,00,00
1756490211966699,00000188,false,Rx,0,6,B5,FF,18,00,CF,03,00,00
1756490211966832,00000288,false,Rx,0,6,00,00,00,00,00,00,00,00
1756490211967138,00000193,false,Rx,0,6,14,00,06,00,06,00,00,00
1756490211967999,00000488,false,Rx,0,8,08,27,55,00,52,01,8A,00
1756490211968938,00000213,false,Rx,0,4,08,00,00,00,00,00,00,00
1756490211969045,00000194,false,Rx,0,6,14,00,FF,FF,FF,FF,00,00
1756490211969143,00000214,false,Rx,0,4,08,00,00,00,00,00,00,00
1756490211976987,00000193,false,Rx,0,6,14,00,00,00,04,00,00,00
1756490211978028,00000188,false,Rx,0,6,B7,FF,18,00,DE,03,00,00
1756490211978137,00000288,false,Rx,0,6,00,00,00,00,00,00,00,00
1756490211978235,00000488,false,Rx,0,8,08,27,55,00,52,01,8A,00
1756490211978794,00000194,false,Rx,0,6,14,00,FB,FF,02,00,00,00
1756490211978900,00000213,false,Rx,0,4,08,00,00,00,00,00,00,00
1756490211979016,00000214,false,Rx,0,4,08,00,00,00,00,00,00,00
1756490211984501,00000181,false,Rx,0,8,04,10,00,E9,02,00,00,00
1756490211986813,00000193,false,Rx,0,6,14,00,0E,00,03,00,00,00
1756490211988161,00000188,false,Rx,0,6,B8,FF,16,00,DD,03,00,00
1756490211988308,00000288,false,Rx,0,6,00,00,00,00,00,00,00,00
1756490211988424,00000488,false,Rx,0,8,08,27,55,00,53,01,8A,00
1756490211988629,00000194,false,Rx,0,6,14,00,F9,FF,FC,FF,00,00
1756490211988863,00000213,false,Rx,0,4,08,00,00,00,00,00,00,00
1756490211988961,00000214,false,Rx,0,4,08,00,00,00,00,00,00,00
1756490211996621,00000193,false,Rx,0,6,14,00,1A,00,02,00,00,00
1756490211997777,00000181,false,Rx,0,8,68,10,00,E9,02,00,00,00
1756490211998264,00000188,false,Rx,0,6,C2,FF,0F,00,E4,03,00,00
1756490211998469,00000194,false,Rx,0,6,14,00,FC,FF,FA,FF,00,00
1756490211998573,00000288,false,Rx,0,6,00,00,00,00,00,00,00,00
1756490211998670,00000488,false,Rx,0,8,08,27,55,00,52,01,8A,00
1756490211999912,00000213,false,Rx,0,4,08,00,00,00,00,00,00,00
1756490212000014,00000214,false,Rx,0,4,08,00,00,00,00,00,00,00
1756490212006456,00000193,false,Rx,0,6,14,00,02,00,02,00,00,00
1756490212008327,00000194,false,Rx,0,6,14,00,FE,FF,FF,FF,00,00
1756490212008463,00000188,false,Rx,0,6,C6,FF,0C,00,F7,03,00,00
1756490212008707,00000288,false,Rx,0,6,00,00,00,00,00,00,00,00
1756490212008831,00000488,false,Rx,0,8,08,27,55,00,52,01,8A,00
1756490212009845,00000213,false,Rx,0,4,08,00,00,00,00,00,00,00
1756490212009947,00000214,false,Rx,0,4,08,00,00,00,00,00,00,00
1756490212016287,00000193,false,Rx,0,6,14,00,FB,FF,02,00,00,00
1756490212018104,00000394,false,Rx,0,6,6F,05,ED,01,16,01,00,00
1756490212018216,00000294,false,Rx,0,4,42,A2,D8,FF,00,00,00,00
1756490212018316,00000714,false,Rx,0,1,05,00,00,00,00,00,00,00
1756490212018413,00000734,false,Rx,0,8,01,00,00,C0,3F,A2,D8,05
1756490212018559,00000194,false,Rx,0,6,14,00,FD,FF,00,00,00,00
1756490212018674,00000188,false,Rx,0,6,BC,FF,11,00,DB,03,00,00
1756490212018913,00000288,false,Rx,0,6,00,00,00,00,00,00,00,00
1756490212019773,00000488,false,Rx,0,8,08,27,55,00,52,01,8A,00
1756490212019903,00000213,false,Rx,0,4,08,00,00,00,00,00,00,00
1756490212019963,00000214,false,Rx,0,4,08,00,00,00,00,00,00,00
1756490212022693,00000710,false,Rx,0,1,7F,00,00,00,00,00,00,00
1756490212024178,00000181,false,Rx,0,8,04,10,00,E9,02,00,00,00
1756490212024294,00000701,false,Rx,0,1,05,00,00,00,00,00,00,00
1756490212026107,00000193,false,Rx,0,6,14,00,02,00,04,00,00,00
1756490212027951,00000194,false,Rx,0,6,14,00,F7,FF,FD,FF,00,00
1756490212028872,00000188,false,Rx,0,6,BE,FF,16,00,DA,03,00,00
1756490212029112,00000288,false,Rx,0,6,00,00,00,00,00,00,00,00
1756490212029230,00000488,false,Rx,0,8,08,27,55,00,52,01,8A,00
1756490212030725,00000213,false,Rx,0,4,08,00,00,00,00,00,00,00
1756490212030828,00000214,false,Rx,0,4,08,00,00,00,00,00,00,00
1756490212035934,00000193,false,Rx,0,6,14,00,02,00,00,00,00,00
1756490212037378,00000181,false,Rx,0,8,68,10,00,E9,02,00,00,00
1756490212037783,00000194,false,Rx,0,6,14,00,F8,FF,02,00,00,00
1756490212039080,00000188,false,Rx,0,6,C8,FF,0A,00,FD,03,00,00
1756490212039316,00000288,false,Rx,0,6,00,00,00,00,00,00,00,00
1756490212039440,00000488,false,Rx,0,8,08,27,55,00,52,01,8A,00
1756490212040624,00000213,false,Rx,0,4,08,00,00,00,00,00,00,00
1756490212040734,00000214,false,Rx,0,4,08,00,00,00,00,00,00,00
1756490212045189,00000290,false,Rx,0,7,01,E8,00,00,00,00,00,00
1756490212045298,00000490,false,Rx,0,5,64,00,00,00,00,00,00,00
1756490212045753,00000193,false,Rx,0,6,14,00,F0,FF,FD,FF,00,00
1756490212047615,00000194,false,Rx,0,6,14,00,FC,FF,00,00,00,00
1756490212049274,00000188,false,Rx,0,6,C3,FF,0A,00,F1,03,00,00
1756490212050092,00000288,false,Rx,0,6,00,00,00,00,00,00,00,00
1756490212050223,00000488,false,Rx,0,8,08,27,55,00,52,01,8A,00
1756490212050611,00000181,false,Rx,0,8,04,10,00,E9,02,00,00,00
1756490212050714,00000213,false,Rx,0,4,08,00,00,00,00,00,00,00
1756490212050836,00000214,false,Rx,0,4,08,00,00,00,00,00,00,00
1756490212055579,00000393,false,Rx,0,6,0E,01,D5,01,07,01,00,00
1756490212055691,00000293,false,Rx,0,4,A1,A2,00,00,00,00,00,00
1756490212055788,00000713,false,Rx,0,1,05,00,00,00,00,00,00,00
1756490212055884,00000733,false,Rx,0,8,07,00,00,80,3F,A2,00,05
1756490212056001,00000193,false,Rx,0,6,14,00,05,00,05,00,00,00
1756490212057429,00000194,false,Rx,0,6,14,00,F4,FF,01,00,00,00
1756490212060126,00000188,false,Rx,0,6,C1,FF,17,00,E4,03,00,00
1756490212060292,00000288,false,Rx,0,6,00,00,00,00,00,00,00,00
1756490212060409,00000488,false,Rx,0,8,08,27,55,00,52,01,8A,00
1756490212061575,00000213,false,Rx,0,4,08,00,00,00,00,00,00,00
1756490212061680,00000214,false,Rx,0,4,08,00,00,00,00,00,00,00
1756490212063877,00000181,false,Rx,0,8,68,10,00,E9,02,00,00,00
1756490212065520,00000193,false,Rx,0,6,14,00,0C,00,FE,FF,00,00
1756490212067356,00000194,false,Rx,0,6,14,00,FA,FF,03,00,00,00
1756490212070601,00000188,false,Rx,0,6,BF,FF,0E,00,F5,03,00,00
1756490212070780,00000288,false,Rx,0,6,00,00,00,00,00,00,00,00
1756490212070844,00000488,false,Rx,0,8,08,27,55,00,52,01,8A,00
1756490212071542,00000213,false,Rx,0,4,08,00,00,00,00,00,00,00
1756490212071684,00000214,false,Rx,0,4,08,00,00,00,00,00,00,00
1756490212075333,00000193,false,Rx,0,6,14,00,0C,00,00,00,00,00
1756490212077151,00000194,false,Rx,0,6,14,00,F8,FF,00,00,00,00
1756490212080779,00000188,false,Rx,0,6,B4,FF,15,00,D3,03,00,00
1756490212080945,00000288,false,Rx,0,6,00,00,00,00,00,00,00,00
1756490212081006,00000488,false,Rx,0,8,08,27,55,00,52,01,8A,00
1756490212081563,00000213,false,Rx,0,4,08,00,00,00,00,00,00,00
1756490212081647,00000214,false,Rx,0,4,08,00,00,00,00,00,00,00
1756490212085075,00000193,false,Rx,0,6,14,00,FB,FF,FE,FF,00,00
1756490212086925,00000194,false,Rx,0,6,14,00,F8,FF,03,00,00,00
1756490212091400,00000188,false,Rx,0,6,BC,FF,17,00,E3,03,00,00
1756490212091740,00000288,false,Rx,0,6,00,00,00,00,00,00,00,00
1756490212091816,00000488,false,Rx,0,8,08,27,55,00,52,01,8A,00
1756490212091880,00000213,false,Rx,0,4,08,00,00,00,00,00,00,00
1756490212091938,00000214,false,Rx,0,4,08,00,00,00,00,00,00,00
1756490212095031,00000193,false,Rx,0,6,14,00,F7,FF,01,00,00,00
1756490212097036,00000194,false,Rx,0,6,14,00,F6,FF,03,00,00,00
1756490212101222,00000188,false,Rx,0,6,C4,FF,08,00,F9,03,00,00
1756490212101403,00000288,false,Rx,0,6,00,00,00,00,00,00,00,00
1756490212101465,00000488,false,Rx,0,8,08,27,55,00,52,01,8A,00
1756490212102525,00000213,false,Rx,0,4,08,00,00,00,00,00,00,00
1756490212103529,00000214,false,Rx,0,4,08,00,00,00,00,00,00,00
1756490212104875,00000181,false,Rx,0,8,04,10,00,E9,02,00,00,00
1756490212105095,00000193,false,Rx,0,6,14,00,01,00,FF,FF,00,00
1756490212106672,00000194,false,Rx,0,6,14,00,F8,FF,00,00,00,00
1756490212111486,00000188,false,Rx,0,6,B6,FF,16,00,D6,03,00,00
1756490212111669,00000288,false,Rx,0,6,00,00,00,00,00,00,00,00
1756490212111763,00000488,false,Rx,0,8,08,27,55,00,52,01,8A,00
1756490212112402,00000213,false,Rx,0,4,08,00,00,00,00,00,00,00
1756490212112512,00000214,false,Rx,0,4,08,00,00,00,00,00,00,00
1756490212114629,00000193,false,Rx,0,6,14,00,13,00,FD,FF,00,00
1756490212116526,00000394,false,Rx,0,6,6F,05,ED,01,0E,01,00,00
1756490212116710,00000294,false,Rx,0,4,0C,A2,B7,FF,00,00,00,00
1756490212116790,00000714,false,Rx,0,1,05,00,00,00,00,00,00,00
1756490212116859,00000734,false,Rx,0,8,02,00,00,20,3F,A2,B7,05
1756490212116930,00000004,false,Rx,0,8,00,01,00,00,00,00,00,00
1756490212116993,00000181,false,Rx,0,8,68,10,00,E9,02,00,00,00
1756490212121950,00000188,false,Rx,0,6,B7,FF,13,00,DA,03,00,00
1756490212122132,00000288,false,Rx,0,6,00,00,00,00,00,00,00,00
1756490212122225,00000488,false,Rx,0,8,08,27,55,00,52,01,8A,00
1756490212122429,00000213,false,Rx,0,4,08,00,00,00,00,00,00,00
1756490212122534,00000214,false,Rx,0,4,08,00,00,00,00,00,00,00
1756490212124465,00000701,false,Rx,0,1,05,00,00,00,00,00,00,00
1756490212124657,00000193,false,Rx,0,6,14,00,0A,00,00,00,00,00
1756490212126412,00000194,false,Rx,0,6,14,00,FA,FF,FE,FF,00,00
1756490212130763,00000710,false,Rx,0,1,7F,00,00,00,00,00,00,00
1756490212131828,00000188,false,Rx,0,6,BF,FF,15,00,F2,03,00,00
1756490212132003,00000288,false,Rx,0,6,00,00,00,00,00,00,00,00
1756490212132087,00000488,false,Rx,0,8,08,27,55,00,52,01,8A,00
1756490212132276,00000213,false,Rx,0,4,08,00,00,00,00,00,00,00
1756490212132380,00000214,false,Rx,0,4,08,00,00,00,00,00,00,00
1756490212134341,00000193,false,Rx,0,6,14,00,08,00,FE,FF,00,00
1756490212136260,00000194,false,Rx,0,6,14,00,FB,FF,FF,FF,00,00
1756490212142247,00000188,false,Rx,0,6,B7,FF,14,00,DE,03,00,00
1756490212143122,00000288,false,Rx,0,6,00,00,00,00,00,00,00,00
1756490212143525,00000488,false,Rx,0,8,08,27,55,00,52,01,8A,00
1756490212144036,00000213,false,Rx,0,4,08,00,00,00,00,00,00,00
1756490212144163,00000214,false,Rx,0,4,08,00,00,00,00,00,00,00
1756490212144229,00000193,false,Rx,0,6,14,00,09,00,01,00,00,00
1756490212144334,00000181,false,Rx,0,8,04,10,00,E9,02,00,00,00
1756490212146084,00000194,false,Rx,0,6,14,00,FB,FF,00,00,00,00
1756490212153052,00000188,false,Rx,0,6,C6,FF,06,00,F0,03,00,00
1756490212153170,00000288,false,Rx,0,6,00,00,00,00,00,00,00,00
1756490212153234,00000213,false,Rx,0,4,08,00,00,00,00,00,00,00
1756490212153293,00000214,false,Rx,0,4,08,00,00,00,00,00,00,00
1756490212153353,00000488,false,Rx,0,8,08,27,55,00,53,01,8A,00
1756490212153922,00000393,false,Rx,0,6,0E,01,D5,01,07,01,00,00
1756490212154010,00000293,false,Rx,0,4,8D,A2,00,00,00,00,00,00
1756490212154071,00000713,false,Rx,0,1,05,00,00,00,00,00,00,00
1756490212154129,00000733,false,Rx,0,8,08,00,00,80,3F,A2,00,05
1756490212154189,00000193,false,Rx,0,6,14,00,06,00,FD,FF,00,00
1756490212155733,00000194,false,Rx,0,6,14,00,FF,FF,FE,FF,00,00
1756490212157672,00000181,false,Rx,0,8,68,10,00,E9,02,00,00,00
1756490212163107,00000213,false,Rx,0,4,08,00,00,00,00,00,00,00
1756490212163273,00000188,false,Rx,0,6,BB,FF,11,00,F1,03,00,00
1756490212163383,00000214,false,Rx,0,4,08,00,00,00,00,00,00,00
1756490212163546,00000288,false,Rx,0,6,00,00,00,00,00,00,00,00
1756490212163668,00000488,false,Rx,0,8,08,27,55,00,52,01,8A,00
1756490212163730,00000193,false,Rx,0,6,14,00,F5,FF,01,00,00,00
1756490212165538,00000194,false,Rx,0,6,14,00,FE,FF,01,00,00,00
1756490212173234,00000213,false,Rx,0,4,08,00,00,00,00,00,00,00
1756490212173442,00000214,false,Rx,0,4,08,00,00,00,00,00,00,00
1756490212173563,00000188,false,Rx,0,6,B6,FF,0F,00,D0,03,00,00
1756490212173684,00000288,false,Rx,0,6,00,00,00,00,00,00,00,00
1756490212173745,00000193,false,Rx,0,6,14,00,FF,FF,02,00,00,00
1756490212173804,00000488,false,Rx,0,8,08,27,55,00,52,01,8A,00
1756490212174320,00000181,false,Rx,0,8,04,10,00,E9,02,00,00,00
1756490212175363,00000194,false,Rx,0,6,14,00,FF,FF,01,00,00,00
1756490212183459,00000193,false,Rx,0,6,14,00,0D,00,01,00,00,00
1756490212183657,00000188,false,Rx,0,6,C4,FF,13,00,F6,03,00,00
1756490212183778,00000288,false,Rx,0,6,00,00,00,00,00,00,00,00
1756490212183839,00000488,false,Rx,0,8,08,27,55,00,52,01,8A,00
1756490212184250,00000213,false,Rx,0,4,08,00,00,00,00,00,00,00
1756490212184349,00000214,false,Rx,0,4,08,00,00,00,00,00,00,00
1756490212185197,00000194,false,Rx,0,6,14,00,FD,FF,FF,FF,00,00
1756490212187655,00000181,false,Rx,0,8,68,10,00,E9,02,00,00,00
1756490212193177,00000193,false,Rx,0,6,14,00,0A,00,FF,FF,00,00
1756490212193780,00000188,false,Rx,0,6,BF,FF,16,00,F2,03,00,00
1756490212193891,00000288,false,Rx,0,6,00,00,00,00,00,00,00,00
1756490212194011,00000488,false,Rx,0,8,08,27,55,00,52,01,8A,00
1756490212194266,00000213,false,Rx,0,4,08,00,00,00,00,00,00,00
1756490212194363,00000214,false,Rx,0,4,08,00,00,00,00,00,00,00
1756490212194998,00000194,false,Rx,0,6,14,00,F9,FF,00,00,00,00
1756490212200965,00000181,false,Rx,0,8,04,10,00,E9,02,00,00,00
1756490212203006,00000193,false,Rx,0,6,14,00,11,00,03,00,00,00
1756490212203981,00000188,false,Rx,0,6,B6,FF,13,00,CB,03,00,00
1756490212204090,00000288,false,Rx,0,6,00,00,00,00,00,00,00,00
1756490212204189,00000488,false,Rx,0,8,08,27,55,00,52,01,8A,00
1756490212204291,00000213,false,Rx,0,4,08,00,00,00,00,00,00,00
1756490212204394,00000214,false,Rx,0,4,08,00,00,00,00,00,00,00
1756490212204833,00000194,false,Rx,0,6,14,00,F9,FF,00,00,00,00
1756490212212834,00000193,false,Rx,0,6,14,00,F5,FF,03,00,00,00
1756490212213064,00000181,false,Rx,0,8,68,10,00,E9,02,00,00,00
1756490212214114,00000213,false,Rx,0,4,08,00,00,00,00,00,00,00
1756490212214265,00000188,false,Rx,0,6,BF,FF,17,00,DE,03,00,00
1756490212214374,00000214,false,Rx,0,4,08,00,00,00,00,00,00,00
1756490212214493,00000288,false,Rx,0,6,00,00,00,00,00,00,00,00
1756490212214592,00000488,false,Rx,0,8,08,27,55,00,53,01,8A,00
1756490212214692,00000394,false,Rx,0,6,73,05,ED,01,16,01,00,00
1756490212214791,00000294,false,Rx,0,4,0C,A2,F8,FF,00,00,00,00
1756490212214898,00000714,false,Rx,0,1,05,00,00,00,00,00,00,00
1756490212215022,00000734,false,Rx,0,8,03,00,00,00,00,A2,F8,05
1756490212215082,00000194,false,Rx,0,6,14,00,F9,FF,FF,FF,00,00
1756490212222662,00000193,false,Rx,0,6,14,00,FB,FF,FF,FF,00,00
1756490212224108,00000213,false,Rx,0,4,08,00,00,00,00,00,00,00
1756490212224255,00000214,false,Rx,0,4,08,00,00,00,00,00,00,00
1756490212224676,00000188,false,Rx,0,6,C4,FF,0A,00,FE,03,00,00
1756490212224756,00000288,false,Rx,0,6,00,00,00,00,00,00,00,00
1756490212224816,00000194,false,Rx,0,6,14,00,FB,FF,01,00,00,00
1756490212224874,00000701,false,Rx,0,1,05,00,00,00,00,00,00,00
1756490212225535,00000488,false,Rx,0,8,08,27,55,00,53,01,8A,00
1756490212232561,00000193,false,Rx,0,6,14,00,F5,FF,02,00,00,00
1756490212234062,00000181,false,Rx,0,8,04,10,00,E9,02,00,00,00
1756490212234269,00000194,false,Rx,0,6,14,00,FA,FF,00,00,00,00
1756490212235127,00000213,false,Rx,0,4,08,00,00,00,00,00,00,00
1756490212235216,00000188,false,Rx,0,6,C1,FF,13,00,E5,03,00,00
1756490212235311,00000214,false,Rx,0,4,08,00,00,00,00,00,00,00
1756490212235404,00000288,false,Rx,0,6,00,00,00,00,00,00,00,00
1756490212235520,00000488,false,Rx,0,8,08,27,55,00,52,01,8A,00
1756490212242288,00000193,false,Rx,0,6,14,00,FC,FF,FC,FF,00,00
1756490212243120,00000710,false,Rx,0,1,7F,00,00,00,00,00,00,00
1756490212244158,00000194,false,Rx,0,6,14,00,FA,FF,FD,FF,00,00
1756490212245033,00000213,false,Rx,0,4,08,00,00,00,00,00,00,00
1756490212245140,00000214,false,Rx,0,4,08,00,00,00,00,00,00,00
1756490212245239,00000290,false,Rx,0,7,01,E8,00,00,00,00,00,00
1756490212245345,00000490,false,Rx,0,5,64,00,00,00,00,00,00,00
1756490212245514,00000188,false,Rx,0,6,C2,FF,12,00,F8,03,00,00
1756490212245642,00000288,false,Rx,0,6,00,00,00,00,00,00,00,00
1756490212245703,00000488,false,Rx,0,8,08,27,55,00,52,01,8A,00
1756490212252122,00000393,false,Rx,0,6,0E,01,D5,01,07,01,00,00
1756490212252505,00000293,false,Rx,0,4,B8,A2,00,00,00,00,00,00
1756490212252579,00000713,false,Rx,0,1,05,00,00,00,00,00,00,00
1756490212252635,00000733,false,Rx,0,8,09,00,00,00,00,A2,00,05
1756490212252695,00000193,false,Rx,0,6,14,00,FE,FF,03,00,00,00
1756490212253986,00000194,false,Rx,0,6,14,00,FC,FF,00,00,00,00
1756490212255036,00000213,false,Rx,0,4,08,00,00,00,00,00,00,00
1756490212255143,00000214,false,Rx,0,4,08,00,00,00,00,00,00,00
1756490212255570,00000188,false,Rx,0,6,BA,FF,10,00,DE,03,00,00
1756490212255690,00000288,false,Rx,0,6,00,00,00,00,00,00,00,00
1756490212255806,00000488,false,Rx,0,8,08,27,55,00,53,01,8A,00
1756490212261967,00000193,false,Rx,0,6,14,00,0A,00,FB,FF,00,00
1756490212263808,00000194,false,Rx,0,6,14,00,FF,FF,FF,FF,00,00
1756490212263934,00000181,false,Rx,0,8,68,10,00,E9,02,00,00,00
1756490212264935,00000213,false,Rx,0,4,08,00,00,00,00,00,00,00
1756490212265042,00000214,false,Rx,0,4,08,00,00,00,00,00,00,00
1756490212265799,00000188,false,Rx,0,6,B4,FF,19,00,D5,03,00,00
1756490212265926,00000288,false,Rx,0,6,00,00,00,00,00,00,00,00
1756490212266046,00000488,false,Rx,0,8,08,27,55,00,52,01,8A,00
1756490212271786,00000193,false,Rx,0,6,14,00,03,00,FD,FF,00,00
1756490212273633,00000194,false,Rx,0,6,14,00,FD,FF,FD,FF,00,00
1756490212275926,00000213,false,Rx,0,4,08,00,00,00,00,00,00,00
1756490212276035,00000188,false,Rx,0,6,C2,FF,0D,00,FA,03,00,00
1756490212276135,00000214,false,Rx,0,4,08,00,00,00,00,00,00,00
1756490212276232,00000288,false,Rx,0,6,00,00,00,00,00,00,00,00
1756490212276347,00000488,false,Rx,0,8,08,27,55,00,52,01,8A,00
1756490212277138,00000181,false,Rx,0,8,04,10,00,E9,02,00,00,00
1756490212281660,00000193,false,Rx,0,6,14,00,FA,FF,FE,FF,00,00
1756490212283468,00000194,false,Rx,0,6,14,00,FA,FF,FE,FF,00,00
1756490212285839,00000213,false,Rx,0,4,08,00,00,00,00,00,00,00
1756490212285950,00000214,false,Rx,0,4,08,00,00,00,00,00,00,00
1756490212286197,00000188,false,Rx,0,6,B8,FF,13,00,E0,03,00,00
1756490212286327,00000288,false,Rx,0,6,00,00,00,00,00,00,00,00
1756490212286445,00000488,false,Rx,0,8,08,27,55,00,53,01,8A,00
1756490212290290,00000181,false,Rx,0,8,68,10,00,E9,02,00,00,00
1756490212291438,00000193,false,Rx,0,6,14,00,FE,FF,FD,FF,00,00
1756490212293286,00000194,false,Rx,0,6,14,00,FD,FF,FF,FF,00,00
1756490212295735,00000213,false,Rx,0,4,08,00,00,00,00,00,00,00
1756490212295839,00000214,false,Rx,0,4,08,00,00,00,00,00,00,00
1756490212296386,00000188,false,Rx,0,6,B0,FF,13,00,CF,03,00,00
1756490212296507,00000288,false,Rx,0,6,00,00,00,00,00,00,00,00
1756490212296632,00000488,false,Rx,0,8,08,27,55,00,53,01,8A,00
1756490212301270,00000193,false,Rx,0,6,14,00,00,00,FE,FF,00,00
1756490212303113,00000194,false,Rx,0,6,14,00,FA,FF,FE,FF,00,00
1756490212303507,00000181,false,Rx,0,8,04,10,00,E9,02,00,00,00
1756490212306597,00000188,false,Rx,0,6,C2,FF,14,00,EB,03,00,00
1756490212306703,00000288,false,Rx,0,6,00,00,00,00,00,00,00,00
1756490212306800,00000213,false,Rx,0,4,08,00,00,00,00,00,00,00
1756490212306897,00000214,false,Rx,0,4,08,00,00,00,00,00,00,00
1756490212306997,00000488,false,Rx,0,8,08,27,55,00,53,01,8A,00
1756490212311101,00000193,false,Rx,0,6,14,00,00,00,FE,FF,00,00
1756490212312919,00000394,false,Rx,0,6,73,05,ED,01,02,01,00,00
1756490212313023,00000294,false,Rx,0,4,23,A2,49,00,00,00,00,00
1756490212313120,00000714,false,Rx,0,1,05,00,00,00,00,00,00,00
1756490212313219,00000734,false,Rx,0,8,04,66,66,66,3F,A2,49,05
1756490212313336,00000194,false,Rx,0,6,14,00,F9,FF,00,00,00,00
1756490212316696,00000181,false,Rx,0,8,04,10,00,E9,02,00,00,00
1756490212316805,00000188,false,Rx,0,6,BF,FF,0A,00,FE,03,00,00
1756490212316906,00000213,false,Rx,0,4,08,00,00,00,00,00,00,00
1756490212317003,00000214,false,Rx,0,4,08,00,00,00,00,00,00,00
1756490212317099,00000288,false,Rx,0,6,00,00,00,00,00,00,00,00
1756490212317195,00000488,false,Rx,0,8,08,27,55,00,53,01,8A,00
1756490212320922,00000193,false,Rx,0,6,14,00,FB,FF,FD,FF,00,00
1756490212322764,00000194,false,Rx,0,6,14,00,FB,FF,05,00,00,00
1756490212324632,00000701,false,Rx,0,1,05,00,00,00,00,00,00,00
1756490212326572,00000213,false,Rx,0,4,08,00,00,00,00,00,00,00
1756490212326748,00000214,false,Rx,0,4,08,00,00,00,00,00,00,00
1756490212327035,00000188,false,Rx,0,6,B3,FF,11,00,D8,03,00,00
1756490212328416,00000288,false,Rx,0,6,00,00,00,00,00,00,00,00
1756490212328516,00000488,false,Rx,0,8,08,27,55,00,53,01,8A,00
1756490212330077,00000181,false,Rx,0,8,04,10,00,E9,02,00,00,00
1756490212330760,00000193,false,Rx,0,6,14,00,F8,FF,00,00,00,00
1756490212332617,00000194,false,Rx,0,6,14,00,FB,FF,01,00,00,00
1756490212336483,00000213,false,Rx,0,4,08,00,00,00,00,00,00,00
1756490212336606,00000214,false,Rx,0,4,08,00,00,00,00,00,00,00
1756490212338426,00000188,false,Rx,0,6,C3,FF,0E,00,F7,03,00,00
1756490212338608,00000288,false,Rx,0,6,00,00,00,00,00,00,00,00
1756490212338671,00000488,false,Rx,0,8,08,27,55,00,53,01,8A,00
1756490212340615,00000193,false,Rx,0,6,14,00,12,00,03,00,00,00
1756490212342442,00000194,false,Rx,0,6,14,00,FC,FF,03,00,00,00
1756490212343112,00000181,false,Rx,0,8,68,10,00,E9,02,00,00,00
1756490212343389,00000710,false,Rx,0,1,7F,00,00,00,00,00,00,00
1756490212347536,00000213,false,Rx,0,4,08,00,00,00,00,00,00,00
1756490212347622,00000214,false,Rx,0,4,08,00,00,00,00,00,00,00
1756490212348336,00000188,false,Rx,0,6,B8,FF,12,00,E2,03,00,00
1756490212348497,00000288,false,Rx,0,6,00,00,00,00,00,00,00,00
1756490212348559,00000488,false,Rx,0,8,08,27,55,00,53,01,8A,00
1756490212350675,00000393,false,Rx,0,6,0E,01,D5,01,07,01,00,00
1756490212350860,00000293,false,Rx,0,4,A3,A2,00,00,00,00,00,00
1756490212350925,00000713,false,Rx,0,1,05,00,00,00,00,00,00,00
1756490212350983,00000733,false,Rx,0,8,01,9A,99,19,40,A2,00,05
1756490212351041,00000193,false,Rx,0,6,14,00,ED,FF,FB,FF,00,00
1756490212352270,00000194,false,Rx,0,6,14,00,FC,FF,02,00,00,00
1756490212357383,00000213,false,Rx,0,4,08,00,00,00,00,00,00,00
1756490212357534,00000214,false,Rx,0,4,08,00,00,00,00,00,00,00
1756490212358293,00000188,false,Rx,0,6,B4,FF,16,00,D6,03,00,00
1756490212358489,00000288,false,Rx,0,6,00,00,00,00,00,00,00,00
1756490212358550,00000488,false,Rx,0,8,08,27,55,00,53,01,8A,00
1756490212360353,00000193,false,Rx,0,6,14,00,F1,FF,06,00,00,00
1756490212362111,00000194,false,Rx,0,6,14,00,FC,FF,00,00,00,00
1756490212367436,00000213,false,Rx,0,4,08,00,00,00,00,00,00,00
1756490212367554,00000214,false,Rx,0,4,08,00,00,00,00,00,00,00
1756490212368507,00000188,false,Rx,0,6,C0,FF,14,00,F6,03,00,00
1756490212368711,00000288,false,Rx,0,6,00,00,00,00,00,00,00,00
1756490212368773,00000488,false,Rx,0,8,08,27,55,00,53,01,8A,00
1756490212370090,00000193,false,Rx,0,6,14,00,FB,FF,02,00,00,00
1756490212371919,00000194,false,Rx,0,6,14,00,FD,FF,01,00,00,00
1756490212373957,00000181,false,Rx,0,8,04,10,00,EA,02,00,00,00
1756490212377189,00000213,false,Rx,0,4,08,00,00,00,00,00,00,00
1756490212377315,00000214,false,Rx,0,4,08,00,00,00,00,00,00,00
1756490212378815,00000188,false,Rx,0,6,BA,FF,15,00,E1,03,00,00
1756490212379043,00000288,false,Rx,0,6,00,00,00,00,00,00,00,00
1756490212379106,00000488,false,Rx,0,8,08,27,55,00,53,01,8A,00
1756490212379886,00000193,false,Rx,0,6,14,00,04,00,03,00,00,00
1756490212381774,00000194,false,Rx,0,6,14,00,FC,FF,01,00,00,00
1756490212388250,00000213,false,Rx,0,4,08,00,00,00,00,00,00,00
1756490212388329,00000214,false,Rx,0,4,08,00,00,00,00,00,00,00
1756490212388894,00000188,false,Rx,0,6,B7,FF,19,00,DD,03,00,00
1756490212389092,00000288,false,Rx,0,6,00,00,00,00,00,00,00,00
1756490212389153,00000488,false,Rx,0,8,08,27,55,00,53,01,8A,00
1756490212389857,00000193,false,Rx,0,6,14,00,03,00,03,00,00,00
1756490212391576,00000194,false,Rx,0,6,14,00,FB,FF,FD,FF,00,00
1756490212398115,00000213,false,Rx,0,4,08,00,00,00,00,00,00,00
1756490212398237,00000214,false,Rx,0,4,08,00,00,00,00,00,00,00
1756490212399082,00000188,false,Rx,0,6,C1,FF,0D,00,F8,03,00,00
1756490212399500,00000288,false,Rx,0,6,00,00,00,00,00,00,00,00
1756490212399577,00000488,false,Rx,0,8,08,27,55,00,53,01,8A,00
1756490212399639,00000193,false,Rx,0,6,14,00,04,00,01,00,00,00
1756490212401400,00000194,false,Rx,0,6,14,00,FD,FF,00,00,00,00
1756490212404791,00000181,false,Rx,0,8,68,10,00,E9,02,00,00,00
1756490212408115,00000213,false,Rx,0,4,08,00,00,00,00,00,00,00
1756490212408192,00000214,false,Rx,0,4,08,00,00,00,00,00,00,00
1756490212409274,00000188,false,Rx,0,6,BE,FF,0E,00,ED,03,00,00
1756490212409685,00000193,false,Rx,0,6,14,00,F9,FF,07,00,00,00
1756490212409757,00000288,false,Rx,0,6,00,00,00,00,00,00,00,00
1756490212409817,00000488,false,Rx,0,8,08,27,55,00,53,01,8A,00
1756490212411214,00000394,false,Rx,0,6,73,05,ED,01,1F,01,00,00
1756490212411376,00000294,false,Rx,0,4,3A,A2,79,00,00,00,00,00
1756490212411478,00000714,false,Rx,0,1,05,00,00,00,00,00,00,00
1756490212411594,00000734,false,Rx,0,8,05,00,00,20,3F,A2,79,05
1756490212411655,00000194,false,Rx,0,6,14,00,FF,FF,FE,FF,00,00
1756490212418014,00000213,false,Rx,0,4,08,00,00,00,00,00,00,00
1756490212418131,00000214,false,Rx,0,4,08,00,00,00,00,00,00,00
1756490212419214,00000193,false,Rx,0,6,14,00,EB,FF,02,00,00,00
1756490212419476,00000188,false,Rx,0,6,B4,FF,12,00,CF,03,00,00
1756490212420369,00000288,false,Rx,0,6,00,00,00,00,00,00,00,00
1756490212420439,00000488,false,Rx,0,8,08,27,55,00,53,01,8A,00
1756490212421052,00000194,false,Rx,0,6,14,00,FD,FF,FB,FF,00,00
1756490212424905,00000701,false,Rx,0,1,05,00,00,00,00,00,00,00
1756490212429024,00000193,false,Rx,0,6,14,00,F4,FF,02,00,00,00
1756490212429202,00000213,false,Rx,0,4,08,00,00,00,00,00,00,00
1756490212429273,00000214,false,Rx,0,4,08,00,00,00,00,00,00,00
1756490212430940,00000188,false,Rx,0,6,C1,FF,0E,00,F9,03,00,00
1756490212431038,00000288,false,Rx,0,6,00,00,00,00,00,00,00,00
1756490212431101,00000488,false,Rx,0,8,08,27,55,00,53,01,8A,00
1756490212431163,00000194,false,Rx,0,6,14,00,FA,FF,FB,FF,00,00
