Time Stamp,ID,Extended,Dir,Bus,LEN,D1,D2,D3,D4,D5,D6,D7,D8,D9,D10,D11,D12
1756491004666553,00000420,false,Rx,0,1,01,00,00,00,00,00,00,00
1756491004669358,00000288,false,Rx,0,6,00,00,00,00,00,00,00,00
1756491004669455,00000188,false,Rx,0,6,BF,FF,0D,00,E3,03,00,00
1756491004669567,00000488,false,Rx,0,8,09,27,56,00,50,01,86,00
1756491004673491,00000213,false,Rx,0,4,08,00,00,00,00,00,00,00
1756491004673786,00000193,false,Rx,0,6,14,00,0A,00,02,00,00,00
1756491004674602,00000214,false,Rx,0,4,08,00,00,00,00,00,00,00
1756491004675408,00000194,false,Rx,0,6,14,00,00,00,04,00,00,00
1756491004679518,00000288,false,Rx,0,6,00,00,00,00,00,00,00,00
1756491004679631,00000188,false,Rx,0,6,B8,FF,17,00,DB,03,00,00
1756491004679747,00000488,false,Rx,0,8,09,27,55,00,50,01,86,00
1756491004683626,00000193,false,Rx,0,6,14,00,01,00,FF,FF,00,00
1756491004684496,00000213,false,Rx,0,4,08,00,00,00,00,00,00,00
1756491004685238,00000194,false,Rx,0,6,14,00,FF,FF,04,00,00,00
1756491004685589,00000214,false,Rx,0,4,08,00,00,00,00,00,00,00
1756491004686948,00000701,false,Rx,0,1,05,00,00,00,00,00,00,00
1756491004689718,00000288,false,Rx,0,6,00,00,00,00,00,00,00,00
1756491004689831,00000188,false,Rx,0,6,C2,FF,13,00,FF,03,00,00
1756491004689947,00000488,false,Rx,0,8,09,27,55,00,50,01,86,00
1756491004691145,00000181,false,Rx,0,8,04,10,00,E9,02,0E,08,09
1756491004693450,00000193,false,Rx,0,6,14,00,03,00,01,00,00,00
1756491004695065,00000194,false,Rx,0,6,14,00,01,00,04,00,00,00
1756491004695503,00000213,false,Rx,0,4,08,00,00,00,00,00,00,00
1756491004696586,00000214,false,Rx,0,4,08,00,00,00,00,00,00,00
1756491004699920,00000288,false,Rx,0,6,00,00,00,00,00,00,00,00
1756491004700653,00000188,false,Rx,0,6,BD,FF,11,00,DE,03,00,00
1756491004700767,00000488,false,Rx,0,8,09,27,55,00,50,01,86,00
1756491004703319,00000193,false,Rx,0,6,14,00,0C,00,FC,FF,00,00
1756491004704898,00000394,false,Rx,0,6,65,05,DD,01,28,01,00,00
1756491004704990,00000294,false,Rx,0,4,0A,A2,7F,FF,00,00,00,00
1756491004705086,00000714,false,Rx,0,1,05,00,00,00,00,00,00,00
1756491004705184,00000734,false,Rx,0,8,05,00,00,C0,3F,A2,7F,05
1756491004705292,00000194,false,Rx,0,6,14,00,03,00,04,00,00,00
1756491004706507,00000213,false,Rx,0,4,08,00,00,00,00,00,00,00
1756491004707601,00000214,false,Rx,0,4,08,00,00,00,00,00,00,00
1756491004710913,00000188,false,Rx,0,6,B0,FF,12,00,CD,03,00,00
1756491004711026,00000288,false,Rx,0,6,00,00,00,00,00,00,00,00
1756491004711123,00000488,false,Rx,0,8,09,27,55,00,50,01,86,00
1756491004713105,00000393,false,Rx,0,6,11,01,D5,01,07,01,00,00
1756491004713202,00000293,false,Rx,0,4,55,A2,00,00,00,00,00,00
1756491004713304,00000713,false,Rx,0,1,05,00,00,00,00,00,00,00
1756491004713398,00000733,false,Rx,0,8,07,00,00,80,3F,A2,00,05
1756491004713495,00000193,false,Rx,0,6,14,00,08,00,FC,FF,00,00
1756491004714719,00000194,false,Rx,0,6,14,00,FF,FF,03,00,00,00
1756491004717505,00000213,false,Rx,0,4,08,00,00,00,00,00,00,00
1756491004719703,00000214,false,Rx,0,4,08,00,00,00,00,00,00,00
1756491004720719,00000188,false,Rx,0,6,C2,FF,12,00,F1,03,00,00
1756491004720832,00000288,false,Rx,0,6,00,00,01,00,00,00,00,00
1756491004720948,00000488,false,Rx,0,8,09,27,55,00,50,01,86,00
1756491004722957,00000193,false,Rx,0,6,14,00,04,00,F0,FF,00,00
1756491004724019,00000710,false,Rx,0,1,7F,00,00,00,00,00,00,00
1756491004724540,00000194,false,Rx,0,6,14,00,00,00,04,00,00,00
1756491004728508,00000213,false,Rx,0,4,08,00,00,00,00,00,00,00
1756491004730741,00000181,false,Rx,0,8,68,10,00,E9,02,0E,08,09
1756491004730858,00000188,false,Rx,0,6,C1,FF,0A,00,FE,03,00,00
1756491004730955,00000214,false,Rx,0,4,08,00,00,00,00,00,00,00
1756491004731053,00000288,false,Rx,0,6,00,00,00,00,00,00,00,00
1756491004731150,00000488,false,Rx,0,8,09,27,55,00,51,01,86,00
1756491004732757,00000193,false,Rx,0,6,14,00,04,00,FD,FF,00,00
1756491004734122,00000290,false,Rx,0,7,01,E8,00,3C,9A,06,00,00
1756491004734216,00000490,false,Rx,0,5,54,00,00,00,00,00,00,00
1756491004734372,00000194,false,Rx,0,6,14,00,01,00,00,00,00,00
1756491004740616,00000213,false,Rx,0,4,08,00,00,00,00,00,00,00
1756491004740725,00000188,false,Rx,0,6,BB,FF,0F,00,C3,03,00,00
1756491004740842,00000288,false,Rx,0,6,01,00,FF,FF,00,00,00,00
1756491004740958,00000488,false,Rx,0,8,09,27,55,00,51,01,86,00
1756491004741765,00000214,false,Rx,0,4,08,00,00,00,00,00,00,00
1756491004742585,00000193,false,Rx,0,6,14,00,0C,00,FE,FF,00,00
1756491004743949,00000181,false,Rx,0,8,04,10,00,E9,02,0E,08,09
1756491004744193,00000194,false,Rx,0,6,14,00,02,00,04,00,00,00
1756491004750819,00000188,false,Rx,0,6,B9,FF,0C,00,D5,03,00,00
1756491004750929,00000288,false,Rx,0,6,00,00,00,00,00,00,00,00
1756491004751046,00000488,false,Rx,0,8,09,27,55,00,51,01,87,00
1756491004751665,00000213,false,Rx,0,4,08,00,00,00,00,00,00,00
1756491004752412,00000193,false,Rx,0,6,14,00,07,00,FF,FF,00,00
1756491004752726,00000214,false,Rx,0,4,08,00,00,00,00,00,00,00
1756491004754029,00000194,false,Rx,0,6,14,00,03,00,06,00,00,00
1756491004761027,00000188,false,Rx,0,6,C9,FF,09,00,FA,03,00,00
1756491004761123,00000288,false,Rx,0,6,01,00,00,00,00,00,00,00
1756491004761219,00000488,false,Rx,0,8,09,27,55,00,51,01,87,00
1756491004762242,00000193,false,Rx,0,6,14,00,09,00,FD,FF,00,00
1756491004762627,00000213,false,Rx,0,4,08,00,00,00,00,00,00,00
1756491004763728,00000214,false,Rx,0,4,08,00,00,00,00,00,00,00
1756491004763840,00000194,false,Rx,0,6,14,00,00,00,FF,FF,00,00
1756491004771283,00000188,false,Rx,0,6,BC,FF,11,00,D6,03,00,00
1756491004771361,00000288,false,Rx,0,6,00,00,FF,FF,00,00,00,00
1756491004771472,00000488,false,Rx,0,8,09,27,56,00,50,01,87,00
1756491004772066,00000193,false,Rx,0,6,14,00,0A,00,01,00,00,00
1756491004773625,00000213,false,Rx,0,4,08,00,00,00,00,00,00,00
1756491004773738,00000194,false,Rx,0,6,14,00,02,00,00,00,00,00
1756491004774743,00000214,false,Rx,0,4,08,00,00,00,00,00,00,00
1756491004781406,00000188,false,Rx,0,6,B8,FF,16,00,D3,03,00,00
1756491004781544,00000288,false,Rx,0,6,FF,FF,00,00,00,00,00,00
1756491004781660,00000488,false,Rx,0,8,09,27,55,00,50,01,87,00
1756491004781893,00000193,false,Rx,0,6,14,00,F5,FF,FD,FF,00,00
1756491004783514,00000194,false,Rx,0,6,14,00,03,00,FE,FF,00,00
1756491004784727,00000213,false,Rx,0,4,08,00,00,00,00,00,00,00
1756491004785829,00000214,false,Rx,0,4,08,00,00,00,00,00,00,00
1756491004787099,00000701,false,Rx,0,1,05,00,00,00,00,00,00,00
1756491004791608,00000188,false,Rx,0,6,C7,FF,10,00,FD,03,00,00
1756491004791720,00000193,false,Rx,0,6,14,00,FF,FF,02,00,00,00
1756491004791836,00000288,false,Rx,0,6,00,00,00,00,00,00,00,00
1756491004791954,00000488,false,Rx,0,8,09,27,55,00,50,01,86,00
1756491004793336,00000194,false,Rx,0,6,14,00,FF,FF,FF,FF,00,00
1756491004795836,00000213,false,Rx,0,4,08,00,00,00,00,00,00,00
1756491004796938,00000214,false,Rx,0,4,08,00,00,00,00,00,00,00
1756491004801551,00000193,false,Rx,0,6,14,00,01,00,FD,FF,00,00
1756491004801799,00000188,false,Rx,0,6,C0,FF,0A,00,EE,03,00,00
1756491004801947,00000288,false,Rx,0,6,00,00,00,00,00,00,00,00
1756491004802062,00000488,false,Rx,0,8,09,27,55,00,50,01,87,00
1756491004803177,00000394,false,Rx,0,6,65,05,CD,01,1F,01,00,00
1756491004803263,00000294,false,Rx,0,4,F6,A1,F8,FF,00,00,00,00
1756491004803356,00000714,false,Rx,0,1,05,00,00,00,00,00,00,00
1756491004803454,00000734,false,Rx,0,8,06,6F,12,03,3B,A1,F8,05
1756491004803551,00000194,false,Rx,0,6,14,00,02,00,00,00,00,00
1756491004806843,00000213,false,Rx,0,4,08,00,00,00,00,00,00,00
1756491004807940,00000214,false,Rx,0,4,08,00,00,00,00,00,00,00
1756491004811373,00000393,false,Rx,0,6,11,01,D5,01,17,01,00,00
1756491004811467,00000293,false,Rx,0,4,79,A2,00,00,00,00,00,00
1756491004811565,00000713,false,Rx,0,1,05,00,00,00,00,00,00,00
1756491004811665,00000733,false,Rx,0,8,08,00,00,80,3F,A2,00,05
1756491004811762,00000193,false,Rx,0,6,14,00,01,00,01,00,00,00
1756491004811994,00000188,false,Rx,0,6,B5,FF,16,00,D0,03,00,00
1756491004812157,00000288,false,Rx,0,6,00,00,00,00,00,00,00,00
1756491004812269,00000488,false,Rx,0,8,09,27,56,00,50,01,86,00
1756491004812984,00000194,false,Rx,0,6,14,00,02,00,00,00,00,00
1756491004817943,00000213,false,Rx,0,4,08,00,00,00,00,00,00,00
1756491004819056,00000214,false,Rx,0,4,08,00,00,00,00,00,00,00
1756491004821209,00000193,false,Rx,0,6,14,00,06,00,04,00,00,00
1756491004822236,00000188,false,Rx,0,6,C7,FF,0C,00,F3,03,00,00
1756491004822338,00000288,false,Rx,0,6,00,00,00,00,00,00,00,00
1756491004822454,00000488,false,Rx,0,8,09,27,56,00,51,01,86,00
1756491004822826,00000194,false,Rx,0,6,14,00,00,00,FE,FF,00,00
1756491004828973,00000213,false,Rx,0,4,08,00,00,00,00,00,00,00
1756491004830060,00000214,false,Rx,0,4,08,00,00,00,00,00,00,00
1756491004831029,00000193,false,Rx,0,6,14,00,02,00,00,00,00,00
1756491004831205,00000181,false,Rx,0,8,04,10,00,E9,02,0D,08,09
1756491004832003,00000710,false,Rx,0,1,7F,00,00,00,00,00,00,00
1756491004832407,00000188,false,Rx,0,6,C4,FF,0D,00,F6,03,00,00
1756491004832639,00000194,false,Rx,0,6,14,00,02,00,FF,FF,00,00
1756491004833570,00000288,false,Rx,0,6,FF,FF,00,00,00,00,00,00
1756491004833684,00000488,false,Rx,0,8,09,27,56,00,51,01,87,00
1756491004839964,00000213,false,Rx,0,4,08,00,00,00,00,00,00,00
1756491004840859,00000193,false,Rx,0,6,14,00,0D,00,02,00,00,00
1756491004841067,00000214,false,Rx,0,4,08,00,00,00,00,00,00,00
1756491004842501,00000194,false,Rx,0,6,14,00,02,00,01,00,00,00
1756491004843606,00000188,false,Rx,0,6,B7,FF,18,00,D4,03,00,00
1756491004843716,00000288,false,Rx,0,6,00,00,00,00,00,00,00,00
1756491004843815,00000488,false,Rx,0,8,09,27,56,00,51,01,87,00
1756491004850690,00000193,false,Rx,0,6,14,00,FC,FF,FD,FF,00,00
1756491004850979,00000213,false,Rx,0,4,08,00,00,00,00,00,00,00
1756491004852065,00000214,false,Rx,0,4,08,00,00,00,00,00,00,00
1756491004852296,00000194,false,Rx,0,6,14,00,01,00,01,00,00,00
1756491004853830,00000188,false,Rx,0,6,C3,FF,10,00,02,04,00,00
1756491004853944,00000288,false,Rx,0,6,00,00,00,00,00,00,00,00
1756491004854062,00000488,false,Rx,0,8,09,27,56,00,51,01,87,00
1756491004860523,00000193,false,Rx,0,6,14,00,FD,FF,FE,FF,00,00
1756491004860922,00000181,false,Rx,0,8,04,10,00,E9,02,0D,08,09
1756491004861981,00000213,false,Rx,0,4,08,00,00,00,00,00,00,00
1756491004862123,00000194,false,Rx,0,6,14,00,04,00,01,00,00,00
1756491004863084,00000214,false,Rx,0,4,08,00,00,00,00,00,00,00
1756491004864007,00000188,false,Rx,0,6,B6,FF,12,00,DD,03,00,00
1756491004864148,00000288,false,Rx,0,6,00,00,00,00,00,00,00,00
1756491004864267,00000488,false,Rx,0,8,09,27,56,00,51,01,87,00
1756491004870341,00000193,false,Rx,0,6,14,00,0A,00,00,00,00,00
1756491004871955,00000194,false,Rx,0,6,14,00,02,00,F8,FF,00,00
1756491004872998,00000213,false,Rx,0,4,08,00,00,00,00,00,00,00
1756491004874108,00000181,false,Rx,0,8,04,10,00,E9,02,0D,08,09
1756491004874227,00000188,false,Rx,0,6,B0,FF,1A,00,D1,03,00,00
1756491004874341,00000288,false,Rx,0,6,00,00,00,00,00,00,00,00
1756491004874458,00000488,false,Rx,0,8,09,27,56,00,51,01,86,00
1756491004875224,00000214,false,Rx,0,4,08,00,00,00,00,00,00,00
1756491004880179,00000193,false,Rx,0,6,14,00,11,00,FE,FF,00,00
1756491004881784,00000194,false,Rx,0,6,14,00,01,00,FF,FF,00,00
1756491004883980,00000213,false,Rx,0,4,08,00,00,00,00,00,00,00
1756491004884395,00000188,false,Rx,0,6,BA,FF,10,00,F1,03,00,00
1756491004884552,00000288,false,Rx,0,6,00,00,00,00,00,00,00,00
1756491004884670,00000488,false,Rx,0,8,09,27,56,00,51,01,86,00
1756491004886178,00000214,false,Rx,0,4,08,00,00,00,00,00,00,00
1756491004887337,00000181,false,Rx,0,8,04,10,00,E9,02,0C,07,09
1756491004887556,00000701,false,Rx,0,1,05,00,00,00,00,00,00,00
1756491004889995,00000193,false,Rx,0,6,14,00,F4,FF,FE,FF,00,00
1756491004891611,00000194,false,Rx,0,6,14,00,04,00,FE,FF,00,00
1756491004894603,00000188,false,Rx,0,6,C0,FF,14,00,F7,03,00,00
1756491004894748,00000288,false,Rx,0,6,00,00,00,00,00,00,00,00
1756491004894866,00000488,false,Rx,0,8,09,27,56,00,51,01,86,00
1756491004896086,00000213,false,Rx,0,4,08,00,00,00,00,00,00,00
1756491004897182,00000214,false,Rx,0,4,08,00,00,00,00,00,00,00
1756491004899825,00000193,false,Rx,0,6,14,00,F9,FF,00,00,00,00
1756491004900533,00000181,false,Rx,0,8,04,10,00,E9,02,0A,06,07
1756491004901435,00000394,false,Rx,0,6,65,05,DD,01,16,01,00,00
1756491004901529,00000294,false,Rx,0,4,FE,A1,B3,FF,00,00,00,00
1756491004901624,00000714,false,Rx,0,1,05,00,00,00,00,00,00,00
1756491004901723,00000734,false,Rx,0,8,07,00,00,80,3F,A1,B3,05
1756491004901821,00000194,false,Rx,0,6,14,00,05,00,FF,FF,00,00
1756491004904806,00000188,false,Rx,0,6,B2,FF,0E,00,CB,03,00,00
1756491004904949,00000288,false,Rx,0,6,00,00,FF,FF,01,00,00,00
1756491004905066,00000488,false,Rx,0,8,09,27,56,00,51,01,86,00
1756491004907086,00000213,false,Rx,0,4,08,00,00,00,00,00,00,00
1756491004908187,00000214,false,Rx,0,4,08,00,00,00,00,00,00,00
1756491004909643,00000393,false,Rx,0,6,11,01,D5,01,17,01,00,00
1756491004909739,00000293,false,Rx,0,4,63,A2,00,00,00,00,00,00
1756491004909837,00000713,false,Rx,0,1,05,00,00,00,00,00,00,00
1756491004909935,00000733,false,Rx,0,8,09,00,00,00,00,A2,00,05
1756491004910037,00000193,false,Rx,0,6,14,00,10,00,00,00,00,00
1756491004911268,00000194,false,Rx,0,6,14,00,04,00,FD,FF,00,00
1756491004913759,00000181,false,Rx,0,8,04,10,00,E9,02,09,05,06
1756491004915711,00000188,false,Rx,0,6,BE,FF,10,00,E0,03,00,00
1756491004915806,00000288,false,Rx,0,6,00,00,00,00,00,00,00,00
1756491004915905,00000488,false,Rx,0,8,09,27,56,00,51,01,87,00
1756491004918095,00000213,false,Rx,0,4,08,00,00,00,00,00,00,00
1756491004919224,00000214,false,Rx,0,4,08,00,00,00,00,00,00,00
1756491004919478,00000193,false,Rx,0,6,14,00,FE,FF,03,00,00,00
1756491004921092,00000194,false,Rx,0,6,14,00,03,00,03,00,00,00
1756491004925838,00000188,false,Rx,0,6,BB,FF,12,00,D2,03,00,00
1756491004925944,00000288,false,Rx,0,6,00,00,01,00,00,00,00,00
1756491004926062,00000488,false,Rx,0,8,09,27,56,00,51,01,87,00
1756491004926990,00000181,false,Rx,0,8,04,10,00,E9,02,08,05,06
1756491004929100,00000213,false,Rx,0,4,08,00,00,00,00,00,00,00
1756491004929294,00000193,false,Rx,0,6,14,00,0F,00,FD,FF,00,00
1756491004930218,00000214,false,Rx,0,4,08,00,00,00,00,00,00,00
1756491004930915,00000194,false,Rx,0,6,14,00,04,00,FF,FF,00,00
1756491004932013,00000710,false,Rx,0,1,7F,00,00,00,00,00,00,00
1756491004934164,00000290,false,Rx,0,7,01,E8,00,3C,9A,06,00,00
1756491004934259,00000490,false,Rx,0,5,54,00,00,00,00,00,00,00
1756491004936009,00000188,false,Rx,0,6,C2,FF,15,00,D8,03,00,00
1756491004936150,00000288,false,Rx,0,6,00,00,01,00,00,00,00,00
1756491004936268,00000488,false,Rx,0,8,09,27,56,00,51,01,87,00
1756491004939133,00000193,false,Rx,0,6,14,00,FD,FF,FF,FF,00,00
1756491004940159,00000181,false,Rx,0,8,68,10,00,E9,02,07,04,05
1756491004940252,00000213,false,Rx,0,4,08,00,00,00,00,00,00,00
1756491004940742,00000194,false,Rx,0,6,14,00,08,00,01,00,00,00
1756491004941220,00000214,false,Rx,0,4,08,00,00,00,00,00,00,00
1756491004946221,00000188,false,Rx,0,6,D2,FF,13,00,06,04,00,00
1756491004946367,00000288,false,Rx,0,6,00,00,00,00,00,00,00,00
1756491004946481,00000488,false,Rx,0,8,09,27,56,00,51,01,86,00
1756491004948956,00000193,false,Rx,0,6,14,00,07,00,FD,FF,00,00
1756491004950574,00000194,false,Rx,0,6,14,00,03,00,FF,FF,00,00
1756491004951126,00000213,false,Rx,0,4,08,00,00,00,00,00,00,00
1756491004952211,00000214,false,Rx,0,4,08,00,00,00,00,00,00,00
1756491004953345,00000181,false,Rx,0,8,04,10,00,E9,02,06,03,04
1756491004956414,00000188,false,Rx,0,6,BD,FF,13,00,EB,03,00,00
1756491004956553,00000288,false,Rx,0,6,00,00,00,00,00,00,00,00
1756491004956677,00000488,false,Rx,0,8,09,27,56,00,51,01,86,00
1756491004958789,00000193,false,Rx,0,6,14,00,F3,FF,FB,FF,00,00
1756491004960404,00000194,false,Rx,0,6,14,00,05,00,03,00,00,00
1756491004962110,00000213,false,Rx,0,4,08,00,00,00,00,00,00,00
1756491004963216,00000214,false,Rx,0,4,08,00,00,00,00,00,00,00
1756491004966550,00000181,false,Rx,0,8,04,10,00,E9,02,00,02,03
1756491004966644,00000188,false,Rx,0,6,B0,FF,23,00,DE,03,00,00
1756491004966742,00000288,false,Rx,0,6,01,00,00,00,00,00,00,00
1756491004966858,00000488,false,Rx,0,8,09,27,56,00,51,01,87,00
1756491004968614,00000193,false,Rx,0,6,14,00,FA,FF,FB,FF,00,00
1756491004970230,00000194,false,Rx,0,6,14,00,08,00,08,00,00,00
1756491004973133,00000213,false,Rx,0,4,08,00,00,00,00,00,00,00
1756491004974248,00000214,false,Rx,0,4,08,00,00,00,00,00,00,00
1756491004976816,00000188,false,Rx,0,6,B9,FF,18,00,F4,03,00,00
1756491004976950,00000288,false,Rx,0,6,00,00,01,00,00,00,00,00
1756491004977077,00000488,false,Rx,0,8,09,27,56,00,51,01,87,00
1756491004978482,00000193,false,Rx,0,6,14,00,F2,FF,FF,FF,00,00
1756491004979772,00000181,false,Rx,0,8,04,10,00,E9,02,00,01,02
1756491004980058,00000194,false,Rx,0,6,14,00,02,00,08,00,00,00
1756491004984127,00000213,false,Rx,0,4,08,00,00,00,00,00,00,00
1756491004985227,00000214,false,Rx,0,4,08,00,00,00,00,00,00,00
1756491004987013,00000188,false,Rx,0,6,B9,FF,10,00,F5,03,00,00
1756491004987182,00000288,false,Rx,0,6,00,00,00,00,00,00,00,00
1756491004987301,00000488,false,Rx,0,8,09,27,56,00,51,01,87,00
1756491004987786,00000701,false,Rx,0,1,05,00,00,00,00,00,00,00
1756491004988267,00000193,false,Rx,0,6,14,00,FE,FF,FA,FF,00,00
1756491004989888,00000194,false,Rx,0,6,14,00,05,00,FF,FF,00,00
1756491004991882,00000181,false,Rx,0,8,04,10,00,E9,02,00,01,02
1756491004995138,00000213,false,Rx,0,4,08,00,00,00,00,00,00,00
1756491004997212,00000188,false,Rx,0,6,B1,FF,1B,00,DC,03,00,00
1756491004997352,00000288,false,Rx,0,6,FF,FF,00,00,00,00,00,00
1756491004997451,00000214,false,Rx,0,4,08,00,00,00,00,00,00,00
1756491004997554,00000488,false,Rx,0,8,09,27,56,00,51,01,87,00
1756491004998091,00000193,false,Rx,0,6,14,00,02,00,FC,FF,00,00
1756491004999709,00000394,false,Rx,0,6,65,05,CD,01,16,01,00,00
1756491004999806,00000294,false,Rx,0,4,02,A2,08,00,00,00,00,00
1756491004999910,00000714,false,Rx,0,1,05,00,00,00,00,00,00,00
1756491005000006,00000734,false,Rx,0,8,08,00,00,80,3F,A2,08,05
1756491005000101,00000194,false,Rx,0,6,14,00,03,00,02,00,00,00
1756491005005076,00000181,false,Rx,0,8,04,10,00,E9,02,00,01,02
1756491005007237,00000213,false,Rx,0,4,08,00,00,00,00,00,00,00
1756491005007396,00000188,false,Rx,0,6,B8,FF,18,00,DB,03,00,00
1756491005007911,00000393,false,Rx,0,6,11,01,D5,01,0F,01,00,00
1756491005008014,00000293,false,Rx,0,4,46,A2,00,00,00,00,00,00
1756491005008112,00000713,false,Rx,0,1,05,00,00,00,00,00,00,00
1756491005008210,00000733,false,Rx,0,8,01,9A,99,19,40,A2,00,05
1756491005008308,00000193,false,Rx,0,6,14,00,F5,FF,FD,FF,00,00
1756491005008407,00000214,false,Rx,0,4,08,00,00,00,00,00,00,00
1756491005008769,00000288,false,Rx,0,6,00,00,00,00,00,00,00,00
1756491005008886,00000488,false,Rx,0,8,09,27,56,00,51,01,87,00
1756491005009537,00000194,false,Rx,0,6,14,00,02,00,04,00,00,00
1756491005017753,00000193,false,Rx,0,6,14,00,F7,FF,FD,FF,00,00
1756491005018289,00000181,false,Rx,0,8,68,10,00,E9,02,00,00,02
1756491005018393,00000213,false,Rx,0,4,08,00,00,00,00,00,00,00
1756491005018777,00000188,false,Rx,0,6,BD,FF,06,00,CB,03,00,00
1756491005018890,00000288,false,Rx,0,6,00,00,00,00,00,00,00,00
1756491005019008,00000488,false,Rx,0,8,09,27,56,00,51,01,87,00
1756491005019368,00000194,false,Rx,0,6,14,00,06,00,01,00,00,00
1756491005019465,00000214,false,Rx,0,4,08,00,00,00,00,00,00,00
1756491005027613,00000193,false,Rx,0,6,14,00,08,00,F9,FF,00,00
1756491005028851,00000188,false,Rx,0,6,BD,FF,0E,00,D4,03,00,00
1756491005029055,00000288,false,Rx,0,6,00,00,FF,FF,00,00,00,00
1756491005029170,00000488,false,Rx,0,8,09,27,56,00,51,01,87,00
1756491005029286,00000194,false,Rx,0,6,14,00,02,00,04,00,00,00
1756491005029391,00000213,false,Rx,0,4,08,00,00,00,00,00,00,00
1756491005030478,00000214,false,Rx,0,4,08,00,00,00,00,00,00,00
1756491005031585,00000181,false,Rx,0,8,04,10,00,E9,02,00,00,01
1756491005032124,00000710,false,Rx,0,1,7F,00,00,00,00,00,00,00
1756491005037461,00000193,false,Rx,0,6,14,00,F9,FF,FB,FF,00,00
1756491005039024,00000188,false,Rx,0,6,C0,FF,05,00,FD,03,00,00
1756491005039135,00000194,false,Rx,0,6,14,00,07,00,00,00,00,00
1756491005039255,00000288,false,Rx,0,6,00,00,FF,FF,00,00,00,00
1756491005039375,00000488,false,Rx,0,8,09,27,56,00,51,01,87,00
1756491005040419,00000213,false,Rx,0,4,08,00,00,00,00,00,00,00
1756491005041495,00000214,false,Rx,0,4,08,00,00,00,00,00,00,00
1756491005047244,00000193,false,Rx,0,6,14,00,F9,FF,F8,FF,00,00
1756491005048854,00000194,false,Rx,0,6,14,00,03,00,00,00,00,00
1756491005049212,00000188,false,Rx,0,6,B6,FF,06,00,E0,03,00,00
1756491005049449,00000288,false,Rx,0,6,00,00,00,00,00,00,00,00
1756491005049567,00000488,false,Rx,0,8,09,27,56,00,51,01,87,00
1756491005051361,00000213,false,Rx,0,4,08,00,00,00,00,00,00,00
1756491005052460,00000214,false,Rx,0,4,08,00,00,00,00,00,00,00
1756491005057065,00000193,false,Rx,0,6,14,00,FD,FF,01,00,00,00
1756491005058676,00000194,false,Rx,0,6,14,00,06,00,01,00,00,00
1756491005059416,00000188,false,Rx,0,6,B0,FF,15,00,D7,03,00,00
1756491005059652,00000288,false,Rx,0,6,00,00,01,00,00,00,00,00
1756491005059770,00000488,false,Rx,0,8,08,27,56,00,52,01,87,00
1756491005062364,00000213,false,Rx,0,4,08,00,00,00,00,00,00,00
1756491005063467,00000214,false,Rx,0,4,08,00,00,00,00,00,00,00
1756491005066907,00000193,false,Rx,0,6,14,00,0D,00,F7,FF,00,00
1756491005068513,00000194,false,Rx,0,6,14,00,02,00,00,00,00,00
1756491005069615,00000188,false,Rx,0,6,C5,FF,09,00,FB,03,00,00
1756491005069862,00000288,false,Rx,0,6,00,00,00,00,00,00,00,00
1756491005069980,00000488,false,Rx,0,8,08,27,56,00,52,01,87,00
1756491005073371,00000213,false,Rx,0,4,08,00,00,00,00,00,00,00
1756491005074468,00000214,false,Rx,0,4,08,00,00,00,00,00,00,00
1756491005076715,00000193,false,Rx,0,6,14,00,FB,FF,FE,FF,00,00
1756491005078333,00000194,false,Rx,0,6,14,00,03,00,01,00,00,00
1756491005079815,00000188,false,Rx,0,6,CD,FF,09,00,FF,03,00,00
1756491005080050,00000288,false,Rx,0,6,00,00,00,00,00,00,00,00
1756491005080166,00000488,false,Rx,0,8,08,27,55,00,52,01,87,00
1756491005084385,00000213,false,Rx,0,4,08,00,00,00,00,00,00,00
1756491005085493,00000214,false,Rx,0,4,08,00,00,00,00,00,00,00
1756491005086549,00000193,false,Rx,0,6,14,00,FC,FF,02,00,00,00
1756491005088045,00000701,false,Rx,0,1,05,00,00,00,00,00,00,00
1756491005088157,00000194,false,Rx,0,6,14,00,03,00,01,00,00,00
1756491005090020,00000188,false,Rx,0,6,BE,FF,06,00,D0,03,00,00
1756491005090821,00000288,false,Rx,0,6,FF,FF,00,00,00,00,00,00
1756491005090938,00000488,false,Rx,0,8,08,27,55,00,52,01,87,00
1756491005091061,00000181,false,Rx,0,8,68,10,00,E9,02,00,00,01
1756491005095380,00000213,false,Rx,0,4,08,00,00,00,00,00,00,00
1756491005096367,00000193,false,Rx,0,6,14,00,07,00,01,00,00,00
1756491005096482,00000214,false,Rx,0,4,08,00,00,00,00,00,00,00
1756491005097982,00000394,false,Rx,0,6,65,05,CD,01,1F,01,00,00
1756491005098080,00000294,false,Rx,0,4,DD,A1,0C,00,00,00,00,00
1756491005098176,00000714,false,Rx,0,1,05,00,00,00,00,00,00,00
1756491005098273,00000734,false,Rx,0,8,09,00,00,00,00,A1,0C,05
1756491005098371,00000194,false,Rx,0,6,14,00,02,00,FF,FF,00,00
1756491005101113,00000188,false,Rx,0,6,C5,FF,15,00,F5,03,00,00
1756491005101233,00000288,false,Rx,0,6,00,00,00,00,00,00,00,00
1756491005101299,00000488,false,Rx,0,8,09,27,55,00,52,01,86,00
1756491005106683,00000393,false,Rx,0,6,11,01,D5,01,0F,01,00,00
1756491005107055,00000293,false,Rx,0,4,6E,A2,00,00,00,00,00,00
1756491005107151,00000004,false,Rx,0,8,00,01,00,00,00,00,00,00
1756491005107306,00000213,false,Rx,0,4,08,00,00,00,00,00,00,00
1756491005107463,00000733,false,Rx,0,8,02,00,00,C0,3F,A2,00,05
1756491005107651,00000193,false,Rx,0,6,14,00,10,00,00,00,00,00
1756491005107868,00000004,false,Rx,0,8,00,01,00,00,00,00,00,00
1756491005107957,00000214,false,Rx,0,4,08,00,00,00,00,00,00,00
1756491005108027,00000194,false,Rx,0,6,14,00,01,00,00,00,00,00
1756491005108442,00000400,false,Rx,0,8,FE,C8,E8,0E,BD,B0,6F,48
1756491005108827,00000401,false,Rx,0,2,23,00,00,00,00,00,00,00
1756491005109153,00000410,false,Rx,0,8,D2,91,5C,FE,43,FA,31,40
1756491005109576,00000411,false,Rx,0,8,00,00,00,00,00,00,00,00
1756491005109882,00000412,false,Rx,0,8,00,00,00,00,00,00,00,00
1756491005110188,00000413,false,Rx,0,8,00,00,00,00,00,00,00,00
1756491005110564,00000414,false,Rx,0,8,D2,91,5C,FE,43,FA,31,40
1756491005110960,00000415,false,Rx,0,8,00,00,00,00,00,00,00,00
1756491005111640,00000188,false,Rx,0,6,B6,FF,1A,00,D1,03,00,00
1756491005112125,00000416,false,Rx,0,8,00,00,00,00,00,00,00,00
1756491005112318,00000288,false,Rx,0,6,01,00,00,00,00,00,00,00
1756491005112445,00000488,false,Rx,0,8,09,27,55,00,52,01,86,00
1756491005112555,00000417,false,Rx,0,8,00,00,00,00,00,00,00,00
1756491005114748,00000418,false,Rx,0,8,D2,91,5C,FE,43,FA,71,40
1756491005114925,00000419,false,Rx,0,8,01,00,00,00,00,00,00,00
1756491005115093,00000400,false,Rx,0,8,FE,C8,E8,0E,BD,B0,6F,48
1756491005115343,00000401,false,Rx,0,2,00,00,00,00,00,00,00,00
1756491005115683,00000410,false,Rx,0,8,00,00,00,00,00,00,00,00
1756491005115986,00000411,false,Rx,0,8,00,00,00,00,00,00,00,00
1756491005116118,00000193,false,Rx,0,6,14,00,09,00,FA,FF,00,00
1756491005116447,00000412,false,Rx,0,8,00,00,00,00,00,00,00,00
1756491005116778,00000413,false,Rx,0,8,00,00,00,00,00,00,00,00
1756491005117887,00000414,false,Rx,0,8,00,00,00,00,00,00,00,00
1756491005119883,00000213,false,Rx,0,4,08,00,00,00,00,00,00,00
1756491005120196,00000194,false,Rx,0,6,14,00,02,00,01,00,00,00
1756491005120336,00000415,false,Rx,0,8,00,00,00,00,00,00,00,00
1756491005120576,00000416,false,Rx,0,8,00,00,00,00,00,00,00,00
1756491005120651,00000214,false,Rx,0,4,08,00,00,00,00,00,00,00
1756491005120836,00000417,false,Rx,0,8,00,00,00,00,00,00,00,00
1756491005120954,00000418,false,Rx,0,8,00,00,00,00,00,00,00,00
1756491005121727,00000419,false,Rx,0,8,00,00,00,00,00,00,00,00
1756491005122449,00000402,false,Rx,0,8,00,00,00,00,00,00,00,00
1756491005122674,00000403,false,Rx,0,8,00,00,00,00,00,00,00,00
1756491005123078,00000404,false,Rx,0,8,00,00,00,00,00,00,00,00
1756491005123320,00000405,false,Rx,0,8,00,00,00,00,00,00,00,00
1756491005123435,00000188,false,Rx,0,6,C4,FF,0C,00,F5,03,00,00
1756491005123527,00000288,false,Rx,0,6,00,00,00,00,00,00,00,00
1756491005123607,00000406,false,Rx,0,8,00,00,00,00,00,00,00,00
1756491005123689,00000488,false,Rx,0,8,09,27,55,00,52,01,86,00
1756491005123765,00000407,false,Rx,0,8,00,00,00,00,00,00,00,00
1756491005123847,00000408,false,Rx,0,8,00,00,00,00,00,00,00,00
1756491005126014,00000193,false,Rx,0,6,14,00,02,00,05,00,00,00
1756491005127586,00000194,false,Rx,0,6,14,00,00,00,FB,FF,00,00
1756491005128554,00000213,false,Rx,0,4,08,00,00,00,00,00,00,00
1756491005130710,00000214,false,Rx,0,4,08,00,00,00,00,00,00,00
1756491005131496,00000188,false,Rx,0,6,C3,FF,16,00,E8,03,00,00
1756491005131857,00000288,false,Rx,0,6,00,00,00,00,00,00,00,00
1756491005132052,00000488,false,Rx,0,8,09,27,55,00,51,01,86,00
1756491005132119,00000710,false,Rx,0,1,7F,00,00,00,00,00,00,00
1756491005134567,00000290,false,Rx,0,7,01,E8,00,80,F1,00,00,00
1756491005134687,00000490,false,Rx,0,5,5E,00,00,00,00,00,00,00
1756491005135899,00000193,false,Rx,0,6,14,00,0C,00,08,00,00,00
1756491005137369,00000194,false,Rx,0,6,14,00,00,00,FF,FF,00,00
1756491005140678,00000213,false,Rx,0,4,08,00,00,00,00,00,00,00
1756491005141678,00000188,false,Rx,0,6,BA,FF,10,00,D2,03,00,00
1756491005141847,00000214,false,Rx,0,4,08,00,00,00,00,00,00,00
1756491005141947,00000288,false,Rx,0,6,00,00,00,00,00,00,00,00
1756491005142008,00000488,false,Rx,0,8,09,27,56,00,51,01,86,00
1756491005145861,00000193,false,Rx,0,6,14,00,FC,FF,05,00,00,00
1756491005147263,00000194,false,Rx,0,6,14,00,00,00,F9,FF,00,00
1756491005151975,00000181,false,Rx,0,8,04,10,00,E9,02,00,00,01
1756491005152338,00000213,false,Rx,0,4,08,00,00,00,00,00,00,00
1756491005152408,00000188,false,Rx,0,6,BA,FF,0E,00,E0,03,00,00
1756491005152468,00000288,false,Rx,0,6,FF,FF,02,00,00,00,00,00
1756491005152574,00000488,false,Rx,0,8,09,27,56,00,52,01,86,00
1756491005152731,00000214,false,Rx,0,4,08,00,00,00,00,00,00,00
1756491005155440,00000193,false,Rx,0,6,14,00,01,00,05,00,00,00
1756491005157116,00000194,false,Rx,0,6,14,00,02,00,FA,FF,00,00
1756491005162597,00000188,false,Rx,0,6,C4,FF,14,00,F6,03,00,00
1756491005162728,00000288,false,Rx,0,6,FF,FF,00,00,00,00,00,00
1756491005162789,00000488,false,Rx,0,8,08,27,56,00,52,01,86,00
1756491005162851,00000213,false,Rx,0,4,08,00,00,00,00,00,00,00
1756491005163693,00000214,false,Rx,0,4,08,00,00,00,00,00,00,00
1756491005165236,00000193,false,Rx,0,6,14,00,FF,FF,07,00,00,00
1756491005166914,00000194,false,Rx,0,6,14,00,01,00,FF,FF,00,00
1756491005172422,00000188,false,Rx,0,6,BF,FF,10,00,E7,03,00,00
1756491005172628,00000288,false,Rx,0,6,00,00,00,00,00,00,00,00
1756491005172701,00000488,false,Rx,0,8,09,27,55,00,52,01,86,00
1756491005173709,00000213,false,Rx,0,4,08,00,00,00,00,00,00,00
1756491005174718,00000214,false,Rx,0,4,08,00,00,00,00,00,00,00
1756491005175037,00000193,false,Rx,0,6,14,00,0A,00,FF,FF,00,00
1756491005176911,00000194,false,Rx,0,6,14,00,00,00,FA,FF,00,00
1756491005182566,00000188,false,Rx,0,6,BA,FF,16,00,D1,03,00,00
1756491005182880,00000288,false,Rx,0,6,00,00,00,00,00,00,00,00
1756491005182951,00000488,false,Rx,0,8,09,27,55,00,52,01,86,00
1756491005184594,00000213,false,Rx,0,4,08,00,00,00,00,00,00,00
1756491005184863,00000193,false,Rx,0,6,14,00,02,00,03,00,00,00
1756491005185708,00000214,false,Rx,0,4,08,00,00,00,00,00,00,00
1756491005186566,00000194,false,Rx,0,6,14,00,01,00,FD,FF,00,00
1756491005188355,00000701,false,Rx,0,1,05,00,00,00,00,00,00,00
1756491005192685,00000188,false,Rx,0,6,BE,FF,0A,00,E1,03,00,00
1756491005193792,00000288,false,Rx,0,6,00,00,00,00,00,00,00,00
1756491005193929,00000488,false,Rx,0,8,09,27,55,00,52,01,86,00
1756491005194694,00000193,false,Rx,0,6,14,00,02,00,FE,FF,00,00
1756491005195607,00000213,false,Rx,0,4,08,00,00,00,00,00,00,00
1756491005196363,00000394,false,Rx,0,6,69,05,DD,01,1F,01,00,00
1756491005196487,00000294,false,Rx,0,4,F2,A1,97,FF,00,00,00,00
1756491005196587,00000714,false,Rx,0,1,05,00,00,00,00,00,00,00
1756491005196684,00000734,false,Rx,0,8,01,9A,99,19,40,A1,97,05
1756491005196785,00000194,false,Rx,0,6,14,00,00,00,FE,FF,00,00
1756491005196844,00000214,false,Rx,0,4,08,00,00,00,00,00,00,00
1756491005203872,00000188,false,Rx,0,6,B7,FF,11,00,D2,03,00,00
1756491005204007,00000288,false,Rx,0,6,FF,FF,00,00,00,00,00,00
1756491005204068,00000488,false,Rx,0,8,09,27,55,00,52,01,86,00
1756491005204514,00000393,false,Rx,0,6,11,01,D5,01,0F,01,00,00
1756491005204679,00000293,false,Rx,0,4,53,A2,00,00,00,00,00,00
1756491005204779,00000713,false,Rx,0,1,05,00,00,00,00,00,00,00
1756491005204897,00000733,false,Rx,0,8,03,6F,12,03,3B,A2,00,05
1756491005204957,00000193,false,Rx,0,6,14,00,01,00,03,00,00,00
1756491005206148,00000194,false,Rx,0,6,14,00,03,00,00,00,00,00
1756491005206590,00000213,false,Rx,0,4,08,00,00,00,00,00,00,00
1756491005207692,00000214,false,Rx,0,4,08,00,00,00,00,00,00,00
1756491005213984,00000188,false,Rx,0,6,BE,FF,16,00,E7,03,00,00
1756491005214190,00000288,false,Rx,0,6,00,00,01,00,00,00,00,00
1756491005214310,00000488,false,Rx,0,8,09,27,55,00,52,01,87,00
1756491005214373,00000193,false,Rx,0,6,14,00,FF,FF,07,00,00,00
1756491005215996,00000194,false,Rx,0,6,14,00,00,00,FF,FF,00,00
1756491005217603,00000213,false,Rx,0,4,08,00,00,00,00,00,00,00
1756491005218705,00000214,false,Rx,0,4,08,00,00,00,00,00,00,00
1756491005220940,00000181,false,Rx,0,8,68,10,00,E9,02,00,00,00
1756491005224232,00000188,false,Rx,0,6,C5,FF,0F,00,FC,03,00,00
1756491005224362,00000193,false,Rx,0,6,14,00,00,00,FF,FF,00,00
1756491005224464,00000288,false,Rx,0,6,01,00,00,00,00,00,00,00
1756491005224523,00000488,false,Rx,0,8,09,27,55,00,52,01,87,00
1756491005225818,00000194,false,Rx,0,6,14,00,00,00,02,00,00,00
1756491005228707,00000213,false,Rx,0,4,08,00,00,00,00,00,00,00
1756491005229802,00000214,false,Rx,0,4,08,00,00,00,00,00,00,00
1756491005232148,00000710,false,Rx,0,1,7F,00,00,00,00,00,00,00
1756491005234013,00000193,false,Rx,0,6,14,00,05,00,02,00,00,00
1756491005234384,00000181,false,Rx,0,8,04,10,00,E9,02,00,00,00
1756491005234657,00000188,false,Rx,0,6,BC,FF,13,00,E5,03,00,00
1756491005234720,00000288,false,Rx,0,6,01,00,00,00,00,00,00,00
1756491005234779,00000488,false,Rx,0,8,09,27,55,00,51,01,87,00
1756491005235618,00000194,false,Rx,0,6,14,00,04,00,00,00,00,00
1756491005239709,00000213,false,Rx,0,4,08,00,00,00,00,00,00,00
1756491005240806,00000214,false,Rx,0,4,08,00,00,00,00,00,00,00
1756491005243845,00000193,false,Rx,0,6,14,00,09,00,FE,FF,00,00
1756491005244658,00000188,false,Rx,0,6,AF,FF,19,00,D8,03,00,00
1756491005244796,00000288,false,Rx,0,6,00,00,FF,FF,00,00,00,00
1756491005244858,00000488,false,Rx,0,8,09,27,55,00,51,01,87,00
1756491005245538,00000194,false,Rx,0,6,14,00,01,00,04,00,00,00
1756491005247448,00000181,false,Rx,0,8,68,10,00,E9,02,00,00,00
1756491005250710,00000213,false,Rx,0,4,08,00,00,00,00,00,00,00
1756491005251813,00000214,false,Rx,0,4,08,00,00,00,00,00,00,00
1756491005253665,00000193,false,Rx,0,6,14,00,F3,FF,01,00,00,00
1756491005254778,00000188,false,Rx,0,6,C0,FF,16,00,F2,03,00,00
1756491005255130,00000288,false,Rx,0,6,00,00,00,00,00,00,00,00
1756491005255397,00000488,false,Rx,0,8,09,27,55,00,51,01,86,00
1756491005255464,00000194,false,Rx,0,6,14,00,01,00,04,00,00,00
1756491005261740,00000213,false,Rx,0,4,08,00,00,00,00,00,00,00
1756491005263622,00000193,false,Rx,0,6,14,00,FD,FF,00,00,00,00
1756491005263927,00000214,false,Rx,0,4,08,00,00,00,00,00,00,00
1756491005264986,00000188,false,Rx,0,6,BE,FF,1B,00,EE,03,00,00
1756491005265146,00000194,false,Rx,0,6,14,00,01,00,03,00,00,00
1756491005265265,00000288,false,Rx,0,6,00,00,00,00,00,00,00,00
1756491005265326,00000488,false,Rx,0,8,09,27,55,00,51,01,86,00
1756491005273332,00000193,false,Rx,0,6,14,00,F7,FF,FF,FF,00,00
1756491005273819,00000213,false,Rx,0,4,08,00,00,00,00,00,00,00
1756491005274922,00000194,false,Rx,0,6,14,00,01,00,05,00,00,00
1756491005275127,00000214,false,Rx,0,4,08,00,00,00,00,00,00,00
1756491005275223,00000188,false,Rx,0,6,AF,FF,1A,00,C8,03,00,00
1756491005275986,00000288,false,Rx,0,6,00,00,00,00,01,00,00,00
1756491005276114,00000488,false,Rx,0,8,09,27,55,00,51,01,86,00
