Time Stamp,ID,Extended,Dir,Bus,LEN,D1,D2,D3,D4,D5,D6,D7,D8,D9,D10,D11,D12
1756488290998327,00000281,false,Rx,0,1,60,00,00,00,00,00,00,00
1756488290999395,00000701,false,Rx,0,1,05,00,00,00,00,00,00,00
1756488291000117,00000213,false,Rx,0,4,08,00,00,00,00,00,00,00
1756488291000211,00000214,false,Rx,0,4,08,00,00,00,00,00,00,00
1756488291001885,00000188,false,Rx,0,6,BD,FF,14,00,DB,03,00,00
1756488291002026,00000288,false,Rx,0,6,00,00,00,00,00,00,00,00
1756488291002144,00000488,false,Rx,0,8,0A,27,55,00,4B,01,0D,00
1756488291002888,00000194,false,Rx,0,6,14,00,00,00,FF,FF,00,00
1756488291006282,00000193,false,Rx,0,6,14,00,FE,FF,FA,FF,00,00
1756488291010017,00000213,false,Rx,0,4,08,00,00,00,00,00,00,00
1756488291010109,00000214,false,Rx,0,4,08,00,00,00,00,00,00,00
1756488291012067,00000188,false,Rx,0,6,C1,FF,13,00,E7,03,00,00
1756488291012715,00000194,false,Rx,0,6,14,00,03,00,03,00,00,00
1756488291012889,00000288,false,Rx,0,6,00,00,00,00,00,00,00,00
1756488291013006,00000488,false,Rx,0,8,0A,27,55,00,4B,01,0D,00
1756488291014455,00000181,false,Rx,0,8,04,10,00,E9,02,00,00,00
1756488291016097,00000193,false,Rx,0,6,14,00,06,00,FD,FF,00,00
1756488291019929,00000213,false,Rx,0,4,08,00,00,00,00,00,00,00
1756488291020021,00000214,false,Rx,0,4,08,00,00,00,00,00,00,00
1756488291022562,00000194,false,Rx,0,6,14,00,FA,FF,03,00,00,00
1756488291022971,00000188,false,Rx,0,6,BE,FF,1C,00,E0,03,00,00
1756488291023063,00000288,false,Rx,0,6,00,00,00,00,00,00,00,00
1756488291023208,00000488,false,Rx,0,8,0A,27,55,00,4B,01,0D,00
1756488291025938,00000193,false,Rx,0,6,14,00,FF,FF,02,00,00,00
1756488291027667,00000181,false,Rx,0,8,04,10,00,E9,02,00,00,00
1756488291030923,00000213,false,Rx,0,4,08,00,00,00,00,00,00,00
1756488291031015,00000214,false,Rx,0,4,08,00,00,00,00,00,00,00
1756488291032368,00000194,false,Rx,0,6,14,00,FB,FF,00,00,00,00
1756488291033282,00000188,false,Rx,0,6,C4,FF,0C,00,EF,03,00,00
1756488291033397,00000288,false,Rx,0,6,00,00,00,00,00,00,00,00
1756488291033543,00000488,false,Rx,0,8,0A,27,55,00,4B,01,0D,00
1756488291035763,00000193,false,Rx,0,6,14,00,FC,FF,00,00,00,00
1756488291040603,00000710,false,Rx,0,1,7F,00,00,00,00,00,00,00
1756488291040820,00000213,false,Rx,0,4,08,00,00,00,00,00,00,00
1756488291040917,00000214,false,Rx,0,4,08,00,00,00,00,00,00,00
1756488291042199,00000194,false,Rx,0,6,14,00,02,00,FD,FF,00,00
1756488291043470,00000188,false,Rx,0,6,C2,FF,13,00,E4,03,00,00
1756488291043617,00000288,false,Rx,0,6,00,00,00,00,00,00,00,00
1756488291043733,00000488,false,Rx,0,8,0A,27,55,00,4B,01,0D,00
1756488291045585,00000193,false,Rx,0,6,14,00,FB,FF,F8,FF,00,00
1756488291050740,00000213,false,Rx,0,4,08,00,00,00,00,00,00,00
1756488291050830,00000214,false,Rx,0,4,08,00,00,00,00,00,00,00
1756488291052023,00000194,false,Rx,0,6,14,00,FE,FF,02,00,00,00
1756488291053669,00000188,false,Rx,0,6,B9,FF,13,00,DC,03,00,00
1756488291053811,00000288,false,Rx,0,6,00,00,00,00,00,00,00,00
1756488291053933,00000488,false,Rx,0,8,0A,27,55,00,4B,01,0D,00
1756488291055406,00000193,false,Rx,0,6,14,00,01,00,03,00,00,00
1756488291061735,00000213,false,Rx,0,4,08,00,00,00,00,00,00,00
1756488291061830,00000214,false,Rx,0,4,08,00,00,00,00,00,00,00
1756488291061928,00000194,false,Rx,0,6,14,00,FF,FF,FE,FF,00,00
1756488291063228,00000290,false,Rx,0,7,01,E8,00,00,00,00,00,00
1756488291063321,00000490,false,Rx,0,5,64,00,00,00,00,00,00,00
1756488291063859,00000188,false,Rx,0,6,C5,FF,11,00,ED,03,00,00
1756488291064010,00000288,false,Rx,0,6,00,00,00,00,00,00,00,00
1756488291064128,00000488,false,Rx,0,8,0A,27,55,00,4B,01,0D,00
1756488291065231,00000393,false,Rx,0,6,0E,01,D5,01,0F,01,00,00
1756488291065327,00000293,false,Rx,0,4,4F,A3,00,00,00,00,00,00
1756488291065428,00000713,false,Rx,0,1,05,00,00,00,00,00,00,00
1756488291065555,00000733,false,Rx,0,8,03,6F,12,03,3B,A3,00,05
1756488291065638,00000193,false,Rx,0,6,14,00,F9,FF,02,00,00,00
1756488291071648,00000213,false,Rx,0,4,08,00,00,00,00,00,00,00
1756488291071738,00000214,false,Rx,0,4,08,00,00,00,00,00,00,00
1756488291071835,00000394,false,Rx,0,6,69,05,DD,01,16,01,00,00
1756488291071934,00000294,false,Rx,0,4,EC,A2,1C,00,00,00,00,00
1756488291072034,00000714,false,Rx,0,1,05,00,00,00,00,00,00,00
1756488291072133,00000734,false,Rx,0,8,08,00,00,80,3F,A2,1C,05
1756488291072233,00000194,false,Rx,0,6,14,00,02,00,FF,FF,00,00
1756488291074075,00000188,false,Rx,0,6,C1,FF,0C,00,F1,03,00,00
1756488291074214,00000288,false,Rx,0,6,00,00,00,00,00,00,00,00
1756488291074332,00000488,false,Rx,0,8,0A,27,55,00,4B,01,0D,00
1756488291075062,00000193,false,Rx,0,6,14,00,FD,FF,03,00,00,00
1756488291081506,00000194,false,Rx,0,6,14,00,FE,FF,FE,FF,00,00
1756488291081594,00000213,false,Rx,0,4,08,00,00,00,00,00,00,00
1756488291081704,00000214,false,Rx,0,4,08,00,00,00,00,00,00,00
1756488291084271,00000188,false,Rx,0,6,B6,FF,11,00,D2,03,00,00
1756488291084412,00000288,false,Rx,0,6,00,00,00,00,00,00,00,00
1756488291084530,00000488,false,Rx,0,8,0A,27,55,00,4B,01,0D,00
1756488291084885,00000193,false,Rx,0,6,14,00,F9,FF,01,00,00,00
1756488291091335,00000194,false,Rx,0,6,14,00,00,00,FF,FF,00,00
1756488291091449,00000213,false,Rx,0,4,08,00,00,00,00,00,00,00
1756488291091565,00000214,false,Rx,0,4,08,00,00,00,00,00,00,00
1756488291094474,00000188,false,Rx,0,6,BF,FF,15,00,E9,03,00,00
1756488291094613,00000288,false,Rx,0,6,00,00,00,00,00,00,00,00
1756488291094730,00000193,false,Rx,0,6,14,00,10,00,FC,FF,00,00
1756488291094829,00000488,false,Rx,0,8,0A,27,55,00,4B,01,0D,00
1756488291099517,00000701,false,Rx,0,1,05,00,00,00,00,00,00,00
1756488291101158,00000194,false,Rx,0,6,14,00,FD,FF,FF,FF,00,00
1756488291102455,00000213,false,Rx,0,4,08,00,00,00,00,00,00,00
1756488291102555,00000214,false,Rx,0,4,08,00,00,00,00,00,00,00
1756488291104544,00000193,false,Rx,0,6,14,00,09,00,08,00,00,00
1756488291104659,00000188,false,Rx,0,6,BF,FF,0A,00,FA,03,00,00
1756488291105984,00000288,false,Rx,0,6,00,00,00,00,00,00,00,00
1756488291106101,00000488,false,Rx,0,8,0A,27,55,00,4B,01,0D,00
1756488291110990,00000194,false,Rx,0,6,14,00,02,00,FD,FF,00,00
1756488291112353,00000213,false,Rx,0,4,08,00,00,00,00,00,00,00
1756488291112448,00000214,false,Rx,0,4,08,00,00,00,00,00,00,00
1756488291114373,00000193,false,Rx,0,6,14,00,F8,FF,FF,FF,00,00
1756488291114607,00000181,false,Rx,0,8,04,10,00,E9,02,00,00,00
1756488291115982,00000188,false,Rx,0,6,C2,FF,13,00,EA,03,00,00
1756488291116099,00000288,false,Rx,0,6,00,00,00,00,00,00,00,00
1756488291116217,00000488,false,Rx,0,8,0A,27,55,00,4B,01,0D,00
1756488291120828,00000194,false,Rx,0,6,14,00,FC,FF,FC,FF,00,00
1756488291122263,00000213,false,Rx,0,4,08,00,00,00,00,00,00,00
1756488291122357,00000214,false,Rx,0,4,08,00,00,00,00,00,00,00
1756488291124230,00000193,false,Rx,0,6,14,00,13,00,FF,FF,00,00
1756488291126196,00000188,false,Rx,0,6,BF,FF,04,00,F0,03,00,00
1756488291126306,00000288,false,Rx,0,6,00,00,00,00,00,00,00,00
1756488291126421,00000488,false,Rx,0,8,0A,27,55,00,4B,01,0D,00
1756488291127802,00000181,false,Rx,0,8,04,10,00,E9,02,00,00,00
1756488291130645,00000194,false,Rx,0,6,14,00,FF,FF,01,00,00,00
1756488291133264,00000213,false,Rx,0,4,08,00,00,00,00,00,00,00
1756488291133359,00000214,false,Rx,0,4,08,00,00,00,00,00,00,00
1756488291134028,00000193,false,Rx,0,6,14,00,09,00,01,00,00,00
1756488291136381,00000188,false,Rx,0,6,B3,FF,0D,00,DB,03,00,00
1756488291136519,00000288,false,Rx,0,6,00,00,00,00,00,00,00,00
1756488291136637,00000488,false,Rx,0,8,0A,27,55,00,4B,01,0D,00
1756488291140468,00000194,false,Rx,0,6,14,00,FE,FF,02,00,00,00
1756488291143177,00000213,false,Rx,0,4,08,00,00,00,00,00,00,00
1756488291143273,00000214,false,Rx,0,4,08,00,00,00,00,00,00,00
1756488291143848,00000193,false,Rx,0,6,14,00,FD,FF,05,00,00,00
1756488291146578,00000188,false,Rx,0,6,BD,FF,1F,00,EF,03,00,00
1756488291146722,00000288,false,Rx,0,6,00,00,00,00,00,00,00,00
1756488291146836,00000488,false,Rx,0,8,0A,27,55,00,4B,01,0D,00
1756488291148589,00000710,false,Rx,0,1,7F,00,00,00,00,00,00,00
1756488291150294,00000194,false,Rx,0,6,14,00,FC,FF,02,00,00,00
1756488291153070,00000213,false,Rx,0,4,08,00,00,00,00,00,00,00
1756488291153166,00000214,false,Rx,0,4,08,00,00,00,00,00,00,00
1756488291153696,00000193,false,Rx,0,6,14,00,FE,FF,01,00,00,00
1756488291156783,00000188,false,Rx,0,6,C7,FF,0A,00,FB,03,00,00
1756488291156921,00000288,false,Rx,0,6,00,00,00,00,00,00,00,00
1756488291157040,00000488,false,Rx,0,8,0A,27,55,00,4B,01,0D,00
1756488291160124,00000194,false,Rx,0,6,14,00,FE,FF,01,00,00,00
1756488291163001,00000213,false,Rx,0,4,08,00,00,00,00,00,00,00
1756488291163096,00000214,false,Rx,0,4,08,00,00,00,00,00,00,00
1756488291163500,00000393,false,Rx,0,6,0E,01,D5,01,0F,01,00,00
1756488291163598,00000293,false,Rx,0,4,82,A3,00,00,00,00,00,00
1756488291163697,00000713,false,Rx,0,1,05,00,00,00,00,00,00,00
1756488291163794,00000733,false,Rx,0,8,04,8F,C2,F5,3F,A3,00,05
1756488291163892,00000193,false,Rx,0,6,14,00,14,00,FE,FF,00,00
1756488291166983,00000188,false,Rx,0,6,BE,FF,08,00,DE,03,00,00
1756488291167123,00000288,false,Rx,0,6,00,00,00,00,00,00,00,00
1756488291167240,00000488,false,Rx,0,8,0A,27,55,00,4B,01,0D,00
1756488291170095,00000100,false,Rx,0,6,60,97,BC,03,70,3B,00,00
1756488291170395,00000394,false,Rx,0,6,6C,05,DD,01,31,01,00,00
1756488291170590,00000294,false,Rx,0,4,E7,A2,AF,FF,00,00,00,00
1756488291171932,00000714,false,Rx,0,1,05,00,00,00,00,00,00,00
1756488291172176,00000734,false,Rx,0,8,09,00,00,00,00,A2,AF,05
1756488291172281,00000194,false,Rx,0,6,14,00,FF,FF,00,00,00,00
1756488291173733,00000193,false,Rx,0,6,14,00,01,00,FA,FF,00,00
1756488291174034,00000213,false,Rx,0,4,08,00,00,00,00,00,00,00
1756488291174139,00000214,false,Rx,0,4,08,00,00,00,00,00,00,00
1756488291177237,00000188,false,Rx,0,6,BA,FF,19,00,D7,03,00,00
1756488291178129,00000288,false,Rx,0,6,00,00,00,00,00,00,00,00
1756488291178204,00000488,false,Rx,0,8,0A,27,55,00,4B,01,0D,00
1756488291180079,00000194,false,Rx,0,6,14,00,FF,FF,FC,FF,00,00
1756488291183478,00000193,false,Rx,0,6,14,00,00,00,FC,FF,00,00
1756488291184088,00000181,false,Rx,0,8,A0,0F,00,E9,02,00,00,00
1756488291184272,00000213,false,Rx,0,4,08,00,00,00,00,00,00,00
1756488291184332,00000214,false,Rx,0,4,08,00,00,00,00,00,00,00
1756488291188062,00000188,false,Rx,0,6,BD,FF,0E,00,E6,03,00,00
1756488291188258,00000288,false,Rx,0,6,00,00,00,00,00,00,00,00
1756488291188321,00000488,false,Rx,0,8,0A,27,55,00,4B,01,0D,00
1756488291189908,00000194,false,Rx,0,6,14,00,04,00,FC,FF,00,00
1756488291193293,00000193,false,Rx,0,6,14,00,05,00,00,00,00,00
1756488291193858,00000213,false,Rx,0,4,08,00,00,00,00,00,00,00
1756488291193978,00000214,false,Rx,0,4,08,00,00,00,00,00,00,00
1756488291197289,00000181,false,Rx,0,8,04,10,00,E9,02,00,00,00
1756488291198248,00000188,false,Rx,0,6,BA,FF,19,00,D3,03,00,00
1756488291198382,00000288,false,Rx,0,6,00,00,00,00,00,00,00,00
1756488291198654,00000488,false,Rx,0,8,0A,27,55,00,4B,01,0D,00
1756488291199709,00000194,false,Rx,0,6,14,00,FE,FF,FF,FF,00,00
1756488291199968,00000701,false,Rx,0,1,05,00,00,00,00,00,00,00
1756488291203120,00000193,false,Rx,0,6,14,00,10,00,01,00,00,00
1756488291203759,00000213,false,Rx,0,4,08,00,00,00,00,00,00,00
1756488291203873,00000214,false,Rx,0,4,08,00,00,00,00,00,00,00
1756488291208442,00000188,false,Rx,0,6,C3,FF,0A,00,EE,03,00,00
1756488291208648,00000288,false,Rx,0,6,00,00,00,00,00,00,00,00
1756488291208710,00000488,false,Rx,0,8,0A,27,55,00,4B,01,0D,00
1756488291209583,00000194,false,Rx,0,6,14,00,01,00,FE,FF,00,00
1756488291213000,00000193,false,Rx,0,6,14,00,13,00,08,00,00,00
1756488291214742,00000213,false,Rx,0,4,08,00,00,00,00,00,00,00
1756488291214859,00000214,false,Rx,0,4,08,00,00,00,00,00,00,00
1756488291218654,00000188,false,Rx,0,6,B8,FF,10,00,EB,03,00,00
1756488291218999,00000288,false,Rx,0,6,00,00,00,00,00,00,00,00
1756488291219076,00000488,false,Rx,0,8,0A,27,55,00,4B,01,0D,00
1756488291219370,00000194,false,Rx,0,6,14,00,04,00,FE,FF,00,00
1756488291222842,00000193,false,Rx,0,6,14,00,04,00,08,00,00,00
1756488291224778,00000181,false,Rx,0,8,04,10,00,E9,02,00,00,00
1756488291224938,00000213,false,Rx,0,4,08,00,00,00,00,00,00,00
1756488291224998,00000214,false,Rx,0,4,08,00,00,00,00,00,00,00
1756488291229124,00000188,false,Rx,0,6,BD,FF,11,00,D8,03,00,00
1756488291229289,00000288,false,Rx,0,6,00,00,00,00,00,00,00,00
1756488291229394,00000488,false,Rx,0,8,0A,27,55,00,4B,01,0D,00
1756488291229480,00000194,false,Rx,0,6,14,00,00,00,FE,FF,00,00
1756488291230414,00000400,false,Rx,0,8,53,C8,E8,0E,DD,B3,6F,48
1756488291230544,00000401,false,Rx,0,2,26,00,00,00,00,00,00,00
1756488291231191,00000410,false,Rx,0,8,E1,7A,14,AE,47,E1,2C,40
1756488291231468,00000411,false,Rx,0,8,00,00,00,00,00,00,00,00
1756488291231772,00000412,false,Rx,0,8,00,00,00,00,00,00,00,00
1756488291232144,00000413,false,Rx,0,8,00,00,00,00,00,00,00,00
1756488291232789,00000193,false,Rx,0,6,14,00,00,00,03,00,00,00
1756488291232957,00000414,false,Rx,0,8,E1,7A,14,AE,47,E1,2C,40
1756488291233043,00000415,false,Rx,0,8,00,00,00,00,00,00,00,00
1756488291233420,00000416,false,Rx,0,8,00,00,00,00,00,00,00,00
1756488291234263,00000417,false,Rx,0,8,00,00,00,00,00,00,00,00
1756488291234458,00000418,false,Rx,0,8,E1,7A,14,AE,47,E1,6C,40
1756488291234623,00000213,false,Rx,0,4,08,00,00,00,00,00,00,00
1756488291234726,00000214,false,Rx,0,4,08,00,00,00,00,00,00,00
1756488291235449,00000419,false,Rx,0,8,01,00,00,00,00,00,00,00
1756488291238011,00000181,false,Rx,0,8,04,10,00,E9,02,00,00,00
1756488291239371,00000400,false,Rx,0,8,53,C8,E8,0E,DD,B3,6F,48
1756488291239734,00000401,false,Rx,0,2,00,00,00,00,00,00,00,00
1756488291239864,00000410,false,Rx,0,8,00,00,00,00,00,00,00,00
1756488291239946,00000411,false,Rx,0,8,00,00,00,00,00,00,00,00
1756488291240020,00000188,false,Rx,0,6,BF,FF,0C,00,E0,03,00,00
1756488291240090,00000194,false,Rx,0,6,14,00,FD,FF,03,00,00,00
1756488291240161,00000288,false,Rx,0,6,00,00,00,00,00,00,00,00
1756488291242011,00000488,false,Rx,0,8,0A,27,55,00,4B,01,0D,00
1756488291243183,00000412,false,Rx,0,8,00,00,00,00,00,00,00,00
1756488291243952,00000413,false,Rx,0,8,00,00,00,00,00,00,00,00
1756488291244898,00000414,false,Rx,0,8,00,00,00,00,00,00,00,00
1756488291245018,00000415,false,Rx,0,8,00,00,00,00,00,00,00,00
1756488291245093,00000416,false,Rx,0,8,00,00,00,00,00,00,00,00
1756488291245164,00000417,false,Rx,0,8,00,00,00,00,00,00,00,00
1756488291245237,00000418,false,Rx,0,8,00,00,00,00,00,00,00,00
1756488291245311,00000193,false,Rx,0,6,14,00,07,00,04,00,00,00
1756488291245926,00000419,false,Rx,0,8,00,00,00,00,00,00,00,00
1756488291246153,00000402,false,Rx,0,8,FB,FF,FF,FF,00,00,00,00
1756488291246279,00000403,false,Rx,0,8,00,00,00,00,00,00,00,00
1756488291246372,00000404,false,Rx,0,8,00,00,00,00,00,00,00,00
1756488291246447,00000405,false,Rx,0,8,00,00,00,00,00,00,00,00
1756488291246514,00000406,false,Rx,0,8,00,00,00,00,00,00,00,00
1756488291246578,00000407,false,Rx,0,8,00,00,00,00,00,00,00,00
1756488291246639,00000408,false,Rx,0,8,05,00,00,00,00,00,00,00
1756488291246704,00000213,false,Rx,0,4,08,00,00,00,00,00,00,00
1756488291246779,00000214,false,Rx,0,4,08,00,00,00,00,00,00,00
1756488291248926,00000194,false,Rx,0,6,14,00,01,00,01,00,00,00
1756488291249155,00000188,false,Rx,0,6,BF,FF,0A,00,F2,03,00,00
1756488291249321,00000288,false,Rx,0,6,00,00,00,00,00,00,00,00
1756488291249446,00000488,false,Rx,0,8,0A,27,55,00,4B,01,0D,00
1756488291252256,00000193,false,Rx,0,6,14,00,07,00,04,00,00,00
1756488291255459,00000213,false,Rx,0,4,08,00,00,00,00,00,00,00
1756488291255547,00000214,false,Rx,0,4,08,00,00,00,00,00,00,00
1756488291258681,00000194,false,Rx,0,6,14,00,FE,FF,03,00,00,00
1756488291259358,00000188,false,Rx,0,6,B5,FF,13,00,D9,03,00,00
1756488291259510,00000288,false,Rx,0,6,00,00,00,00,00,00,00,00
1756488291259630,00000488,false,Rx,0,8,0A,27,55,00,4B,01,0D,00
1756488291261155,00000710,false,Rx,0,1,7F,00,00,00,00,00,00,00
1756488291262081,00000393,false,Rx,0,6,0E,01,D5,01,0F,01,00,00
1756488291262174,00000293,false,Rx,0,4,67,A3,00,00,00,00,00,00
1756488291262246,00000713,false,Rx,0,1,05,00,00,00,00,00,00,00
1756488291262349,00000733,false,Rx,0,8,05,00,00,C0,3F,A3,00,05
1756488291262439,00000193,false,Rx,0,6,14,00,FD,FF,07,00,00,00
1756488291263270,00000290,false,Rx,0,7,01,E8,00,00,00,00,00,00
1756488291263484,00000490,false,Rx,0,5,64,00,00,00,00,00,00,00
1756488291265435,00000213,false,Rx,0,4,08,00,00,00,00,00,00,00
1756488291265554,00000214,false,Rx,0,4,08,00,00,00,00,00,00,00
1756488291268509,00000394,false,Rx,0,6,6C,05,DD,01,28,01,00,00
1756488291268605,00000294,false,Rx,0,4,DE,A2,E8,FF,00,00,00,00
1756488291268681,00000714,false,Rx,0,1,05,00,00,00,00,00,00,00
1756488291268778,00000734,false,Rx,0,8,01,9A,99,19,40,A2,E8,05
1756488291268875,00000194,false,Rx,0,6,14,00,FB,FF,01,00,00,00
1756488291269595,00000188,false,Rx,0,6,C1,FF,11,00,E7,03,00,00
1756488291269719,00000288,false,Rx,0,6,00,00,00,00,00,00,00,00
1756488291269835,00000488,false,Rx,0,8,0A,27,55,00,4B,01,0D,00
1756488291271880,00000193,false,Rx,0,6,14,00,F1,FF,06,00,00,00
1756488291275394,00000213,false,Rx,0,4,08,00,00,00,00,00,00,00
1756488291275495,00000214,false,Rx,0,4,08,00,00,00,00,00,00,00
1756488291278320,00000194,false,Rx,0,6,14,00,FD,FF,00,00,00,00
1756488291280784,00000188,false,Rx,0,6,C2,FF,06,00,F3,03,00,00
1756488291280880,00000288,false,Rx,0,6,00,00,00,00,00,00,00,00
1756488291280961,00000488,false,Rx,0,8,0A,27,55,00,4B,01,0D,00
1756488291281691,00000193,false,Rx,0,6,14,00,08,00,03,00,00,00
1756488291286390,00000213,false,Rx,0,4,08,00,00,00,00,00,00,00
1756488291286487,00000214,false,Rx,0,4,08,00,00,00,00,00,00,00
1756488291288122,00000194,false,Rx,0,6,14,00,01,00,01,00,00,00
1756488291290861,00000188,false,Rx,0,6,BA,FF,18,00,E0,03,00,00
1756488291291017,00000288,false,Rx,0,6,00,00,00,00,00,00,00,00
1756488291291139,00000488,false,Rx,0,8,0A,27,55,00,4B,01,0D,00
1756488291291500,00000193,false,Rx,0,6,14,00,00,00,00,00,00,00
1756488291296301,00000213,false,Rx,0,4,08,00,00,00,00,00,00,00
1756488291296399,00000214,false,Rx,0,4,08,00,00,00,00,00,00,00
1756488291297958,00000194,false,Rx,0,6,14,00,04,00,FE,FF,00,00
1756488291299930,00000701,false,Rx,0,1,05,00,00,00,00,00,00,00
1756488291301134,00000188,false,Rx,0,6,C3,FF,0D,00,01,04,00,00
1756488291301234,00000288,false,Rx,0,6,00,00,00,00,00,00,00,00
1756488291301335,00000488,false,Rx,0,8,0A,27,55,00,4B,01,0D,00
1756488291301449,00000193,false,Rx,0,6,14,00,F9,FF,06,00,00,00
1756488291306220,00000213,false,Rx,0,4,08,00,00,00,00,00,00,00
1756488291306323,00000214,false,Rx,0,4,08,00,00,00,00,00,00,00
1756488291307793,00000194,false,Rx,0,6,14,00,02,00,FE,FF,00,00
1756488291311206,00000193,false,Rx,0,6,14,00,F1,FF,FC,FF,00,00
1756488291311309,00000188,false,Rx,0,6,B9,FF,0C,00,E6,03,00,00
1756488291311426,00000288,false,Rx,0,6,00,00,00,00,00,00,00,00
1756488291311548,00000488,false,Rx,0,8,0A,27,55,00,4B,01,0D,00
1756488291316184,00000213,false,Rx,0,4,08,00,00,00,00,00,00,00
1756488291316263,00000214,false,Rx,0,4,08,00,00,00,00,00,00,00
1756488291317603,00000194,false,Rx,0,6,14,00,FF,FF,FF,FF,00,00
1756488291320988,00000193,false,Rx,0,6,14,00,00,00,00,00,00,00
1756488291321463,00000188,false,Rx,0,6,BC,FF,1A,00,D4,03,00,00
1756488291321619,00000288,false,Rx,0,6,00,00,00,00,00,00,00,00
1756488291321733,00000488,false,Rx,0,8,0A,27,55,00,4B,01,0D,00
1756488291327178,00000213,false,Rx,0,4,08,00,00,00,00,00,00,00
1756488291327256,00000214,false,Rx,0,4,08,00,00,00,00,00,00,00
1756488291327419,00000194,false,Rx,0,6,14,00,FF,FF,FF,FF,00,00
1756488291330816,00000193,false,Rx,0,6,14,00,11,00,02,00,00,00
1756488291331678,00000188,false,Rx,0,6,BF,FF,0A,00,FE,03,00,00
1756488291331817,00000288,false,Rx,0,6,00,00,00,00,00,00,00,00
1756488291331935,00000488,false,Rx,0,8,0A,27,55,00,4C,01,0D,00
1756488291337167,00000213,false,Rx,0,4,08,00,00,00,00,00,00,00
1756488291337265,00000194,false,Rx,0,6,14,00,04,00,FE,FF,00,00
1756488291337365,00000214,false,Rx,0,4,08,00,00,00,00,00,00,00
1756488291340648,00000193,false,Rx,0,6,14,00,F5,FF,00,00,00,00
1756488291341876,00000188,false,Rx,0,6,B7,FF,13,00,E5,03,00,00
1756488291342023,00000288,false,Rx,0,6,00,00,00,00,00,00,00,00
1756488291342138,00000488,false,Rx,0,8,0A,27,55,00,4C,01,0D,00
1756488291347064,00000213,false,Rx,0,4,08,00,00,00,00,00,00,00
1756488291347175,00000194,false,Rx,0,6,14,00,FF,FF,FE,FF,00,00
1756488291347274,00000214,false,Rx,0,4,08,00,00,00,00,00,00,00
1756488291350474,00000193,false,Rx,0,6,14,00,F6,FF,FF,FF,00,00
1756488291352077,00000188,false,Rx,0,6,B2,FF,15,00,D2,03,00,00
1756488291352215,00000288,false,Rx,0,6,00,00,00,00,00,00,00,00
1756488291352334,00000488,false,Rx,0,8,0A,27,55,00,4C,01,0D,00
1756488291356912,00000194,false,Rx,0,6,14,00,FE,FF,03,00,00,00
1756488291357006,00000213,false,Rx,0,4,08,00,00,00,00,00,00,00
1756488291357107,00000214,false,Rx,0,4,08,00,00,00,00,00,00,00
1756488291360291,00000393,false,Rx,0,6,0E,01,D5,01,0F,01,00,00
1756488291360383,00000293,false,Rx,0,4,58,A3,00,00,00,00,00,00
1756488291360485,00000713,false,Rx,0,1,05,00,00,00,00,00,00,00
1756488291360587,00000733,false,Rx,0,8,06,6F,12,03,3B,A3,00,05
1756488291360685,00000193,false,Rx,0,6,14,00,02,00,FB,FF,00,00
1756488291361234,00000710,false,Rx,0,1,7F,00,00,00,00,00,00,00
1756488291362274,00000188,false,Rx,0,6,C1,FF,12,00,F4,03,00,00
1756488291363058,00000288,false,Rx,0,6,00,00,00,00,00,00,00,00
1756488291363172,00000488,false,Rx,0,8,0A,27,55,00,4C,01,0D,00
1756488291364699,00000181,false,Rx,0,8,04,10,00,E9,02,00,00,00
1756488291366732,00000394,false,Rx,0,6,6C,05,DD,01,1F,01,00,00
1756488291366824,00000294,false,Rx,0,4,FD,A2,AF,FF,00,00,00,00
1756488291366922,00000714,false,Rx,0,1,05,00,00,00,00,00,00,00
1756488291367019,00000213,false,Rx,0,4,08,00,00,00,00,00,00,00
1756488291367117,00000734,false,Rx,0,8,02,00,00,C0,3F,A2,AF,05
1756488291367215,00000194,false,Rx,0,6,14,00,FF,FF,01,00,00,00
1756488291367991,00000214,false,Rx,0,4,08,00,00,00,00,00,00,00
1756488291370120,00000193,false,Rx,0,6,14,00,0E,00,FE,FF,00,00
1756488291373075,00000188,false,Rx,0,6,B6,FF,18,00,D6,03,00,00
1756488291373214,00000288,false,Rx,0,6,00,00,00,00,00,00,00,00
1756488291373335,00000488,false,Rx,0,8,0A,27,55,00,4C,01,0D,00
1756488291376563,00000194,false,Rx,0,6,14,00,FD,FF,03,00,00,00
1756488291377910,00000181,false,Rx,0,8,04,10,00,E9,02,00,00,00
1756488291378005,00000213,false,Rx,0,4,08,00,00,00,00,00,00,00
1756488291378102,00000214,false,Rx,0,4,08,00,00,00,00,00,00,00
1756488291379942,00000193,false,Rx,0,6,14,00,00,00,FE,FF,00,00
1756488291383303,00000188,false,Rx,0,6,C4,FF,11,00,EA,03,00,00
1756488291383406,00000288,false,Rx,0,6,00,00,00,00,00,00,00,00
1756488291383522,00000488,false,Rx,0,8,0A,27,55,00,4C,01,0D,00
1756488291386392,00000194,false,Rx,0,6,14,00,FF,FF,02,00,00,00
1756488291387774,00000213,false,Rx,0,4,08,00,00,00,00,00,00,00
1756488291387868,00000214,false,Rx,0,4,08,00,00,00,00,00,00,00
1756488291389777,00000193,false,Rx,0,6,14,00,FD,FF,FD,FF,00,00
1756488291393473,00000188,false,Rx,0,6,C0,FF,0B,00,FB,03,00,00
1756488291393622,00000288,false,Rx,0,6,00,00,00,00,00,00,00,00
1756488291393739,00000488,false,Rx,0,8,0A,27,55,00,4C,01,0D,00
1756488291396215,00000194,false,Rx,0,6,14,00,FF,FF,04,00,00,00
1756488291397683,00000213,false,Rx,0,4,08,00,00,00,00,00,00,00
1756488291397782,00000214,false,Rx,0,4,08,00,00,00,00,00,00,00
1756488291399602,00000193,false,Rx,0,6,14,00,00,00,FC,FF,00,00
1756488291400358,00000701,false,Rx,0,1,05,00,00,00,00,00,00,00
1756488291403679,00000188,false,Rx,0,6,B7,FF,11,00,D2,03,00,00
1756488291403817,00000288,false,Rx,0,6,00,00,00,00,00,00,00,00
1756488291403934,00000488,false,Rx,0,8,0A,27,55,00,4C,01,0D,00
1756488291406045,00000194,false,Rx,0,6,14,00,03,00,05,00,00,00
1756488291408691,00000213,false,Rx,0,4,08,00,00,00,00,00,00,00
1756488291408787,00000214,false,Rx,0,4,08,00,00,00,00,00,00,00
1756488291409460,00000193,false,Rx,0,6,14,00,FC,FF,02,00,00,00
1756488291413969,00000188,false,Rx,0,6,BF,FF,18,00,DE,03,00,00
1756488291414071,00000288,false,Rx,0,6,00,00,00,00,00,00,00,00
1756488291414133,00000488,false,Rx,0,8,0A,27,55,00,4C,01,0D,00
1756488291415876,00000194,false,Rx,0,6,14,00,05,00,02,00,00,00
1756488291418593,00000213,false,Rx,0,4,08,00,00,00,00,00,00,00
1756488291418687,00000214,false,Rx,0,4,08,00,00,00,00,00,00,00
1756488291419258,00000193,false,Rx,0,6,14,00,F0,FF,02,00,00,00
1756488291424105,00000188,false,Rx,0,6,C7,FF,09,00,00,04,00,00
1756488291424301,00000288,false,Rx,0,6,00,00,00,00,00,00,00,00
1756488291424361,00000488,false,Rx,0,8,0A,27,55,00,4C,01,0D,00
1756488291425719,00000194,false,Rx,0,6,14,00,FC,FF,00,00,00,00
1756488291428495,00000213,false,Rx,0,4,08,00,00,00,00,00,00,00
1756488291428588,00000214,false,Rx,0,4,08,00,00,00,00,00,00,00
1756488291429075,00000193,false,Rx,0,6,14,00,01,00,FE,FF,00,00
1756488291434289,00000188,false,Rx,0,6,BC,FF,13,00,D5,03,00,00
1756488291434425,00000288,false,Rx,0,6,00,00,00,00,00,00,00,00
1756488291434541,00000488,false,Rx,0,8,0A,27,55,00,4C,01,0D,00
1756488291435526,00000194,false,Rx,0,6,14,00,FE,FF,04,00,00,00
1756488291438919,00000193,false,Rx,0,6,14,00,08,00,FE,FF,00,00
1756488291439517,00000213,false,Rx,0,4,08,00,00,00,00,00,00,00
1756488291439614,00000214,false,Rx,0,4,08,00,00,00,00,00,00,00
1756488291444478,00000188,false,Rx,0,6,C5,FF,1B,00,E8,03,00,00
1756488291444621,00000288,false,Rx,0,6,00,00,00,00,00,00,00,00
1756488291444735,00000488,false,Rx,0,8,0A,27,55,00,4B,01,0D,00
1756488291445343,00000194,false,Rx,0,6,14,00,FE,FF,01,00,00,00
1756488291448749,00000193,false,Rx,0,6,14,00,02,00,02,00,00,00
1756488291449416,00000213,false,Rx,0,4,08,00,00,00,00,00,00,00
1756488291449512,00000214,false,Rx,0,4,08,00,00,00,00,00,00,00
1756488291454707,00000188,false,Rx,0,6,CA,FF,0C,00,05,04,00,00
1756488291454808,00000288,false,Rx,0,6,00,00,00,00,00,00,00,00
1756488291454925,00000488,false,Rx,0,8,0A,27,55,00,4B,01,0D,00
1756488291455181,00000194,false,Rx,0,6,14,00,03,00,FD,FF,00,00
1756488291458572,00000393,false,Rx,0,6,0E,01,D5,01,0F,01,00,00
1756488291458667,00000293,false,Rx,0,4,37,A3,00,00,00,00,00,00
1756488291458764,00000713,false,Rx,0,1,05,00,00,00,00,00,00,00
1756488291458861,00000733,false,Rx,0,8,07,00,00,80,3F,A3,00,05
1756488291458958,00000193,false,Rx,0,6,14,00,03,00,06,00,00,00
1756488291459350,00000213,false,Rx,0,4,08,00,00,00,00,00,00,00
1756488291459448,00000214,false,Rx,0,4,08,00,00,00,00,00,00,00
1756488291461150,00000710,false,Rx,0,1,7F,00,00,00,00,00,00,00
1756488291463302,00000290,false,Rx,0,7,01,E8,00,00,00,00,00,00
1756488291463397,00000490,false,Rx,0,5,64,00,00,00,00,00,00,00
1756488291465001,00000394,false,Rx,0,6,6F,05,DD,01,16,01,00,00
1756488291465098,00000294,false,Rx,0,4,E3,A2,C1,00,00,00,00,00
1756488291465196,00000714,false,Rx,0,1,05,00,00,00,00,00,00,00
1756488291465294,00000734,false,Rx,0,8,03,6F,12,03,3B,A2,C1,05
1756488291465402,00000194,false,Rx,0,6,14,00,02,00,FD,FF,00,00
1756488291466067,00000188,false,Rx,0,6,C3,FF,0D,00,CE,03,00,00
1756488291466178,00000288,false,Rx,0,6,00,00,00,00,00,00,00,00
1756488291466293,00000488,false,Rx,0,8,0A,27,55,00,4B,01,0D,00
1756488291468540,00000193,false,Rx,0,6,14,00,08,00,00,00,00,00
1756488291469577,00000213,false,Rx,0,4,08,00,00,00,00,00,00,00
1756488291469841,00000214,false,Rx,0,4,08,00,00,00,00,00,00,00
1756488291475037,00000194,false,Rx,0,6,14,00,F8,FF,01,00,00,00
1756488291476304,00000188,false,Rx,0,6,C3,FF,10,00,F6,03,00,00
1756488291476432,00000288,false,Rx,0,6,00,00,00,00,00,00,00,00
1756488291476495,00000488,false,Rx,0,8,0A,27,55,00,4B,01,0D,00
1756488291478442,00000193,false,Rx,0,6,14,00,0C,00,06,00,00,00
1756488291480344,00000213,false,Rx,0,4,08,00,00,00,00,00,00,00
1756488291480473,00000214,false,Rx,0,4,08,00,00,00,00,00,00,00
1756488291484858,00000194,false,Rx,0,6,14,00,FF,FF,00,00,00,00
1756488291486632,00000188,false,Rx,0,6,C3,FF,0A,00,E6,03,00,00
1756488291486792,00000288,false,Rx,0,6,00,00,00,00,00,00,00,00
1756488291486874,00000488,false,Rx,0,8,0A,27,55,00,4B,01,0D,00
1756488291488251,00000193,false,Rx,0,6,14,00,08,00,00,00,00,00
1756488291490456,00000213,false,Rx,0,4,08,00,00,00,00,00,00,00
1756488291490650,00000214,false,Rx,0,4,08,00,00,00,00,00,00,00
1756488291494912,00000194,false,Rx,0,6,14,00,FF,FF,FE,FF,00,00
1756488291495121,00000181,false,Rx,0,8,A0,0F,00,E9,02,00,00,00
1756488291496927,00000188,false,Rx,0,6,B8,FF,1B,00,DC,03,00,00
1756488291497103,00000288,false,Rx,0,6,00,00,00,00,00,00,00,00
1756488291497174,00000488,false,Rx,0,8,0A,27,55,00,4B,01,0D,00
1756488291498104,00000193,false,Rx,0,6,14,00,FA,FF,03,00,00,00
1756488291500927,00000213,false,Rx,0,4,08,00,00,00,00,00,00,00
1756488291501097,00000214,false,Rx,0,4,08,00,00,00,00,00,00,00
1756488291501166,00000701,false,Rx,0,1,05,00,00,00,00,00,00,00
1756488291504574,00000194,false,Rx,0,6,14,00,FB,FF,FF,FF,00,00
1756488291507009,00000188,false,Rx,0,6,C4,FF,0D,00,E5,03,00,00
1756488291507169,00000288,false,Rx,0,6,00,00,00,00,00,00,00,00
1756488291507248,00000488,false,Rx,0,8,0A,27,55,00,4B,01,0D,00
1756488291508436,00000193,false,Rx,0,6,14,00,03,00,F8,FF,00,00
1756488291508553,00000181,false,Rx,0,8,04,10,00,E9,02,00,00,00
1756488291511398,00000213,false,Rx,0,4,08,00,00,00,00,00,00,00
1756488291511520,00000214,false,Rx,0,4,08,00,00,00,00,00,00,00
1756488291514282,00000194,false,Rx,0,6,14,00,02,00,FF,FF,00,00
1756488291517063,00000188,false,Rx,0,6,C2,FF,08,00,EA,03,00,00
1756488291517212,00000288,false,Rx,0,6,00,00,00,00,00,00,00,00
1756488291517274,00000488,false,Rx,0,8,0A,27,55,00,4B,01,0D,00
1756488291517635,00000193,false,Rx,0,6,14,00,FE,FF,FD,FF,00,00
1756488291521174,00000213,false,Rx,0,4,08,00,00,00,00,00,00,00
1756488291521276,00000214,false,Rx,0,4,08,00,00,00,00,00,00,00
1756488291524065,00000194,false,Rx,0,6,14,00,02,00,02,00,00,00
1756488291527155,00000188,false,Rx,0,6,BA,FF,0D,00,D8,03,00,00
1756488291527337,00000288,false,Rx,0,6,00,00,00,00,00,00,00,00
1756488291527438,00000488,false,Rx,0,8,0A,27,55,00,4B,01,0D,00
1756488291527501,00000193,false,Rx,0,6,14,00,FA,FF,01,00,00,00
1756488291530977,00000213,false,Rx,0,4,08,00,00,00,00,00,00,00
1756488291531089,00000214,false,Rx,0,4,08,00,00,00,00,00,00,00
1756488291533882,00000194,false,Rx,0,6,14,00,FE,FF,FF,FF,00,00
1756488291537226,00000193,false,Rx,0,6,14,00,EF,FF,FC,FF,00,00
1756488291537346,00000188,false,Rx,0,6,BE,FF,11,00,EC,03,00,00
1756488291538145,00000288,false,Rx,0,6,00,00,00,00,00,00,00,00
1756488291538267,00000488,false,Rx,0,8,0A,27,55,00,4B,01,0D,00
1756488291540875,00000213,false,Rx,0,4,08,00,00,00,00,00,00,00
1756488291540979,00000214,false,Rx,0,4,08,00,00,00,00,00,00,00
1756488291543680,00000194,false,Rx,0,6,14,00,FE,FF,01,00,00,00
1756488291547079,00000193,false,Rx,0,6,14,00,01,00,FD,FF,00,00
1756488291548396,00000188,false,Rx,0,6,BB,FF,1C,00,E6,03,00,00
1756488291548506,00000288,false,Rx,0,6,00,00,00,00,00,00,00,00
1756488291548603,00000488,false,Rx,0,8,0A,27,55,00,4B,01,0D,00
1756488291551883,00000213,false,Rx,0,4,08,00,00,00,00,00,00,00
1756488291551996,00000214,false,Rx,0,4,08,00,00,00,00,00,00,00
1756488291553505,00000194,false,Rx,0,6,14,00,00,00,00,00,00,00
1756488291556877,00000393,false,Rx,0,6,10,01,D5,01,0F,01,00,00
1756488291556986,00000293,false,Rx,0,4,78,A3,00,00,00,00,00,00
1756488291557093,00000713,false,Rx,0,1,05,00,00,00,00,00,00,00
1756488291557194,00000733,false,Rx,0,8,08,00,00,80,3F,A3,00,05
1756488291557320,00000193,false,Rx,0,6,14,00,FD,FF,FA,FF,00,00
1756488291558253,00000188,false,Rx,0,6,C8,FF,14,00,EE,03,00,00
1756488291558395,00000288,false,Rx,0,6,00,00,00,00,00,00,00,00
1756488291558514,00000488,false,Rx,0,8,0A,27,55,00,4B,01,0D,00
1756488291561235,00000710,false,Rx,0,1,7F,00,00,00,00,00,00,00
1756488291561781,00000213,false,Rx,0,4,08,00,00,00,00,00,00,00
1756488291561896,00000214,false,Rx,0,4,08,00,00,00,00,00,00,00
1756488291563310,00000394,false,Rx,0,6,6F,05,DD,01,31,01,00,00
1756488291563421,00000294,false,Rx,0,4,F9,A2,73,FF,00,00,00,00
1756488291563519,00000714,false,Rx,0,1,05,00,00,00,00,00,00,00
1756488291563615,00000734,false,Rx,0,8,04,8F,C2,F5,3F,A2,73,05
1756488291563732,00000194,false,Rx,0,6,14,00,FF,FF,02,00,00,00
1756488291566723,00000193,false,Rx,0,6,14,00,02,00,FE,FF,00,00
1756488291568449,00000188,false,Rx,0,6,BF,FF,07,00,E9,03,00,00
1756488291568576,00000288,false,Rx,0,6,00,00,00,00,00,00,00,00
1756488291568694,00000488,false,Rx,0,8,0A,27,55,00,4B,01,0D,00
1756488291571820,00000213,false,Rx,0,4,08,00,00,00,00,00,00,00
1756488291571930,00000214,false,Rx,0,4,08,00,00,00,00,00,00,00
1756488291573168,00000194,false,Rx,0,6,14,00,FD,FF,00,00,00,00
1756488291576564,00000193,false,Rx,0,6,14,00,FF,FF,FE,FF,00,00
1756488291578657,00000188,false,Rx,0,6,B4,FF,19,00,DF,03,00,00
1756488291578794,00000288,false,Rx,0,6,00,00,00,00,00,00,00,00
1756488291578913,00000488,false,Rx,0,8,0A,27,55,00,4B,01,0D,00
1756488291581609,00000213,false,Rx,0,4,08,00,00,00,00,00,00,00
1756488291581717,00000214,false,Rx,0,4,08,00,00,00,00,00,00,00
1756488291582984,00000194,false,Rx,0,6,14,00,FD,FF,FC,FF,00,00
1756488291586379,00000193,false,Rx,0,6,14,00,FA,FF,FF,FF,00,00
1756488291588851,00000188,false,Rx,0,6,C0,FF,14,00,EE,03,00,00
1756488291588985,00000288,false,Rx,0,6,00,00,00,00,00,00,00,00
1756488291589113,00000488,false,Rx,0,8,0A,27,55,00,4B,01,0D,00
1756488291592597,00000213,false,Rx,0,4,08,00,00,00,00,00,00,00
1756488291592706,00000214,false,Rx,0,4,08,00,00,00,00,00,00,00
1756488291592821,00000194,false,Rx,0,6,14,00,01,00,FF,FF,00,00
1756488291594852,00000181,false,Rx,0,8,A0,0F,00,E9,02,00,00,00
1756488291596201,00000193,false,Rx,0,6,14,00,F1,FF,FF,FF,00,00
1756488291599050,00000188,false,Rx,0,6,BE,FF,11,00,01,04,00,00
1756488291599177,00000288,false,Rx,0,6,00,00,00,00,00,00,00,00
1756488291599295,00000488,false,Rx,0,8,0A,27,55,00,4B,01,0D,00
1756488291601081,00000701,false,Rx,0,1,05,00,00,00,00,00,00,00
1756488291602504,00000213,false,Rx,0,4,08,00,00,00,00,00,00,00
1756488291602611,00000214,false,Rx,0,4,08,00,00,00,00,00,00,00
1756488291602728,00000194,false,Rx,0,6,14,00,FF,FF,03,00,00,00
1756488291605333,00000190,false,Rx,0,8,00,CA,CA,CA,CA,CA,CA,CA
1756488291605445,00000190,false,Rx,0,8,07,CA,CA,CA,CA,CA,CA,CA
1756488291605630,00000190,false,Rx,0,8,15,CA,CA,CA,CA,CA,CA,CA
1756488291605751,00000190,false,Rx,0,8,1C,CA,CA,CA,CA,CA,CA,CA
1756488291605869,00000190,false,Rx,0,8,23,CA,CA,CA,CA,CA,CA,CA
1756488291605999,00000190,false,Rx,0,8,0E,CA,CA,CA,CA,CA,CA,CA
1756488291606099,00000190,false,Rx,0,8,2A,CA,CA,CA,CA,CA,CA,CA
1756488291606197,00000190,false,Rx,0,8,31,CA,CA,CA,CA,CA,CA,CA
1756488291606316,00000190,false,Rx,0,8,3F,CA,CA,CA,CA,CA,CA,CA
1756488291606438,00000190,false,Rx,0,8,46,CA,CA,CA,CA,CA,CA,CA
1756488291606567,00000190,false,Rx,0,8,38,CA,CA,CA,CA,CA,CA,C9
1756488291606670,00000190,false,Rx,0,8,4D,CA,CA,CA,CA,CA,CA,CA
1756488291606768,00000190,false,Rx,0,8,54,CA,CA,CA,CA,CA,CA,CA
1756488291606886,00000190,false,Rx,0,8,62,CA,C8,CA,CA,CA,CA,CA
1756488291607004,00000190,false,Rx,0,8,5B,CA,CA,CA,CA,CA,CA,CA
1756488291607063,00000193,false,Rx,0,6,14,00,F8,FF,07,00,00,00
1756488291608080,00000181,false,Rx,0,8,04,10,00,E9,02,00,00,00
1756488291609251,00000188,false,Rx,0,6,BC,FF,0B,00,E2,03,00,00
1756488291609378,00000288,false,Rx,0,6,00,00,00,00,00,00,00,00
1756488291609496,00000488,false,Rx,0,8,0A,27,55,00,4B,01,0D,00
1756488291610417,00000390,false,Rx,0,8,00,13,13,13,13,13,13,13
1756488291610522,00000390,false,Rx,0,8,07,13,3D,3D,3D,3D,3D,3D
1756488291610622,00000390,false,Rx,0,8,15,3D,3D,3D,3C,3C,3C,3C
1756488291610740,00000390,false,Rx,0,8,1C,3C,3C,3C,3C,3D,3D,3D
1756488291610857,00000390,false,Rx,0,8,23,3D,3D,3D,3D,3D,3D,3D
1756488291610975,00000390,false,Rx,0,8,0E,3D,3D,3D,3D,3D,3D,3D
1756488291611093,00000390,false,Rx,0,8,2A,3D,3D,3D,3D,3D,3D,3C
1756488291611219,00000390,false,Rx,0,8,31,3C,3C,3C,3C,3C,3C,3C
1756488291611324,00000390,false,Rx,0,8,3F,13,3D,3D,3D,3D,3D,3D
1756488291611424,00000390,false,Rx,0,8,46,3D,3D,3D,3D,3D,3D,3D
1756488291611544,00000390,false,Rx,0,8,38,13,13,13,13,13,13,13
1756488291611663,00000390,false,Rx,0,8,4D,3D,3D,3D,3C,3C,3C,3C
1756488291611783,00000390,false,Rx,0,8,54,3C,3C,3C,3C,13,13,13
1756488291611902,00000390,false,Rx,0,8,62,3D,3D,3D,3D,3D,3D,13
1756488291612003,00000390,false,Rx,0,8,5B,13,13,13,13,13,3D,3D
1756488291612102,00000390,false,Rx,0,8,69,13,13,13,13,13,13,13
1756488291612222,00000390,false,Rx,0,8,70,13,13,13,13,13,13,13
1756488291612368,00000390,false,Rx,0,8,7E,3D,3D,3D,3D,3D,3D,3D
1756488291612475,00000213,false,Rx,0,4,08,00,00,00,00,00,00,00
1756488291612574,00000194,false,Rx,0,6,14,00,FF,FF,00,00,00,00
1756488291612694,00000214,false,Rx,0,4,08,00,00,00,00,00,00,00
1756488291612811,00000390,false,Rx,0,8,93,3D,3D,3D,3D,3D,3C,3C
1756488291612913,00000390,false,Rx,0,8,A1,13,13,13,13,13,13,13
1756488291613013,00000390,false,Rx,0,8,A8,3D,3D,3D,3D,3D,3D,3D
1756488291613133,00000390,false,Rx,0,8,AF,3D,3D,3D,3D,3D,3D,3D
1756488291613253,00000390,false,Rx,0,8,B6,3D,3D,3D,3D,3D,3D,3D
1756488291613373,00000390,false,Rx,0,8,9A,3C,3C,3C,3C,3C,3C,13
1756488291613473,00000390,false,Rx,0,8,BD,3D,3D,3D,13,13,13,13
1756488291613599,00000390,false,Rx,0,8,C4,13,13,13,13,3D,3D,3D
1756488291613725,00000390,false,Rx,0,8,D2,13,13,13,13,13,13,3D
1756488291613842,00000390,false,Rx,0,8,D9,3D,3D,3D,3D,3D,3D,3D
1756488291613901,00000390,false,Rx,0,8,CB,3D,3D,3D,3D,3D,13,13
1756488291615853,00000193,false,Rx,0,6,14,00,10,00,03,00,00,00
1756488291619560,00000188,false,Rx,0,6,C4,FF,1A,00,E3,03,00,00
1756488291619740,00000288,false,Rx,0,6,00,00,00,00,00,00,00,00
1756488291619801,00000488,false,Rx,0,8,0A,27,55,00,4B,01,0D,00
1756488291622309,00000194,false,Rx,0,6,14,00,05,00,FF,FF,00,00
1756488291623430,00000213,false,Rx,0,4,08,00,00,00,00,00,00,00
1756488291623537,00000214,false,Rx,0,4,08,00,00,00,00,00,00,00
1756488291625729,00000193,false,Rx,0,6,14,00,0C,00,01,00,00,00
1756488291629639,00000188,false,Rx,0,6,C9,FF,10,00,FC,03,00,00
1756488291629771,00000288,false,Rx,0,6,00,00,00,00,00,00,00,00
1756488291629887,00000488,false,Rx,0,8,0A,27,55,00,4B,01,0D,00
1756488291632126,00000194,false,Rx,0,6,14,00,FF,FF,02,00,00,00
1756488291633310,00000213,false,Rx,0,4,08,00,00,00,00,00,00,00
1756488291633416,00000214,false,Rx,0,4,08,00,00,00,00,00,00,00
1756488291635507,00000193,false,Rx,0,6,14,00,FC,FF,05,00,00,00
1756488291639832,00000188,false,Rx,0,6,B0,FF,18,00,D9,03,00,00
1756488291640993,00000288,false,Rx,0,6,00,00,00,00,00,00,00,00
1756488291641118,00000488,false,Rx,0,8,0A,27,55,00,4B,01,0D,00
1756488291641949,00000194,false,Rx,0,6,14,00,FD,FF,00,00,00,00
1756488291643210,00000213,false,Rx,0,4,08,00,00,00,00,00,00,00
1756488291643310,00000214,false,Rx,0,4,08,00,00,00,00,00,00,00
1756488291645334,00000193,false,Rx,0,6,14,00,EF,FF,FE,FF,00,00
1756488291650960,00000188,false,Rx,0,6,BB,FF,1B,00,FA,03,00,00
1756488291651071,00000288,false,Rx,0,6,00,00,00,00,00,00,00,00
1756488291651771,00000194,false,Rx,0,6,14,00,00,00,03,00,00,00
1756488291652059,00000488,false,Rx,0,8,0A,27,55,00,4B,01,0D,00
1756488291653145,00000213,false,Rx,0,4,08,00,00,00,00,00,00,00
1756488291653252,00000214,false,Rx,0,4,08,00,00,00,00,00,00,00
1756488291655146,00000393,false,Rx,0,6,10,01,D5,01,0F,01,00,00
1756488291655255,00000293,false,Rx,0,4,71,A3,00,00,00,00,00,00
1756488291655355,00000713,false,Rx,0,1,05,00,00,00,00,00,00,00
1756488291655451,00000733,false,Rx,0,8,09,00,00,00,00,A3,00,05
1756488291655568,00000193,false,Rx,0,6,14,00,0C,00,07,00,00,00
1756488291661132,00000188,false,Rx,0,6,B8,FF,03,00,D7,03,00,00
1756488291661246,00000288,false,Rx,0,6,00,00,00,00,00,00,00,00
1756488291661343,00000710,false,Rx,0,1,7F,00,00,00,00,00,00,00
1756488291661602,00000394,false,Rx,0,6,6F,05,DD,01,1F,01,00,00
1756488291661715,00000294,false,Rx,0,4,E7,A2,14,00,00,00,00,00
1756488291661816,00000714,false,Rx,0,1,05,00,00,00,00,00,00,00
1756488291661913,00000734,false,Rx,0,8,05,00,00,C0,3F,A2,14,05
1756488291662031,00000194,false,Rx,0,6,14,00,02,00,01,00,00,00
1756488291662362,00000488,false,Rx,0,8,0A,27,55,00,4B,01,0D,00
1756488291663272,00000290,false,Rx,0,7,01,E8,00,00,00,00,00,00
1756488291663377,00000490,false,Rx,0,5,64,00,00,00,00,00,00,00
1756488291664160,00000213,false,Rx,0,4,08,00,00,00,00,00,00,00
1756488291664263,00000214,false,Rx,0,4,08,00,00,00,00,00,00,00
1756488291664981,00000193,false,Rx,0,6,14,00,09,00,03,00,00,00
1756488291671427,00000188,false,Rx,0,6,AE,FF,0A,00,B8,03,00,00
1756488291671604,00000194,false,Rx,0,6,14,00,FE,FF,01,00,00,00
1756488291671664,00000288,false,Rx,0,6,00,00,00,00,00,00,00,00
1756488291673246,00000488,false,Rx,0,8,0A,27,55,00,4B,01,0D,00
1756488291674050,00000213,false,Rx,0,4,08,00,00,00,00,00,00,00
1756488291674147,00000214,false,Rx,0,4,08,00,00,00,00,00,00,00
1756488291674839,00000193,false,Rx,0,6,14,00,03,00,03,00,00,00
1756488291681219,00000188,false,Rx,0,6,C1,FF,08,00,F0,03,00,00
1756488291681338,00000194,false,Rx,0,6,14,00,01,00,00,00,00,00
1756488291681460,00000288,false,Rx,0,6,00,00,00,00,00,00,00,00
1756488291683506,00000488,false,Rx,0,8,0A,27,55,00,4B,01,0D,00
1756488291683959,00000213,false,Rx,0,4,08,00,00,00,00,00,00,00
1756488291684062,00000214,false,Rx,0,4,08,00,00,00,00,00,00,00
1756488291684632,00000193,false,Rx,0,6,14,00,09,00,03,00,00,00
1756488291691088,00000194,false,Rx,0,6,14,00,04,00,03,00,00,00
1756488291691520,00000188,false,Rx,0,6,B7,FF,06,00,D7,03,00,00
1756488291691640,00000288,false,Rx,0,6,00,00,00,00,00,00,00,00
1756488291693815,00000488,false,Rx,0,8,0A,27,55,00,4B,01,0D,00
1756488291694475,00000193,false,Rx,0,6,14,00,14,00,00,00,00,00
1756488291694969,00000213,false,Rx,0,4,08,00,00,00,00,00,00,00
1756488291695066,00000214,false,Rx,0,4,08,00,00,00,00,00,00,00
1756488291700912,00000194,false,Rx,0,6,14,00,02,00,FC,FF,00,00
1756488291701323,00000701,false,Rx,0,1,05,00,00,00,00,00,00,00
1756488291701820,00000188,false,Rx,0,6,BF,FF,0D,00,E4,03,00,00
1756488291701937,00000288,false,Rx,0,6,00,00,00,00,00,00,00,00
1756488291704136,00000488,false,Rx,0,8,0A,27,55,00,4B,01,0D,00
1756488291704291,00000193,false,Rx,0,6,14,00,0C,00,FD,FF,00,00
1756488291704888,00000213,false,Rx,0,4,08,00,00,00,00,00,00,00
1756488291704990,00000214,false,Rx,0,4,08,00,00,00,00,00,00,00
1756488291710763,00000194,false,Rx,0,6,14,00,FF,FF,00,00,00,00
1756488291712135,00000188,false,Rx,0,6,BF,FF,FF,FF,F8,03,00,00
1756488291712264,00000288,false,Rx,0,6,00,00,00,00,00,00,00,00
1756488291714130,00000193,false,Rx,0,6,14,00,F6,FF,FF,FF,00,00
1756488291714395,00000488,false,Rx,0,8,0A,27,55,00,4B,01,0D,00
1756488291714787,00000213,false,Rx,0,4,08,00,00,00,00,00,00,00
1756488291714883,00000214,false,Rx,0,4,08,00,00,00,00,00,00,00
1756488291720657,00000194,false,Rx,0,6,14,00,01,00,FE,FF,00,00
1756488291722450,00000188,false,Rx,0,6,B8,FF,07,00,E7,03,00,00
1756488291723223,00000288,false,Rx,0,6,00,00,00,00,00,00,00,00
1756488291723961,00000193,false,Rx,0,6,14,00,FE,FF,FE,FF,00,00
1756488291724686,00000213,false,Rx,0,4,08,00,00,00,00,00,00,00
1756488291724804,00000214,false,Rx,0,4,08,00,00,00,00,00,00,00
1756488291726407,00000488,false,Rx,0,8,0A,27,55,00,4B,01,0D,00
1756488291730402,00000194,false,Rx,0,6,14,00,00,00,FC,FF,00,00
1756488291732337,00000188,false,Rx,0,6,C2,FF,07,00,EC,03,00,00
1756488291732461,00000288,false,Rx,0,6,00,00,00,00,00,00,00,00
1756488291733785,00000193,false,Rx,0,6,14,00,07,00,FF,FF,00,00
1756488291735651,00000213,false,Rx,0,4,08,00,00,00,00,00,00,00
1756488291735754,00000214,false,Rx,0,4,08,00,00,00,00,00,00,00
1756488291736738,00000488,false,Rx,0,8,0A,27,54,00,4B,01,0D,00
1756488291740224,00000194,false,Rx,0,6,14,00,01,00,FF,FF,00,00
1756488291743273,00000188,false,Rx,0,6,BF,FF,1A,00,DD,03,00,00
1756488291743398,00000288,false,Rx,0,6,00,00,00,00,00,00,00,00
1756488291743599,00000193,false,Rx,0,6,14,00,FD,FF,FD,FF,00,00
1756488291745623,00000213,false,Rx,0,4,08,00,00,00,00,00,00,00
1756488291745694,00000214,false,Rx,0,4,08,00,00,00,00,00,00,00
1756488291746321,00000488,false,Rx,0,8,0A,27,54,00,4B,01,0D,00
1756488291750056,00000194,false,Rx,0,6,14,00,FB,FF,FC,FF,00,00
1756488291753394,00000188,false,Rx,0,6,C9,FF,1D,00,E3,03,00,00
1756488291753502,00000393,false,Rx,0,6,10,01,D5,01,0F,01,00,00
1756488291753621,00000288,false,Rx,0,6,00,00,00,00,00,00,00,00
1756488291753730,00000293,false,Rx,0,4,58,A3,00,00,00,00,00,00
1756488291753830,00000713,false,Rx,0,1,05,00,00,00,00,00,00,00
1756488291753926,00000733,false,Rx,0,8,01,9A,99,19,40,A3,00,05
1756488291754043,00000193,false,Rx,0,6,14,00,FE,FF,F9,FF,00,00
1756488291755561,00000213,false,Rx,0,4,08,00,00,00,00,00,00,00
1756488291755663,00000214,false,Rx,0,4,08,00,00,00,00,00,00,00
1756488291756628,00000488,false,Rx,0,8,0A,27,55,00,4B,01,0D,00
1756488291759861,00000394,false,Rx,0,6,73,05,DD,01,1F,01,00,00
1756488291759969,00000294,false,Rx,0,4,02,A3,93,FF,00,00,00,00
1756488291760066,00000714,false,Rx,0,1,05,00,00,00,00,00,00,00
1756488291760166,00000734,false,Rx,0,8,06,6F,12,03,3B,A3,93,05
1756488291760287,00000194,false,Rx,0,6,14,00,FF,FF,FC,FF,00,00
1756488291763263,00000193,false,Rx,0,6,14,00,14,00,FF,FF,00,00
1756488291763730,00000188,false,Rx,0,6,C6,FF,1A,00,F0,03,00,00
1756488291763846,00000288,false,Rx,0,6,00,00,00,00,00,00,00,00
1756488291765461,00000213,false,Rx,0,4,08,00,00,00,00,00,00,00
1756488291765581,00000214,false,Rx,0,4,08,00,00,00,00,00,00,00
1756488291766930,00000488,false,Rx,0,8,0A,27,55,00,4B,01,0D,00
1756488291767165,00000710,false,Rx,0,1,7F,00,00,00,00,00,00,00
1756488291769759,00000194,false,Rx,0,6,14,00,02,00,FD,FF,00,00
1756488291773098,00000193,false,Rx,0,6,14,00,02,00,FA,FF,00,00
1756488291774020,00000188,false,Rx,0,6,BE,FF,13,00,CF,03,00,00
1756488291774153,00000288,false,Rx,0,6,00,00,00,00,00,00,00,00
1756488291776467,00000213,false,Rx,0,4,08,00,00,00,00,00,00,00
1756488291776572,00000214,false,Rx,0,4,08,00,00,00,00,00,00,00
1756488291777226,00000488,false,Rx,0,8,0A,27,55,00,4B,01,0D,00
1756488291779528,00000194,false,Rx,0,6,14,00,03,00,01,00,00,00
1756488291782922,00000193,false,Rx,0,6,14,00,F1,FF,FF,FF,00,00
1756488291784339,00000188,false,Rx,0,6,C2,FF,1D,00,E5,03,00,00
1756488291784460,00000288,false,Rx,0,6,00,00,00,00,00,00,00,00
1756488291786371,00000213,false,Rx,0,4,08,00,00,00,00,00,00,00
1756488291786474,00000214,false,Rx,0,4,08,00,00,00,00,00,00,00
1756488291787530,00000488,false,Rx,0,8,0A,27,55,00,4B,01,0D,00
1756488291789353,00000194,false,Rx,0,6,14,00,00,00,04,00,00,00
1756488291792749,00000193,false,Rx,0,6,14,00,EE,FF,FD,FF,00,00
1756488291794615,00000188,false,Rx,0,6,C4,FF,07,00,FA,03,00,00
1756488291794740,00000288,false,Rx,0,6,00,00,00,00,00,00,00,00
1756488291796275,00000213,false,Rx,0,4,08,00,00,00,00,00,00,00
1756488291796377,00000214,false,Rx,0,4,08,00,00,00,00,00,00,00
1756488291798580,00000488,false,Rx,0,8,0A,27,55,00,4B,01,0D,00
1756488291799194,00000194,false,Rx,0,6,14,00,02,00,02,00,00,00
1756488291801583,00000701,false,Rx,0,1,05,00,00,00,00,00,00,00
1756488291802571,00000193,false,Rx,0,6,14,00,01,00,04,00,00,00
1756488291804318,00000188,false,Rx,0,6,C1,FF,15,00,DE,03,00,00
1756488291804441,00000288,false,Rx,0,6,00,00,00,00,00,00,00,00
1756488291807284,00000213,false,Rx,0,4,08,00,00,00,00,00,00,00
1756488291807396,00000214,false,Rx,0,4,08,00,00,00,00,00,00,00
1756488291808722,00000488,false,Rx,0,8,0A,27,55,00,4B,01,0D,00
1756488291809003,00000194,false,Rx,0,6,14,00,02,00,00,00,00,00
1756488291812403,00000193,false,Rx,0,6,14,00,FA,FF,03,00,00,00
1756488291814642,00000188,false,Rx,0,6,C5,FF,10,00,F7,03,00,00
1756488291814767,00000288,false,Rx,0,6,00,00,00,00,00,00,00,00
1756488291817183,00000213,false,Rx,0,4,08,00,00,00,00,00,00,00
1756488291817287,00000214,false,Rx,0,4,08,00,00,00,00,00,00,00
1756488291818871,00000194,false,Rx,0,6,14,00,FD,FF,03,00,00,00
1756488291819019,00000488,false,Rx,0,8,0A,27,55,00,4B,01,0D,00
1756488291822323,00000193,false,Rx,0,6,14,00,F9,FF,FE,FF,00,00
1756488291824982,00000188,false,Rx,0,6,B8,FF,07,00,E0,03,00,00
1756488291826424,00000288,false,Rx,0,6,00,00,00,00,00,00,00,00
1756488291827113,00000213,false,Rx,0,4,08,00,00,00,00,00,00,00
1756488291827215,00000214,false,Rx,0,4,08,00,00,00,00,00,00,00
1756488291828670,00000194,false,Rx,0,6,14,00,01,00,00,00,00,00
1756488291829307,00000488,false,Rx,0,8,0A,27,55,00,4B,01,0D,00
1756488291832058,00000193,false,Rx,0,6,14,00,F5,FF,FF,FF,00,00
1756488291836339,00000188,false,Rx,0,6,B8,FF,1A,00,D6,03,00,00
1756488291836649,00000288,false,Rx,0,6,00,00,00,00,00,00,00,00
1756488291837024,00000213,false,Rx,0,4,08,00,00,00,00,00,00,00
1756488291837126,00000214,false,Rx,0,4,08,00,00,00,00,00,00,00
1756488291838501,00000194,false,Rx,0,6,14,00,FF,FF,02,00,00,00
1756488291839601,00000488,false,Rx,0,8,0A,27,55,00,4B,01,0D,00
1756488291841880,00000193,false,Rx,0,6,14,00,FA,FF,03,00,00,00
1756488291844753,00000181,false,Rx,0,8,A0,0F,00,E9,02,00,00,00
1756488291846638,00000188,false,Rx,0,6,BF,FF,09,00,E7,03,00,00
1756488291846968,00000288,false,Rx,0,6,00,00,00,00,00,00,00,00
1756488291848024,00000213,false,Rx,0,4,08,00,00,00,00,00,00,00
1756488291848161,00000214,false,Rx,0,4,08,00,00,00,00,00,00,00
1756488291848314,00000194,false,Rx,0,6,14,00,FF,FF,01,00,00,00
1756488291849903,00000488,false,Rx,0,8,0A,27,55,00,4B,01,0D,00
1756488291851687,00000393,false,Rx,0,6,10,01,D5,01,0F,01,00,00
1756488291851790,00000293,false,Rx,0,4,57,A3,00,00,00,00,00,00
1756488291851889,00000713,false,Rx,0,1,05,00,00,00,00,00,00,00
1756488291851985,00000733,false,Rx,0,8,02,00,00,C0,3F,A3,00,05
1756488291852106,00000193,false,Rx,0,6,14,00,F0,FF,01,00,00,00
1756488291856949,00000188,false,Rx,0,6,BD,FF,0F,00,E8,03,00,00
1756488291857252,00000288,false,Rx,0,6,00,00,00,00,00,00,00,00
1756488291857982,00000181,false,Rx,0,8,04,10,00,E9,02,00,00,00
1756488291858096,00000213,false,Rx,0,4,08,00,00,00,00,00,00,00
1756488291858197,00000214,false,Rx,0,4,08,00,00,00,00,00,00,00
1756488291858294,00000394,false,Rx,0,6,73,05,DD,01,31,01,00,00
1756488291858372,00000294,false,Rx,0,4,FA,A2,FC,FF,00,00,00,00
1756488291858513,00000714,false,Rx,0,1,05,00,00,00,00,00,00,00
1756488291858588,00000004,false,Rx,0,8,00,01,00,00,00,00,00,00
1756488291858686,00000734,false,Rx,0,8,07,00,00,80,3F,A2,FC,05
1756488291858745,00000194,false,Rx,0,6,14,00,00,00,00,00,00,00
1756488291861128,00000488,false,Rx,0,8,0A,27,55,00,4B,01,0D,00
1756488291861554,00000193,false,Rx,0,6,14,00,F6,FF,03,00,00,00
1756488291863246,00000290,false,Rx,0,7,01,E8,00,00,00,00,00,00
1756488291863352,00000490,false,Rx,0,5,64,00,00,00,00,00,00,00
1756488291866341,00000188,false,Rx,0,6,BE,FF,1B,00,E7,03,00,00
1756488291866653,00000288,false,Rx,0,6,00,00,00,00,00,00,00,00
1756488291867836,00000213,false,Rx,0,4,08,00,00,00,00,00,00,00
1756488291868034,00000214,false,Rx,0,4,08,00,00,00,00,00,00,00
1756488291868106,00000194,false,Rx,0,6,14,00,FD,FF,02,00,00,00
1756488291871462,00000193,false,Rx,0,6,14,00,09,00,02,00,00,00
1756488291871563,00000488,false,Rx,0,8,0A,27,55,00,4B,01,0D,00
1756488291874483,00000181,false,Rx,0,8,04,10,00,E9,02,00,00,00
1756488291874707,00000710,false,Rx,0,1,7F,00,00,00,00,00,00,00
1756488291876611,00000188,false,Rx,0,6,BC,FF,0B,00,F6,03,00,00
1756488291876951,00000288,false,Rx,0,6,00,00,00,00,00,00,00,00
1756488291877805,00000194,false,Rx,0,6,14,00,FC,FF,FE,FF,00,00
1756488291878836,00000213,false,Rx,0,4,08,00,00,00,00,00,00,00
1756488291878947,00000214,false,Rx,0,4,08,00,00,00,00,00,00,00
1756488291881195,00000193,false,Rx,0,6,14,00,16,00,01,00,00,00
1756488291881728,00000488,false,Rx,0,8,0A,27,55,00,4B,01,0D,00
1756488291886914,00000188,false,Rx,0,6,B3,FF,18,00,DF,03,00,00
1756488291887252,00000288,false,Rx,0,6,00,00,00,00,00,00,00,00
1756488291887626,00000194,false,Rx,0,6,14,00,01,00,FA,FF,00,00
1756488291887750,00000181,false,Rx,0,8,04,10,00,E9,02,00,00,00
1756488291888733,00000213,false,Rx,0,4,08,00,00,00,00,00,00,00
1756488291888841,00000214,false,Rx,0,4,08,00,00,00,00,00,00,00
1756488291891016,00000193,false,Rx,0,6,14,00,0B,00,FF,FF,00,00
1756488291892023,00000488,false,Rx,0,8,0A,27,55,00,4B,01,0D,00
1756488291897222,00000188,false,Rx,0,6,C1,FF,13,00,F2,03,00,00
1756488291897457,00000194,false,Rx,0,6,14,00,FF,FF,FE,FF,00,00
1756488291897591,00000288,false,Rx,0,6,00,00,00,00,00,00,00,00
1756488291898656,00000213,false,Rx,0,4,08,00,00,00,00,00,00,00
1756488291898760,00000214,false,Rx,0,4,08,00,00,00,00,00,00,00
1756488291900844,00000193,false,Rx,0,6,14,00,FA,FF,F8,FF,00,00
1756488291900969,00000181,false,Rx,0,8,04,10,00,E9,02,00,00,00
1756488291901808,00000701,false,Rx,0,1,05,00,00,00,00,00,00,00
1756488291902322,00000488,false,Rx,0,8,0A,27,55,00,4B,01,0D,00
1756488291907306,00000194,false,Rx,0,6,14,00,02,00,03,00,00,00
1756488291907521,00000188,false,Rx,0,6,C1,FF,03,00,F2,03,00,00
1756488291908277,00000288,false,Rx,0,6,00,00,00,00,00,00,00,00
1756488291908560,00000213,false,Rx,0,4,08,00,00,00,00,00,00,00
1756488291908664,00000214,false,Rx,0,4,08,00,00,00,00,00,00,00
1756488291910677,00000193,false,Rx,0,6,14,00,F9,FF,FF,FF,00,00
1756488291913355,00000488,false,Rx,0,8,0A,27,55,00,4C,01,0D,00
1756488291914107,00000181,false,Rx,0,8,04,10,00,E9,02,00,00,00
1756488291917109,00000194,false,Rx,0,6,14,00,02,00,FF,FF,00,00
1756488291918323,00000188,false,Rx,0,6,C1,FF,16,00,E6,03,00,00
1756488291918446,00000288,false,Rx,0,6,00,00,00,00,00,00,00,00
1756488291919547,00000213,false,Rx,0,4,08,00,00,00,00,00,00,00
1756488291919650,00000214,false,Rx,0,4,08,00,00,00,00,00,00,00
1756488291920496,00000193,false,Rx,0,6,14,00,03,00,04,00,00,00
1756488291923380,00000488,false,Rx,0,8,0A,27,55,00,4C,01,0D,00
1756488291927062,00000194,false,Rx,0,6,14,00,01,00,02,00,00,00
1756488291928370,00000188,false,Rx,0,6,C6,FF,0F,00,FB,03,00,00
1756488291928493,00000288,false,Rx,0,6,00,00,00,00,00,00,00,00
1756488291929470,00000213,false,Rx,0,4,08,00,00,00,00,00,00,00
1756488291929595,00000214,false,Rx,0,4,08,00,00,00,00,00,00,00
1756488291930347,00000193,false,Rx,0,6,14,00,FA,FF,FE,FF,00,00
1756488291933555,00000488,false,Rx,0,8,0A,27,55,00,4B,01,0D,00
1756488291936771,00000194,false,Rx,0,6,14,00,FD,FF,00,00,00,00
1756488291938530,00000188,false,Rx,0,6,BA,FF,0F,00,D2,03,00,00
1756488291938654,00000288,false,Rx,0,6,00,00,00,00,00,00,00,00
1756488291939373,00000213,false,Rx,0,4,08,00,00,00,00,00,00,00
1756488291939476,00000214,false,Rx,0,4,08,00,00,00,00,00,00,00
1756488291940150,00000193,false,Rx,0,6,14,00,F8,FF,01,00,00,00
1756488291943838,00000488,false,Rx,0,8,0A,27,55,00,4B,01,0D,00
1756488291946592,00000194,false,Rx,0,6,14,00,FD,FF,01,00,00,00
1756488291948831,00000188,false,Rx,0,6,BB,FF,1C,00,D6,03,00,00
1756488291948954,00000288,false,Rx,0,6,00,00,00,00,00,00,00,00
1756488291949964,00000393,false,Rx,0,6,10,01,D5,01,0F,01,00,00
1756488291950069,00000293,false,Rx,0,4,57,A3,00,00,00,00,00,00
1756488291950167,00000713,false,Rx,0,1,05,00,00,00,00,00,00,00
1756488291950265,00000733,false,Rx,0,8,03,6F,12,03,3B,A3,00,05
1756488291950366,00000193,false,Rx,0,6,14,00,01,00,FA,FF,00,00
1756488291950466,00000213,false,Rx,0,4,08,00,00,00,00,00,00,00
1756488291950586,00000214,false,Rx,0,4,08,00,00,00,00,00,00,00
1756488291954138,00000488,false,Rx,0,8,0A,27,55,00,4B,01,0D,00
1756488291954824,00000181,false,Rx,0,8,04,10,00,E9,02,00,00,00
1756488291956400,00000394,false,Rx,0,6,73,05,DD,01,16,01,00,00
1756488291956508,00000294,false,Rx,0,4,11,A3,8D,00,00,00,00,00
1756488291956606,00000714,false,Rx,0,1,05,00,00,00,00,00,00,00
1756488291956702,00000734,false,Rx,0,8,08,00,00,80,3F,A3,8D,05
1756488291956820,00000194,false,Rx,0,6,14,00,06,00,01,00,00,00
1756488291959149,00000188,false,Rx,0,6,C8,FF,08,00,F4,03,00,00
1756488291959281,00000288,false,Rx,0,6,00,00,00,00,00,00,00,00
1756488291959802,00000193,false,Rx,0,6,14,00,0D,00,FF,FF,00,00
1756488291960306,00000213,false,Rx,0,4,08,00,00,00,00,00,00,00
1756488291960409,00000214,false,Rx,0,4,08,00,00,00,00,00,00,00
1756488291964437,00000488,false,Rx,0,8,0A,27,55,00,4B,01,0D,00
1756488291966249,00000194,false,Rx,0,6,14,00,FE,FF,01,00,00,00
1756488291969434,00000188,false,Rx,0,6,BF,FF,0D,00,F7,03,00,00
1756488291969636,00000288,false,Rx,0,6,00,00,00,00,00,00,00,00
1756488291969697,00000193,false,Rx,0,6,14,00,F2,FF,FB,FF,00,00
1756488291970195,00000213,false,Rx,0,4,08,00,00,00,00,00,00,00
1756488291970291,00000214,false,Rx,0,4,08,00,00,00,00,00,00,00
1756488291974612,00000181,false,Rx,0,8,04,10,00,E9,02,00,00,00
1756488291974734,00000488,false,Rx,0,8,0A,27,55,00,4B,01,0D,00
1756488291976073,00000194,false,Rx,0,6,14,00,FE,FF,02,00,00,00
1756488291979465,00000193,false,Rx,0,6,14,00,E9,FF,FE,FF,00,00
1756488291979736,00000188,false,Rx,0,6,B8,FF,14,00,D5,03,00,00
1756488291979860,00000288,false,Rx,0,6,00,00,00,00,00,00,00,00
1756488291980112,00000213,false,Rx,0,4,08,00,00,00,00,00,00,00
1756488291980210,00000214,false,Rx,0,4,08,00,00,00,00,00,00,00
1756488291982666,00000710,false,Rx,0,1,7F,00,00,00,00,00,00,00
1756488291985033,00000488,false,Rx,0,8,0A,27,55,00,4B,01,0D,00
1756488291985901,00000194,false,Rx,0,6,14,00,02,00,04,00,00,00
1756488291987925,00000181,false,Rx,0,8,04,10,00,E9,02,00,00,00
1756488291989308,00000193,false,Rx,0,6,14,00,F1,FF,04,00,00,00
1756488291989996,00000188,false,Rx,0,6,C3,FF,0E,00,F7,03,00,00
1756488291991134,00000288,false,Rx,0,6,00,00,00,00,00,00,00,00
1756488291991242,00000213,false,Rx,0,4,08,00,00,00,00,00,00,00
1756488291991369,00000214,false,Rx,0,4,08,00,00,00,00,00,00,00
1756488291995735,00000194,false,Rx,0,6,14,00,00,00,01,00,00,00
1756488291996390,00000488,false,Rx,0,8,0A,27,55,00,4B,01,0D,00
1756488291999135,00000193,false,Rx,0,6,14,00,05,00,06,00,00,00
1756488292001140,00000181,false,Rx,0,8,04,10,00,E9,02,00,00,00
1756488292001309,00000188,false,Rx,0,6,B7,FF,12,00,D3,03,00,00
1756488292001409,00000213,false,Rx,0,4,08,00,00,00,00,00,00,00
1756488292001546,00000214,false,Rx,0,4,08,00,00,00,00,00,00,00
1756488292001606,00000288,false,Rx,0,6,00,00,00,00,00,00,00,00
1756488292002256,00000701,false,Rx,0,1,05,00,00,00,00,00,00,00
1756488292005574,00000194,false,Rx,0,6,14,00,01,00,FD,FF,00,00
1756488292006425,00000488,false,Rx,0,8,0A,27,54,00,4B,01,0D,00
1756488292008948,00000193,false,Rx,0,6,14,00,01,00,01,00,00,00
1756488292010990,00000213,false,Rx,0,4,08,00,00,00,00,00,00,00
1756488292011096,00000214,false,Rx,0,4,08,00,00,00,00,00,00,00
1756488292011194,00000188,false,Rx,0,6,C5,FF,05,00,E5,03,00,00
1756488292011289,00000288,false,Rx,0,6,00,00,00,00,00,00,00,00
1756488292015393,00000194,false,Rx,0,6,14,00,00,00,FD,FF,00,00
1756488292016734,00000488,false,Rx,0,8,0A,27,54,00,4B,01,0D,00
1756488292018797,00000193,false,Rx,0,6,14,00,F3,FF,03,00,00,00
1756488292021422,00000188,false,Rx,0,6,BC,FF,09,00,EB,03,00,00
1756488292021571,00000288,false,Rx,0,6,00,00,00,00,00,00,00,00
1756488292022016,00000213,false,Rx,0,4,08,00,00,00,00,00,00,00
1756488292022121,00000214,false,Rx,0,4,08,00,00,00,00,00,00,00
1756488292025245,00000194,false,Rx,0,6,14,00,FF,FF,00,00,00,00
1756488292027053,00000488,false,Rx,0,8,0A,27,54,00,4B,01,0D,00
1756488292028605,00000193,false,Rx,0,6,14,00,00,00,FF,FF,00,00
1756488292031747,00000188,false,Rx,0,6,B2,FF,12,00,D9,03,00,00
1756488292031856,00000288,false,Rx,0,6,00,00,00,00,00,00,00,00
1756488292031955,00000213,false,Rx,0,4,08,00,00,00,00,00,00,00
1756488292032070,00000214,false,Rx,0,4,08,00,00,00,00,00,00,00
1756488292035046,00000194,false,Rx,0,6,14,00,00,00,00,00,00,00
1756488292037336,00000488,false,Rx,0,8,0A,27,54,00,4B,01,0D,00
1756488292038432,00000193,false,Rx,0,6,14,00,04,00,02,00,00,00
1756488292041793,00000213,false,Rx,0,4,08,00,00,00,00,00,00,00
1756488292041902,00000214,false,Rx,0,4,08,00,00,00,00,00,00,00
1756488292042045,00000188,false,Rx,0,6,BB,FF,1D,00,E1,03,00,00
1756488292042163,00000288,false,Rx,0,6,00,00,00,00,00,00,00,00
1756488292044869,00000194,false,Rx,0,6,14,00,00,00,FE,FF,00,00
1756488292045160,00000181,false,Rx,0,8,04,10,00,E9,02,00,00,00
1756488292047638,00000488,false,Rx,0,8,0A,27,54,00,4B,01,0D,00
1756488292048230,00000393,false,Rx,0,6,10,01,D5,01,0F,01,00,00
1756488292048329,00000293,false,Rx,0,4,95,A3,00,00,00,00,00,00
1756488292048427,00000713,false,Rx,0,1,05,00,00,00,00,00,00,00
1756488292048531,00000733,false,Rx,0,8,04,8F,C2,F5,3F,A3,00,05
1756488292048650,00000193,false,Rx,0,6,14,00,07,00,06,00,00,00
1756488292051698,00000213,false,Rx,0,4,08,00,00,00,00,00,00,00
1756488292051803,00000214,false,Rx,0,4,08,00,00,00,00,00,00,00
1756488292052343,00000188,false,Rx,0,6,BD,FF,00,00,F7,03,00,00
1756488292052467,00000288,false,Rx,0,6,00,00,00,00,00,00,00,00
1756488292054672,00000394,false,Rx,0,6,76,05,DD,01,1F,01,00,00
1756488292054779,00000294,false,Rx,0,4,E4,A2,7D,00,00,00,00,00
1756488292054879,00000714,false,Rx,0,1,05,00,00,00,00,00,00,00
1756488292054976,00000734,false,Rx,0,8,09,00,00,00,00,A2,7D,05
1756488292055091,00000194,false,Rx,0,6,14,00,00,00,01,00,00,00
1756488292058086,00000193,false,Rx,0,6,14,00,E9,FF,02,00,00,00
1756488292058364,00000181,false,Rx,0,8,04,10,00,E9,02,00,00,00
1756488292058482,00000488,false,Rx,0,8,0A,27,54,00,4B,01,0D,00
1756488292062245,00000188,false,Rx,0,6,BA,FF,12,00,E8,03,00,00
1756488292062369,00000288,false,Rx,0,6,00,00,00,00,00,00,00,00
1756488292062736,00000213,false,Rx,0,4,08,00,00,00,00,00,00,00
1756488292062840,00000214,false,Rx,0,4,08,00,00,00,00,00,00,00
1756488292063324,00000290,false,Rx,0,7,01,E8,00,00,00,00,00,00
1756488292063421,00000490,false,Rx,0,5,64,00,00,00,00,00,00,00
1756488292064519,00000194,false,Rx,0,6,14,00,00,00,00,00,00,00
1756488292067911,00000193,false,Rx,0,6,14,00,F3,FF,04,00,00,00
1756488292068725,00000488,false,Rx,0,8,0A,27,54,00,4B,01,0D,00
1756488292072518,00000188,false,Rx,0,6,BE,FF,09,00,EF,03,00,00
1756488292072626,00000213,false,Rx,0,4,08,00,00,00,00,00,00,00
1756488292072722,00000214,false,Rx,0,4,08,00,00,00,00,00,00,00
1756488292073363,00000288,false,Rx,0,6,00,00,00,00,00,00,00,00
1756488292074351,00000194,false,Rx,0,6,14,00,01,00,02,00,00,00
1756488292077742,00000193,false,Rx,0,6,14,00,FD,FF,FF,FF,00,00
1756488292079027,00000488,false,Rx,0,8,0A,27,54,00,4C,01,0D,00
1756488292082504,00000213,false,Rx,0,4,08,00,00,00,00,00,00,00
1756488292082607,00000214,false,Rx,0,4,08,00,00,00,00,00,00,00
1756488292083387,00000188,false,Rx,0,6,BA,FF,17,00,E1,03,00,00
1756488292083660,00000288,false,Rx,0,6,00,00,00,00,00,00,00,00
1756488292084170,00000194,false,Rx,0,6,14,00,FF,FF,FF,FF,00,00
1756488292087657,00000193,false,Rx,0,6,14,00,F8,FF,01,00,00,00
1756488292089342,00000488,false,Rx,0,8,0A,27,54,00,4C,01,0D,00
1756488292090689,00000710,false,Rx,0,1,7F,00,00,00,00,00,00,00
1756488292092414,00000213,false,Rx,0,4,08,00,00,00,00,00,00,00
1756488292092524,00000214,false,Rx,0,4,08,00,00,00,00,00,00,00
1756488292093729,00000188,false,Rx,0,6,C7,FF,11,00,E0,03,00,00
1756488292093958,00000288,false,Rx,0,6,00,00,00,00,00,00,00,00
1756488292094075,00000194,false,Rx,0,6,14,00,01,00,01,00,00,00
1756488292097393,00000193,false,Rx,0,6,14,00,F7,FF,FE,FF,00,00
1756488292099632,00000488,false,Rx,0,8,0A,27,54,00,4C,01,0D,00
1756488292102626,00000701,false,Rx,0,1,05,00,00,00,00,00,00,00
1756488292103404,00000213,false,Rx,0,4,08,00,00,00,00,00,00,00
1756488292103504,00000214,false,Rx,0,4,08,00,00,00,00,00,00,00
1756488292103864,00000194,false,Rx,0,6,14,00,FD,FF,01,00,00,00
1756488292104011,00000188,false,Rx,0,6,C6,FF,0A,00,F5,03,00,00
1756488292104254,00000288,false,Rx,0,6,00,00,00,00,00,00,00,00
1756488292107226,00000193,false,Rx,0,6,14,00,01,00,00,00,00,00
1756488292109927,00000488,false,Rx,0,8,0A,27,54,00,4B,01,0D,00
1756488292113316,00000213,false,Rx,0,4,08,00,00,00,00,00,00,00
1756488292113422,00000214,false,Rx,0,4,08,00,00,00,00,00,00,00
1756488292113650,00000194,false,Rx,0,6,14,00,01,00,FE,FF,00,00
1756488292114314,00000188,false,Rx,0,6,C1,FF,0D,00,D5,03,00,00
1756488292114551,00000288,false,Rx,0,6,00,00,00,00,00,00,00,00
1756488292117044,00000193,false,Rx,0,6,14,00,FF,FF,FF,FF,00,00
1756488292121216,00000488,false,Rx,0,8,0A,27,54,00,4B,01,0D,00
1756488292123221,00000213,false,Rx,0,4,08,00,00,00,00,00,00,00
1756488292123365,00000214,false,Rx,0,4,08,00,00,00,00,00,00,00
1756488292123491,00000194,false,Rx,0,6,14,00,FE,FF,FF,FF,00,00
1756488292124594,00000188,false,Rx,0,6,C9,FF,09,00,F5,03,00,00
1756488292124861,00000288,false,Rx,0,6,00,00,00,00,00,00,00,00
1756488292126897,00000193,false,Rx,0,6,14,00,EF,FF,00,00,00,00
1756488292131461,00000488,false,Rx,0,8,0A,27,54,00,4B,01,0D,00
1756488292133316,00000194,false,Rx,0,6,14,00,FF,FF,FD,FF,00,00
1756488292134246,00000213,false,Rx,0,4,08,00,00,00,00,00,00,00
1756488292134352,00000214,false,Rx,0,4,08,00,00,00,00,00,00,00
1756488292134884,00000188,false,Rx,0,6,BE,FF,0F,00,DF,03,00,00
1756488292135162,00000288,false,Rx,0,6,00,00,00,00,00,00,00,00
1756488292136702,00000193,false,Rx,0,6,14,00,F4,FF,FF,FF,00,00
1756488292141752,00000488,false,Rx,0,8,0A,27,54,00,4B,01,0D,00
1756488292143140,00000194,false,Rx,0,6,14,00,FC,FF,FE,FF,00,00
1756488292144140,00000213,false,Rx,0,4,08,00,00,00,00,00,00,00
1756488292144241,00000214,false,Rx,0,4,08,00,00,00,00,00,00,00
1756488292146384,00000188,false,Rx,0,6,BA,FF,18,00,D3,03,00,00
1756488292146492,00000288,false,Rx,0,6,00,00,00,00,00,00,00,00
1756488292146592,00000393,false,Rx,0,6,10,01,D5,01,0F,01,00,00
1756488292146889,00000293,false,Rx,0,4,71,A3,00,00,00,00,00,00
1756488292146999,00000713,false,Rx,0,1,05,00,00,00,00,00,00,00
1756488292147055,00000733,false,Rx,0,8,05,00,00,C0,3F,A3,00,05
1756488292147114,00000193,false,Rx,0,6,14,00,01,00,FD,FF,00,00
1756488292152956,00000394,false,Rx,0,6,76,05,DD,01,16,01,00,00
1756488292153065,00000294,false,Rx,0,4,F7,A2,3C,00,00,00,00,00
1756488292153164,00000714,false,Rx,0,1,05,00,00,00,00,00,00,00
1756488292153259,00000734,false,Rx,0,8,01,9A,99,19,40,A2,3C,05
1756488292153358,00000194,false,Rx,0,6,14,00,FF,FF,FC,FF,00,00
1756488292153456,00000488,false,Rx,0,8,0A,27,54,00,4B,01,0D,00
1756488292154197,00000213,false,Rx,0,4,08,00,00,00,00,00,00,00
1756488292154301,00000214,false,Rx,0,4,08,00,00,00,00,00,00,00
1756488292156358,00000193,false,Rx,0,6,14,00,06,00,01,00,00,00
1756488292156465,00000188,false,Rx,0,6,C2,FF,0F,00,E9,03,00,00
1756488292156561,00000288,false,Rx,0,6,00,00,00,00,00,00,00,00
1756488292162824,00000194,false,Rx,0,6,14,00,00,00,FD,FF,00,00
1756488292163461,00000488,false,Rx,0,8,0A,27,54,00,4B,01,0D,00
1756488292164166,00000213,false,Rx,0,4,08,00,00,00,00,00,00,00
1756488292164281,00000214,false,Rx,0,4,08,00,00,00,00,00,00,00
1756488292166190,00000193,false,Rx,0,6,14,00,FD,FF,FD,FF,00,00
1756488292166461,00000188,false,Rx,0,6,BD,FF,1A,00,D7,03,00,00
1756488292166585,00000288,false,Rx,0,6,00,00,00,00,00,00,00,00
1756488292170219,00000100,false,Rx,0,6,48,9B,BC,03,70,3B,00,00
1756488292173040,00000194,false,Rx,0,6,14,00,00,00,01,00,00,00
1756488292173640,00000488,false,Rx,0,8,0A,27,55,00,4B,01,0D,00
1756488292174084,00000213,false,Rx,0,4,08,00,00,00,00,00,00,00
1756488292174188,00000214,false,Rx,0,4,08,00,00,00,00,00,00,00
1756488292176286,00000193,false,Rx,0,6,14,00,FA,FF,05,00,00,00
1756488292176618,00000188,false,Rx,0,6,C7,FF,0C,00,E5,03,00,00
1756488292176740,00000288,false,Rx,0,6,00,00,00,00,00,00,00,00
1756488292182706,00000194,false,Rx,0,6,14,00,FE,FF,02,00,00,00
1756488292183910,00000488,false,Rx,0,8,0A,27,55,00,4B,01,0D,00
1756488292185132,00000213,false,Rx,0,4,08,00,00,00,00,00,00,00
1756488292185218,00000214,false,Rx,0,4,08,00,00,00,00,00,00,00
1756488292186116,00000193,false,Rx,0,6,14,00,FF,FF,08,00,00,00
1756488292186935,00000188,false,Rx,0,6,BF,FF,14,00,F0,03,00,00
1756488292187072,00000288,false,Rx,0,6,00,00,00,00,00,00,00,00
1756488292192190,00000400,false,Rx,0,8,53,C8,E8,0E,DC,B3,6F,48
1756488292192546,00000401,false,Rx,0,2,26,00,00,00,00,00,00,00
1756488292192667,00000194,false,Rx,0,6,14,00,FD,FF,01,00,00,00
1756488292192857,00000410,false,Rx,0,8,E1,7A,14,AE,47,E1,2C,40
1756488292193563,00000411,false,Rx,0,8,00,00,00,00,00,00,00,00
1756488292194338,00000412,false,Rx,0,8,00,00,00,00,00,00,00,00
1756488292195235,00000413,false,Rx,0,8,00,00,00,00,00,00,00,00
1756488292196077,00000414,false,Rx,0,8,E1,7A,14,AE,47,E1,2C,40
1756488292196224,00000488,false,Rx,0,8,0A,27,54,00,4B,01,0D,00
1756488292196335,00000415,false,Rx,0,8,00,00,00,00,00,00,00,00
1756488292196412,00000416,false,Rx,0,8,00,00,00,00,00,00,00,00
1756488292196484,00000417,false,Rx,0,8,00,00,00,00,00,00,00,00
1756488292196559,00000213,false,Rx,0,4,08,00,00,00,00,00,00,00
1756488292196627,00000214,false,Rx,0,4,08,00,00,00,00,00,00,00
1756488292196696,00000418,false,Rx,0,8,E1,7A,14,AE,47,E1,6C,40
1756488292196957,00000193,false,Rx,0,6,14,00,01,00,01,00,00,00
1756488292197345,00000419,false,Rx,0,8,01,00,00,00,00,00,00,00
1756488292197533,00000188,false,Rx,0,6,B5,FF,12,00,DD,03,00,00
1756488292197631,00000288,false,Rx,0,6,00,00,00,00,00,00,00,00
1756488292198854,00000710,false,Rx,0,1,7F,00,00,00,00,00,00,00
1756488292199948,00000400,false,Rx,0,8,53,C8,E8,0E,DC,B3,6F,48
1756488292200332,00000401,false,Rx,0,2,00,00,00,00,00,00,00,00
1756488292200674,00000410,false,Rx,0,8,00,00,00,00,00,00,00,00
1756488292201000,00000411,false,Rx,0,8,00,00,00,00,00,00,00,00
1756488292201166,00000412,false,Rx,0,8,00,00,00,00,00,00,00,00
1756488292201367,00000413,false,Rx,0,8,00,00,00,00,00,00,00,00
1756488292201995,00000414,false,Rx,0,8,00,00,00,00,00,00,00,00
1756488292202500,00000415,false,Rx,0,8,00,00,00,00,00,00,00,00
1756488292202933,00000194,false,Rx,0,6,14,00,02,00,03,00,00,00
1756488292203353,00000416,false,Rx,0,8,00,00,00,00,00,00,00,00
1756488292203925,00000701,false,Rx,0,1,05,00,00,00,00,00,00,00
1756488292204101,00000417,false,Rx,0,8,00,00,00,00,00,00,00,00
1756488292204193,00000418,false,Rx,0,8,00,00,00,00,00,00,00,00
1756488292204341,00000419,false,Rx,0,8,00,00,00,00,00,00,00,00
1756488292204542,00000488,false,Rx,0,8,0A,27,54,00,4B,01,0D,00
1756488292205002,00000213,false,Rx,0,4,08,00,00,00,00,00,00,00
1756488292205100,00000214,false,Rx,0,4,08,00,00,00,00,00,00,00
1756488292205475,00000402,false,Rx,0,8,F8,FF,FF,FF,00,00,00,00
1756488292205932,00000193,false,Rx,0,6,14,00,F8,FF,05,00,00,00
1756488292206061,00000403,false,Rx,0,8,00,00,00,00,00,00,00,00
1756488292206501,00000404,false,Rx,0,8,00,00,00,00,00,00,00,00
1756488292206816,00000405,false,Rx,0,8,00,00,00,00,00,00,00,00
1756488292207231,00000406,false,Rx,0,8,00,00,00,00,00,00,00,00
1756488292207759,00000407,false,Rx,0,8,00,00,00,00,00,00,00,00
1756488292208047,00000188,false,Rx,0,6,BD,FF,11,00,E0,03,00,00
1756488292208164,00000288,false,Rx,0,6,00,00,00,00,00,00,00,00
1756488292208237,00000408,false,Rx,0,8,08,00,00,00,00,00,00,00
1756488292212792,00000194,false,Rx,0,6,14,00,FF,FF,02,00,00,00
1756488292214759,00000488,false,Rx,0,8,0A,27,54,00,4B,01,0D,00
1756488292215540,00000193,false,Rx,0,6,14,00,03,00,01,00,00,00
1756488292215882,00000213,false,Rx,0,4,08,00,00,00,00,00,00,00
1756488292215981,00000214,false,Rx,0,4,08,00,00,00,00,00,00,00
1756488292218496,00000188,false,Rx,0,6,BD,FF,0C,00,F2,03,00,00
1756488292218608,00000288,false,Rx,0,6,00,00,00,00,00,00,00,00
1756488292221984,00000194,false,Rx,0,6,14,00,FB,FF,FD,FF,00,00
1756488292224375,00000488,false,Rx,0,8,0A,27,54,00,4B,01,0D,00
1756488292225370,00000193,false,Rx,0,6,14,00,13,00,00,00,00,00
1756488292225790,00000213,false,Rx,0,4,08,00,00,00,00,00,00,00
1756488292225873,00000214,false,Rx,0,4,08,00,00,00,00,00,00,00
1756488292228707,00000188,false,Rx,0,6,AE,FF,0F,00,D5,03,00,00
1756488292228820,00000288,false,Rx,0,6,00,00,00,00,00,00,00,00
1756488292231815,00000194,false,Rx,0,6,14,00,02,00,FF,FF,00,00
1756488292234615,00000488,false,Rx,0,8,0A,27,54,00,4B,01,0D,00
1756488292235223,00000193,false,Rx,0,6,14,00,0C,00,04,00,00,00
1756488292235746,00000213,false,Rx,0,4,08,00,00,00,00,00,00,00
1756488292235842,00000214,false,Rx,0,4,08,00,00,00,00,00,00,00
1756488292238883,00000188,false,Rx,0,6,C2,FF,0C,00,DC,03,00,00
1756488292238989,00000288,false,Rx,0,6,00,00,00,00,00,00,00,00
1756488292241639,00000194,false,Rx,0,6,14,00,05,00,FE,FF,00,00
1756488292244771,00000488,false,Rx,0,8,0A,27,54,00,4B,01,0D,00
1756488292245036,00000393,false,Rx,0,6,10,01,D5,01,0F,01,00,00
1756488292245129,00000293,false,Rx,0,4,75,A3,00,00,00,00,00,00
1756488292245245,00000713,false,Rx,0,1,05,00,00,00,00,00,00,00
1756488292245381,00000733,false,Rx,0,8,06,6F,12,03,3B,A3,00,05
1756488292245539,00000193,false,Rx,0,6,14,00,F2,FF,FD,FF,00,00
1756488292245642,00000213,false,Rx,0,4,08,00,00,00,00,00,00,00
1756488292245749,00000214,false,Rx,0,4,08,00,00,00,00,00,00,00
1756488292249006,00000188,false,Rx,0,6,BF,FF,08,00,FD,03,00,00
1756488292249091,00000288,false,Rx,0,6,00,00,00,00,00,00,00,00
1756488292251518,00000394,false,Rx,0,6,76,05,DD,01,31,01,00,00
1756488292251633,00000294,false,Rx,0,4,FB,A2,D4,FF,00,00,00,00
1756488292251696,00000714,false,Rx,0,1,05,00,00,00,00,00,00,00
1756488292251760,00000734,false,Rx,0,8,02,00,00,C0,3F,A2,D4,05
1756488292251877,00000194,false,Rx,0,6,14,00,FA,FF,00,00,00,00
1756488292254865,00000193,false,Rx,0,6,14,00,F9,FF,01,00,00,00
1756488292254989,00000488,false,Rx,0,8,0A,27,54,00,4B,01,0D,00
1756488292256761,00000213,false,Rx,0,4,08,00,00,00,00,00,00,00
1756488292256865,00000214,false,Rx,0,4,08,00,00,00,00,00,00,00
1756488292259248,00000188,false,Rx,0,6,B5,FF,0E,00,E0,03,00,00
1756488292259357,00000288,false,Rx,0,6,00,00,00,00,00,00,00,00
1756488292261289,00000194,false,Rx,0,6,14,00,FE,FF,FD,FF,00,00
1756488292264716,00000193,false,Rx,0,6,14,00,FD,FF,FF,FF,00,00
1756488292265105,00000488,false,Rx,0,8,0A,27,54,00,4B,01,0D,00
1756488292265216,00000290,false,Rx,0,7,01,E8,00,00,00,00,00,00
1756488292265313,00000490,false,Rx,0,5,64,00,00,00,00,00,00,00
1756488292266800,00000213,false,Rx,0,4,08,00,00,00,00,00,00,00
1756488292266897,00000214,false,Rx,0,4,08,00,00,00,00,00,00,00
1756488292269466,00000188,false,Rx,0,6,B9,FF,14,00,D1,03,00,00
1756488292269607,00000288,false,Rx,0,6,00,00,00,00,00,00,00,00
1756488292271093,00000194,false,Rx,0,6,14,00,FF,FF,FE,FF,00,00
1756488292274566,00000193,false,Rx,0,6,14,00,01,00,FC,FF,00,00
1756488292276497,00000488,false,Rx,0,8,0A,27,54,00,4B,01,0D,00
1756488292276688,00000213,false,Rx,0,4,08,00,00,00,00,00,00,00
1756488292276791,00000214,false,Rx,0,4,08,00,00,00,00,00,00,00
1756488292278477,00000188,false,Rx,0,6,C1,FF,10,00,E1,03,00,00
1756488292278586,00000288,false,Rx,0,6,00,00,00,00,00,00,00,00
1756488292280912,00000194,false,Rx,0,6,14,00,FF,FF,FD,FF,00,00
1756488292284332,00000193,false,Rx,0,6,14,00,F9,FF,FE,FF,00,00
1756488292286569,00000213,false,Rx,0,4,08,00,00,00,00,00,00,00
1756488292286674,00000214,false,Rx,0,4,08,00,00,00,00,00,00,00
1756488292286772,00000488,false,Rx,0,8,0A,27,54,00,4B,01,0D,00
1756488292288660,00000188,false,Rx,0,6,BE,FF,1D,00,D4,03,00,00
1756488292288800,00000288,false,Rx,0,6,00,00,00,00,00,00,00,00
1756488292290748,00000194,false,Rx,0,6,14,00,FC,FF,02,00,00,00
1756488292294153,00000193,false,Rx,0,6,14,00,06,00,FF,FF,00,00
1756488292296927,00000488,false,Rx,0,8,0A,27,54,00,4B,01,0D,00
1756488292297593,00000213,false,Rx,0,4,08,00,00,00,00,00,00,00
1756488292297694,00000214,false,Rx,0,4,08,00,00,00,00,00,00,00
1756488292298860,00000188,false,Rx,0,6,C5,FF,0B,00,E8,03,00,00
1756488292298979,00000288,false,Rx,0,6,00,00,00,00,00,00,00,00
1756488292300572,00000194,false,Rx,0,6,14,00,FC,FF,FE,FF,00,00
1756488292303066,00000701,false,Rx,0,1,05,00,00,00,00,00,00,00
1756488292303974,00000193,false,Rx,0,6,14,00,0F,00,00,00,00,00
1756488292306626,00000710,false,Rx,0,1,7F,00,00,00,00,00,00,00
1756488292307119,00000488,false,Rx,0,8,0A,27,54,00,4B,01,0D,00
1756488292307493,00000213,false,Rx,0,4,08,00,00,00,00,00,00,00
1756488292307590,00000214,false,Rx,0,4,08,00,00,00,00,00,00,00
1756488292309059,00000188,false,Rx,0,6,C2,FF,15,00,EA,03,00,00
1756488292309175,00000288,false,Rx,0,6,00,00,00,00,00,00,00,00
1756488292310401,00000194,false,Rx,0,6,14,00,FE,FF,FF,FF,00,00
1756488292313817,00000193,false,Rx,0,6,14,00,FC,FF,FE,FF,00,00
1756488292317324,00000488,false,Rx,0,8,0A,27,54,00,4B,01,0D,00
1756488292317422,00000213,false,Rx,0,4,08,00,00,00,00,00,00,00
1756488292317543,00000214,false,Rx,0,4,08,00,00,00,00,00,00,00
1756488292319267,00000188,false,Rx,0,6,BB,FF,15,00,DE,03,00,00
1756488292319379,00000288,false,Rx,0,6,00,00,00,00,00,00,00,00
1756488292320218,00000194,false,Rx,0,6,14,00,FE,FF,01,00,00,00
1756488292323661,00000193,false,Rx,0,6,14,00,FA,FF,01,00,00,00
1756488292327317,00000213,false,Rx,0,4,08,00,00,00,00,00,00,00
1756488292327413,00000214,false,Rx,0,4,08,00,00,00,00,00,00,00
1756488292327524,00000488,false,Rx,0,8,0A,27,54,00,4B,01,0D,00
1756488292329467,00000188,false,Rx,0,6,C4,FF,0C,00,EC,03,00,00
1756488292329585,00000288,false,Rx,0,6,00,00,00,00,00,00,00,00
1756488292330042,00000194,false,Rx,0,6,14,00,04,00,03,00,00,00
1756488292333469,00000193,false,Rx,0,6,14,00,F6,FF,00,00,00,00
1756488292337722,00000488,false,Rx,0,8,0A,27,54,00,4B,01,0D,00
1756488292338312,00000213,false,Rx,0,4,08,00,00,00,00,00,00,00
1756488292338414,00000214,false,Rx,0,4,08,00,00,00,00,00,00,00
1756488292339662,00000188,false,Rx,0,6,BF,FF,08,00,EC,03,00,00
1756488292339776,00000288,false,Rx,0,6,00,00,00,00,00,00,00,00
1756488292339874,00000194,false,Rx,0,6,14,00,04,00,02,00,00,00
1756488292343284,00000393,false,Rx,0,6,11,01,D5,01,0F,01,00,00
1756488292343381,00000293,false,Rx,0,4,58,A3,00,00,00,00,00,00
1756488292343480,00000713,false,Rx,0,1,05,00,00,00,00,00,00,00
1756488292343580,00000733,false,Rx,0,8,07,00,00,80,3F,A3,00,05
1756488292343678,00000193,false,Rx,0,6,14,00,0A,00,03,00,00,00
1756488292348187,00000213,false,Rx,0,4,08,00,00,00,00,00,00,00
1756488292348281,00000214,false,Rx,0,4,08,00,00,00,00,00,00,00
1756488292348661,00000488,false,Rx,0,8,0A,27,54,00,4B,01,0D,00
1756488292349128,00000188,false,Rx,0,6,C6,FF,0E,00,ED,03,00,00
1756488292349244,00000288,false,Rx,0,6,00,00,00,00,00,00,00,00
1756488292349697,00000394,false,Rx,0,6,76,05,DD,01,28,01,00,00
1756488292349794,00000294,false,Rx,0,4,09,A3,2C,00,00,00,00,00
1756488292349894,00000714,false,Rx,0,1,05,00,00,00,00,00,00,00
1756488292349995,00000734,false,Rx,0,8,03,6F,12,03,3B,A3,2C,05
1756488292350093,00000194,false,Rx,0,6,14,00,00,00,FF,FF,00,00
1756488292353113,00000193,false,Rx,0,6,14,00,04,00,FE,FF,00,00
1756488292358091,00000213,false,Rx,0,4,08,00,00,00,00,00,00,00
1756488292358189,00000214,false,Rx,0,4,08,00,00,00,00,00,00,00
1756488292358900,00000488,false,Rx,0,8,0A,27,54,00,4B,01,0D,00
1756488292359333,00000188,false,Rx,0,6,BE,FF,10,00,FC,03,00,00
1756488292359449,00000288,false,Rx,0,6,00,00,00,00,00,00,00,00
1756488292359547,00000194,false,Rx,0,6,14,00,FF,FF,01,00,00,00
1756488292362942,00000193,false,Rx,0,6,14,00,05,00,01,00,00,00
1756488292368001,00000213,false,Rx,0,4,08,00,00,00,00,00,00,00
1756488292368096,00000214,false,Rx,0,4,08,00,00,00,00,00,00,00
1756488292369105,00000488,false,Rx,0,8,0A,27,54,00,4B,01,0D,00
1756488292369351,00000194,false,Rx,0,6,14,00,FF,FF,01,00,00,00
1756488292369548,00000188,false,Rx,0,6,B2,FF,11,00,D0,03,00,00
1756488292369657,00000288,false,Rx,0,6,00,00,00,00,00,00,00,00
1756488292372770,00000193,false,Rx,0,6,14,00,05,00,03,00,00,00
1756488292379172,00000213,false,Rx,0,4,08,00,00,00,00,00,00,00
1756488292379277,00000194,false,Rx,0,6,14,00,FF,FF,03,00,00,00
1756488292379342,00000214,false,Rx,0,4,08,00,00,00,00,00,00,00
1756488292379436,00000488,false,Rx,0,8,0A,27,54,00,4B,01,0D,00
1756488292379728,00000188,false,Rx,0,6,C3,FF,15,00,ED,03,00,00
1756488292379846,00000288,false,Rx,0,6,00,00,00,00,00,00,00,00
1756488292382605,00000193,false,Rx,0,6,14,00,11,00,00,00,00,00
1756488292389016,00000194,false,Rx,0,6,14,00,FE,FF,FC,FF,00,00
1756488292389115,00000213,false,Rx,0,4,08,00,00,00,00,00,00,00
1756488292389215,00000214,false,Rx,0,4,08,00,00,00,00,00,00,00
1756488292389506,00000488,false,Rx,0,8,0A,27,54,00,4B,01,0D,00
1756488292389945,00000188,false,Rx,0,6,C2,FF,09,00,00,04,00,00
1756488292390055,00000288,false,Rx,0,6,00,00,00,00,00,00,00,00
1756488292392425,00000193,false,Rx,0,6,14,00,04,00,00,00,00,00
1756488292398846,00000194,false,Rx,0,6,14,00,00,00,00,00,00,00
1756488292398940,00000213,false,Rx,0,4,08,00,00,00,00,00,00,00
1756488292399038,00000214,false,Rx,0,4,08,00,00,00,00,00,00,00
1756488292399700,00000488,false,Rx,0,8,0A,27,54,00,4B,01,0D,00
1756488292400133,00000188,false,Rx,0,6,BC,FF,0E,00,D9,03,00,00
1756488292400249,00000288,false,Rx,0,6,00,00,00,00,00,00,00,00
1756488292402253,00000193,false,Rx,0,6,14,00,FE,FF,FF,FF,00,00
1756488292403177,00000701,false,Rx,0,1,05,00,00,00,00,00,00,00
1756488292406225,00000710,false,Rx,0,1,7F,00,00,00,00,00,00,00
1756488292408723,00000194,false,Rx,0,6,14,00,00,00,FF,FF,00,00
1756488292408854,00000213,false,Rx,0,4,08,00,00,00,00,00,00,00
1756488292409977,00000488,false,Rx,0,8,0A,27,54,00,4B,01,0D,00
1756488292410066,00000214,false,Rx,0,4,08,00,00,00,00,00,00,00
1756488292411326,00000188,false,Rx,0,6,B7,FF,1F,00,D2,03,00,00
1756488292411411,00000288,false,Rx,0,6,00,00,00,00,00,00,00,00
1756488292412123,00000193,false,Rx,0,6,14,00,14,00,01,00,00,00
1756488292418508,00000194,false,Rx,0,6,14,00,03,00,02,00,00,00
1756488292419856,00000213,false,Rx,0,4,08,00,00,00,00,00,00,00
1756488292419946,00000214,false,Rx,0,4,08,00,00,00,00,00,00,00
1756488292420191,00000488,false,Rx,0,8,0A,27,54,00,4B,01,0D,00
1756488292421486,00000188,false,Rx,0,6,C2,FF,0B,00,F3,03,00,00
1756488292421607,00000288,false,Rx,0,6,00,00,00,00,00,00,00,00
1756488292421903,00000193,false,Rx,0,6,14,00,0C,00,FC,FF,00,00
1756488292428358,00000194,false,Rx,0,6,14,00,01,00,00,00,00,00
1756488292429747,00000213,false,Rx,0,4,08,00,00,00,00,00,00,00
1756488292429826,00000214,false,Rx,0,4,08,00,00,00,00,00,00,00
1756488292431328,00000488,false,Rx,0,8,0A,27,54,00,4B,01,0D,00
1756488292431630,00000188,false,Rx,0,6,B9,FF,12,00,D4,03,00,00
1756488292431752,00000193,false,Rx,0,6,14,00,FD,FF,00,00,00,00
1756488292431850,00000288,false,Rx,0,6,00,00,00,00,00,00,00,00
1756488292438158,00000194,false,Rx,0,6,14,00,01,00,FF,FF,00,00
1756488292439722,00000213,false,Rx,0,4,08,00,00,00,00,00,00,00
1756488292439824,00000214,false,Rx,0,4,08,00,00,00,00,00,00,00
1756488292441511,00000488,false,Rx,0,8,0A,27,54,00,4B,01,0D,00
1756488292441605,00000393,false,Rx,0,6,11,01,D5,01,0F,01,00,00
1756488292441707,00000293,false,Rx,0,4,60,A3,00,00,00,00,00,00
1756488292441805,00000713,false,Rx,0,1,05,00,00,00,00,00,00,00
1756488292441906,00000188,false,Rx,0,6,C6,FF,16,00,E9,03,00,00
1756488292442005,00000288,false,Rx,0,6,00,00,00,00,00,00,00,00
1756488292442105,00000733,false,Rx,0,8,08,00,00,80,3F,A3,00,05
1756488292442206,00000193,false,Rx,0,6,14,00,FB,FF,FF,FF,00,00
1756488292445262,00000181,false,Rx,0,8,04,10,00,E9,02,00,00,00
1756488292447974,00000394,false,Rx,0,6,7A,05,DD,01,1F,01,00,00
1756488292448070,00000294,false,Rx,0,4,DC,A2,EC,FF,00,00,00,00
1756488292448168,00000714,false,Rx,0,1,05,00,00,00,00,00,00,00
1756488292448266,00000734,false,Rx,0,8,04,8F,C2,F5,3F,A2,EC,05
1756488292448365,00000194,false,Rx,0,6,14,00,03,00,04,00,00,00
1756488292450728,00000213,false,Rx,0,4,08,00,00,00,00,00,00,00
1756488292450821,00000214,false,Rx,0,4,08,00,00,00,00,00,00,00
1756488292451383,00000193,false,Rx,0,6,14,00,F6,FF,01,00,00,00
1756488292451711,00000488,false,Rx,0,8,0A,27,54,00,4B,01,0D,00
1756488292452028,00000188,false,Rx,0,6,BF,FF,0B,00,E2,03,00,00
1756488292452146,00000288,false,Rx,0,6,00,00,00,00,00,00,00,00
1756488292457807,00000194,false,Rx,0,6,14,00,FE,FF,00,00,00,00
1756488292458484,00000181,false,Rx,0,8,04,10,00,E9,02,00,00,00
1756488292460638,00000213,false,Rx,0,4,08,00,00,00,00,00,00,00
1756488292460736,00000214,false,Rx,0,4,08,00,00,00,00,00,00,00
1756488292461209,00000193,false,Rx,0,6,14,00,0A,00,01,00,00,00
1756488292461932,00000488,false,Rx,0,8,0A,27,54,00,4B,01,0D,00
1756488292462379,00000188,false,Rx,0,6,BA,FF,15,00,DD,03,00,00
1756488292462467,00000288,false,Rx,0,6,00,00,00,00,00,00,00,00
1756488292465355,00000290,false,Rx,0,7,01,E8,00,00,00,00,00,00
1756488292465442,00000490,false,Rx,0,5,64,00,00,00,00,00,00,00
1756488292467642,00000194,false,Rx,0,6,14,00,01,00,FF,FF,00,00
1756488292470570,00000213,false,Rx,0,4,08,00,00,00,00,00,00,00
1756488292470656,00000214,false,Rx,0,4,08,00,00,00,00,00,00,00
1756488292471040,00000193,false,Rx,0,6,14,00,07,00,FB,FF,00,00
1756488292472117,00000488,false,Rx,0,8,0A,27,54,00,4B,01,0D,00
1756488292472434,00000188,false,Rx,0,6,C8,FF,10,00,F0,03,00,00
1756488292472555,00000288,false,Rx,0,6,00,00,00,00,00,00,00,00
1756488292477508,00000194,false,Rx,0,6,14,00,03,00,FF,FF,00,00
1756488292480509,00000213,false,Rx,0,4,08,00,00,00,00,00,00,00
1756488292480607,00000214,false,Rx,0,4,08,00,00,00,00,00,00,00
1756488292480873,00000193,false,Rx,0,6,14,00,06,00,FC,FF,00,00
1756488292482316,00000488,false,Rx,0,8,0A,27,54,00,4B,01,0D,00
1756488292482628,00000188,false,Rx,0,6,C8,FF,0E,00,DA,03,00,00
1756488292482745,00000288,false,Rx,0,6,00,00,00,00,00,00,00,00
1756488292487288,00000194,false,Rx,0,6,14,00,FC,FF,02,00,00,00
1756488292490720,00000193,false,Rx,0,6,14,00,08,00,00,00,00,00
1756488292491484,00000213,false,Rx,0,4,08,00,00,00,00,00,00,00
1756488292491563,00000214,false,Rx,0,4,08,00,00,00,00,00,00,00
1756488292492567,00000488,false,Rx,0,8,0A,27,54,00,4B,01,0D,00
1756488292493546,00000188,false,Rx,0,6,B7,FF,19,00,D3,03,00,00
1756488292493640,00000288,false,Rx,0,6,00,00,00,00,00,00,00,00
1756488292497191,00000194,false,Rx,0,6,14,00,01,00,FF,FF,00,00
1756488292500576,00000193,false,Rx,0,6,14,00,06,00,FD,FF,00,00
1756488292501379,00000213,false,Rx,0,4,08,00,00,00,00,00,00,00
1756488292501474,00000214,false,Rx,0,4,08,00,00,00,00,00,00,00
1756488292503425,00000701,false,Rx,0,1,05,00,00,00,00,00,00,00
1756488292503539,00000488,false,Rx,0,8,0A,27,54,00,4B,01,0D,00
1756488292503654,00000188,false,Rx,0,6,C0,FF,05,00,FB,03,00,00
1756488292503819,00000288,false,Rx,0,6,00,00,00,00,00,00,00,00
1756488292506140,00000710,false,Rx,0,1,7F,00,00,00,00,00,00,00
1756488292506937,00000194,false,Rx,0,6,14,00,FF,FF,01,00,00,00
1756488292510364,00000193,false,Rx,0,6,14,00,02,00,01,00,00,00
1756488292511274,00000213,false,Rx,0,4,08,00,00,00,00,00,00,00
1756488292511372,00000214,false,Rx,0,4,08,00,00,00,00,00,00,00
1756488292513817,00000488,false,Rx,0,8,0A,27,54,00,4B,01,0D,00
1756488292513913,00000188,false,Rx,0,6,B9,FF,13,00,DD,03,00,00
1756488292514119,00000288,false,Rx,0,6,00,00,00,00,00,00,00,00
1756488292516764,00000194,false,Rx,0,6,14,00,03,00,FC,FF,00,00
1756488292520177,00000193,false,Rx,0,6,14,00,0A,00,05,00,00,00
1756488292522255,00000213,false,Rx,0,4,08,00,00,00,00,00,00,00
1756488292522350,00000214,false,Rx,0,4,08,00,00,00,00,00,00,00
1756488292524117,00000488,false,Rx,0,8,0A,27,54,00,4B,01,0D,00
1756488292524232,00000188,false,Rx,0,6,C1,FF,12,00,E1,03,00,00
1756488292524417,00000288,false,Rx,0,6,00,00,00,00,00,00,00,00
1756488292526636,00000194,false,Rx,0,6,14,00,FD,FF,FC,FF,00,00
1756488292530016,00000193,false,Rx,0,6,14,00,0B,00,FE,FF,00,00
1756488292532162,00000213,false,Rx,0,4,08,00,00,00,00,00,00,00
1756488292532257,00000214,false,Rx,0,4,08,00,00,00,00,00,00,00
1756488292534440,00000488,false,Rx,0,8,0A,27,54,00,4B,01,0D,00
1756488292534539,00000188,false,Rx,0,6,C3,FF,07,00,F4,03,00,00
1756488292534726,00000288,false,Rx,0,6,00,00,00,00,00,00,00,00
1756488292536422,00000194,false,Rx,0,6,14,00,FF,FF,FD,FF,00,00
1756488292539830,00000393,false,Rx,0,6,11,01,D5,01,0F,01,00,00
1756488292539925,00000293,false,Rx,0,4,5A,A3,00,00,00,00,00,00
1756488292540023,00000713,false,Rx,0,1,05,00,00,00,00,00,00,00
1756488292540121,00000733,false,Rx,0,8,09,00,00,00,00,A3,00,05
1756488292540221,00000193,false,Rx,0,6,14,00,02,00,02,00,00,00
1756488292542068,00000213,false,Rx,0,4,08,00,00,00,00,00,00,00
1756488292542163,00000214,false,Rx,0,4,08,00,00,00,00,00,00,00
1756488292544717,00000488,false,Rx,0,8,0A,27,54,00,4B,01,0D,00
1756488292544832,00000188,false,Rx,0,6,BC,FF,12,00,DA,03,00,00
1756488292545024,00000288,false,Rx,0,6,00,00,00,00,00,00,00,00
1756488292546247,00000394,false,Rx,0,6,7A,05,DD,01,31,01,00,00
1756488292546344,00000294,false,Rx,0,4,FC,A2,D0,FF,00,00,00,00
1756488292546442,00000714,false,Rx,0,1,05,00,00,00,00,00,00,00
1756488292546540,00000734,false,Rx,0,8,05,00,00,C0,3F,A2,D0,05
1756488292546638,00000194,false,Rx,0,6,14,00,FE,FF,00,00,00,00
1756488292549669,00000193,false,Rx,0,6,14,00,FD,FF,FD,FF,00,00
1756488292551971,00000213,false,Rx,0,4,08,00,00,00,00,00,00,00
1756488292552067,00000214,false,Rx,0,4,08,00,00,00,00,00,00,00
1756488292555018,00000488,false,Rx,0,8,0A,27,54,00,4B,01,0D,00
1756488292555131,00000188,false,Rx,0,6,C0,FF,16,00,E1,03,00,00
1756488292556076,00000194,false,Rx,0,6,14,00,01,00,01,00,00,00
1756488292556549,00000288,false,Rx,0,6,00,00,00,00,00,00,00,00
1756488292556667,00000488,false,Rx,0,8,0A,27,54,00,4B,01,0D,00
1756488292556763,00000188,false,Rx,0,6,BF,FF,08,00,FA,03,00,00
1756488292556916,00000288,false,Rx,0,6,00,00,00,00,00,00,00,00
1756488292559487,00000193,false,Rx,0,6,14,00,02,00,00,00,00,00
1756488292562974,00000213,false,Rx,0,4,08,00,00,00,00,00,00,00
1756488292563070,00000214,false,Rx,0,4,08,00,00,00,00,00,00,00
1756488292565907,00000194,false,Rx,0,6,14,00,00,00,05,00,00,00
1756488292566918,00000488,false,Rx,0,8,0A,27,54,00,4B,01,0D,00
1756488292567038,00000188,false,Rx,0,6,B8,FF,10,00,D7,03,00,00
1756488292567219,00000288,false,Rx,0,6,00,00,00,00,00,00,00,00
1756488292569313,00000193,false,Rx,0,6,14,00,01,00,0A,00,00,00
1756488292572878,00000213,false,Rx,0,4,08,00,00,00,00,00,00,00
1756488292572974,00000214,false,Rx,0,4,08,00,00,00,00,00,00,00
1756488292575730,00000194,false,Rx,0,6,14,00,02,00,02,00,00,00
1756488292577217,00000488,false,Rx,0,8,0A,27,54,00,4B,01,0D,00
1756488292577407,00000188,false,Rx,0,6,BA,FF,1B,00,DB,03,00,00
1756488292577555,00000288,false,Rx,0,6,00,00,00,00,00,00,00,00
1756488292579192,00000193,false,Rx,0,6,14,00,F6,FF,08,00,00,00
1756488292582854,00000213,false,Rx,0,4,08,00,00,00,00,00,00,00
1756488292582953,00000214,false,Rx,0,4,08,00,00,00,00,00,00,00
1756488292585583,00000194,false,Rx,0,6,14,00,FE,FF,00,00,00,00
1756488292587529,00000488,false,Rx,0,8,0A,27,54,00,4B,01,0D,00
1756488292587623,00000188,false,Rx,0,6,BF,FF,10,00,FB,03,00,00
1756488292588504,00000288,false,Rx,0,6,00,00,00,00,00,00,00,00
1756488292588964,00000193,false,Rx,0,6,14,00,0B,00,03,00,00,00
1756488292593793,00000213,false,Rx,0,4,08,00,00,00,00,00,00,00
1756488292593895,00000214,false,Rx,0,4,08,00,00,00,00,00,00,00
1756488292595387,00000194,false,Rx,0,6,14,00,FC,FF,03,00,00,00
1756488292597831,00000488,false,Rx,0,8,0A,27,54,00,4B,01,0D,00
1756488292598706,00000188,false,Rx,0,6,C0,FF,14,00,DF,03,00,00
1756488292598821,00000193,false,Rx,0,6,14,00,07,00,06,00,00,00
1756488292599219,00000288,false,Rx,0,6,00,00,00,00,00,00,00,00
1756488292603700,00000213,false,Rx,0,4,08,00,00,00,00,00,00,00
1756488292603795,00000214,false,Rx,0,4,08,00,00,00,00,00,00,00
1756488292603894,00000701,false,Rx,0,1,05,00,00,00,00,00,00,00
1756488292605214,00000194,false,Rx,0,6,14,00,01,00,02,00,00,00
1756488292605356,00000190,false,Rx,0,8,00,CA,CA,CA,CA,CA,CA,CA
1756488292605477,00000190,false,Rx,0,8,07,CA,CA,CA,CA,CA,CA,CA
1756488292605595,00000190,false,Rx,0,8,15,CA,CA,CA,CA,CA,CA,CA
1756488292605692,00000190,false,Rx,0,8,1C,CA,CA,CA,CA,CA,CA,CA
1756488292605792,00000190,false,Rx,0,8,23,CA,CA,CA,CA,CA,CA,CA
1756488292605908,00000190,false,Rx,0,8,0E,CA,CA,CA,CA,CA,CA,CA
1756488292606026,00000190,false,Rx,0,8,2A,CA,CA,CA,CA,CA,CA,CA
1756488292606145,00000190,false,Rx,0,8,31,CA,CA,CA,CA,CA,CA,CA
1756488292606263,00000190,false,Rx,0,8,3F,CA,CA,CA,CA,CA,CA,CA
1756488292606381,00000190,false,Rx,0,8,46,CA,CA,CA,CA,CA,CA,CA
1756488292606482,00000190,false,Rx,0,8,38,CA,CA,CA,CA,CA,CA,C9
1756488292606584,00000190,false,Rx,0,8,4D,CA,CA,CA,CA,CA,CA,CA
1756488292606705,00000190,false,Rx,0,8,54,CA,CA,CA,CA,CA,CA,CA
1756488292606820,00000190,false,Rx,0,8,62,CA,C8,CA,CA,CA,CA,CA
1756488292606937,00000190,false,Rx,0,8,5B,CA,CA,CA,CA,CA,CA,CA
1756488292607034,00000710,false,Rx,0,1,7F,00,00,00,00,00,00,00
1756488292608610,00000488,false,Rx,0,8,0A,27,54,00,4B,01,0D,00
1756488292608725,00000193,false,Rx,0,6,14,00,09,00,FD,FF,00,00
1756488292608917,00000188,false,Rx,0,6,BE,FF,11,00,F4,03,00,00
1756488292609542,00000288,false,Rx,0,6,00,00,00,00,00,00,00,00
1756488292610443,00000390,false,Rx,0,8,00,13,13,13,13,13,13,13
1756488292610559,00000390,false,Rx,0,8,07,13,3D,3D,3D,3D,3D,3D
1756488292610676,00000390,false,Rx,0,8,15,3D,3D,3D,3C,3C,3C,3C
1756488292610774,00000390,false,Rx,0,8,1C,3C,3C,3C,3C,3D,3D,3D
1756488292610872,00000390,false,Rx,0,8,23,3D,3D,3D,3D,3D,3D,3D
1756488292610989,00000390,false,Rx,0,8,0E,3D,3D,3D,3D,3D,3D,3D
1756488292611106,00000390,false,Rx,0,8,2A,3D,3D,3D,3D,3D,3D,3C
1756488292611225,00000390,false,Rx,0,8,31,3C,3C,3C,3C,3C,3C,3C
1756488292611345,00000390,false,Rx,0,8,3F,13,3D,3D,3D,3D,3D,3D
1756488292611462,00000390,false,Rx,0,8,46,3D,3D,3D,3D,3D,3D,3D
1756488292611579,00000390,false,Rx,0,8,38,13,13,13,13,13,13,13
1756488292611697,00000390,false,Rx,0,8,4D,3D,3D,3D,3C,3C,3C,3C
1756488292611795,00000390,false,Rx,0,8,54,3C,3C,3C,3C,13,13,13
1756488292611893,00000390,false,Rx,0,8,62,3D,3D,3D,3D,3D,3D,13
1756488292612010,00000390,false,Rx,0,8,5B,13,13,13,13,13,3D,3D
1756488292612127,00000390,false,Rx,0,8,69,13,13,13,13,13,13,13
1756488292612245,00000390,false,Rx,0,8,70,13,13,13,13,13,13,13
1756488292612363,00000390,false,Rx,0,8,7E,3D,3D,3D,3D,3D,3D,3D
1756488292612485,00000390,false,Rx,0,8,85,3D,3D,3D,3D,3D,3D,3D
1756488292612603,00000390,false,Rx,0,8,77,13,3D,3D,3D,3D,3D,3D
1756488292612701,00000390,false,Rx,0,8,8C,3D,3D,3D,3D,3D,3D,3D
1756488292612799,00000390,false,Rx,0,8,93,3D,3D,3D,3D,3D,3C,3C
1756488292612917,00000390,false,Rx,0,8,A1,13,13,13,13,13,13,13
1756488292613035,00000390,false,Rx,0,8,9A,3C,3C,3C,3C,3C,3C,13
1756488292613152,00000390,false,Rx,0,8,A8,3D,3D,3D,3D,3D,3D,3D
1756488292613270,00000390,false,Rx,0,8,AF,3D,3D,3D,3D,3D,3D,3D
1756488292613387,00000390,false,Rx,0,8,BD,3D,3D,3D,13,13,13,13
1756488292613505,00000390,false,Rx,0,8,C4,13,13,13,13,3D,3D,3D
1756488292613611,00000390,false,Rx,0,8,B6,3D,3D,3D,3D,3D,3D,3D
1756488292613709,00000213,false,Rx,0,4,08,00,00,00,00,00,00,00
1756488292613806,00000214,false,Rx,0,4,08,00,00,00,00,00,00,00
1756488292613906,00000390,false,Rx,0,8,D2,13,13,13,13,13,13,3D
1756488292615039,00000194,false,Rx,0,6,14,00,FD,FF,04,00,00,00
1756488292618453,00000193,false,Rx,0,6,14,00,01,00,01,00,00,00
1756488292618905,00000488,false,Rx,0,8,0A,27,54,00,4B,01,0D,00
1756488292619214,00000188,false,Rx,0,6,BC,FF,07,00,E3,03,00,00
1756488292619824,00000288,false,Rx,0,6,00,00,00,00,00,00,00,00
1756488292623499,00000213,false,Rx,0,4,08,00,00,00,00,00,00,00
1756488292623596,00000214,false,Rx,0,4,08,00,00,00,00,00,00,00
1756488292624638,00000181,false,Rx,0,8,04,10,00,E9,02,00,00,00
1756488292624862,00000194,false,Rx,0,6,14,00,FE,FF,04,00,00,00
1756488292628317,00000193,false,Rx,0,6,14,00,F9,FF,FF,FF,00,00
1756488292629221,00000488,false,Rx,0,8,0A,27,54,00,4C,01,0D,00
1756488292629532,00000188,false,Rx,0,6,BA,FF,1A,00,D1,03,00,00
1756488292630135,00000288,false,Rx,0,6,00,00,00,00,00,00,00,00
1756488292634515,00000213,false,Rx,0,4,08,00,00,00,00,00,00,00
1756488292634613,00000214,false,Rx,0,4,08,00,00,00,00,00,00,00
1756488292634710,00000194,false,Rx,0,6,14,00,02,00,06,00,00,00
1756488292637855,00000181,false,Rx,0,8,04,10,00,E9,02,00,00,00
1756488292638115,00000393,false,Rx,0,6,11,01,D5,01,0F,01,00,00
1756488292638203,00000293,false,Rx,0,4,4E,A3,00,00,00,00,00,00
1756488292638301,00000713,false,Rx,0,1,05,00,00,00,00,00,00,00
1756488292638509,00000733,false,Rx,0,8,01,9A,99,19,40,A3,00,05
1756488292638615,00000193,false,Rx,0,6,14,00,03,00,FE,FF,00,00
1756488292639547,00000488,false,Rx,0,8,0A,27,54,00,4C,01,0D,00
1756488292639820,00000188,false,Rx,0,6,C7,FF,06,00,F0,03,00,00
1756488292641396,00000288,false,Rx,0,6,00,00,00,00,00,00,00,00
1756488292644418,00000213,false,Rx,0,4,08,00,00,00,00,00,00,00
1756488292644516,00000214,false,Rx,0,4,08,00,00,00,00,00,00,00
1756488292644613,00000394,false,Rx,0,6,7A,05,DD,01,1F,01,00,00
1756488292644712,00000294,false,Rx,0,4,DB,A2,F4,FF,00,00,00,00
1756488292644810,00000714,false,Rx,0,1,05,00,00,00,00,00,00,00
1756488292644909,00000734,false,Rx,0,8,06,6F,12,03,3B,A2,F4,05
1756488292645007,00000194,false,Rx,0,6,14,00,04,00,FE,FF,00,00
1756488292647937,00000193,false,Rx,0,6,14,00,FA,FF,04,00,00,00
1756488292650098,00000488,false,Rx,0,8,0A,27,54,00,4C,01,0D,00
1756488292651382,00000188,false,Rx,0,6,C5,FF,0F,00,EC,03,00,00
1756488292652323,00000288,false,Rx,0,6,00,00,00,00,00,00,00,00
1756488292654318,00000213,false,Rx,0,4,08,00,00,00,00,00,00,00
1756488292654435,00000194,false,Rx,0,6,14,00,FE,FF,FD,FF,00,00
1756488292654533,00000214,false,Rx,0,4,08,00,00,00,00,00,00,00
1756488292657767,00000193,false,Rx,0,6,14,00,EF,FF,FC,FF,00,00
1756488292661425,00000488,false,Rx,0,8,0A,27,54,00,4C,01,0D,00
1756488292661618,00000188,false,Rx,0,6,C7,FF,12,00,F2,03,00,00
1756488292662628,00000288,false,Rx,0,6,00,00,00,00,00,00,00,00
1756488292664175,00000194,false,Rx,0,6,14,00,01,00,FB,FF,00,00
1756488292664273,00000213,false,Rx,0,4,08,00,00,00,00,00,00,00
1756488292664372,00000214,false,Rx,0,4,08,00,00,00,00,00,00,00
1756488292665263,00000290,false,Rx,0,7,01,E8,00,00,00,00,00,00
1756488292665359,00000490,false,Rx,0,5,64,00,00,00,00,00,00,00
1756488292667586,00000193,false,Rx,0,6,14,00,0A,00,FC,FF,00,00
1756488292671741,00000488,false,Rx,0,8,0A,27,54,00,4B,01,0D,00
1756488292671926,00000188,false,Rx,0,6,C2,FF,09,00,ED,03,00,00
1756488292673594,00000288,false,Rx,0,6,00,00,00,00,00,00,00,00
1756488292674000,00000194,false,Rx,0,6,14,00,FF,FF,FD,FF,00,00
1756488292675223,00000213,false,Rx,0,4,08,00,00,00,00,00,00,00
1756488292675320,00000214,false,Rx,0,4,08,00,00,00,00,00,00,00
1756488292677429,00000193,false,Rx,0,6,14,00,09,00,FC,FF,00,00
1756488292681490,00000488,false,Rx,0,8,0A,27,54,00,4B,01,0D,00
1756488292681622,00000188,false,Rx,0,6,B9,FF,0E,00,D6,03,00,00
1756488292683896,00000194,false,Rx,0,6,14,00,FE,FF,FE,FF,00,00
1756488292683998,00000288,false,Rx,0,6,00,00,00,00,00,00,00,00
1756488292685129,00000213,false,Rx,0,4,08,00,00,00,00,00,00,00
1756488292685222,00000214,false,Rx,0,4,08,00,00,00,00,00,00,00
1756488292687249,00000193,false,Rx,0,6,14,00,FC,FF,FE,FF,00,00
1756488292691720,00000488,false,Rx,0,8,0A,27,54,00,4B,01,0D,00
1756488292691920,00000188,false,Rx,0,6,C6,FF,17,00,F2,03,00,00
1756488292693668,00000194,false,Rx,0,6,14,00,FE,FF,FE,FF,00,00
1756488292694166,00000288,false,Rx,0,6,00,00,00,00,00,00,00,00
1756488292695049,00000213,false,Rx,0,4,08,00,00,00,00,00,00,00
1756488292695149,00000214,false,Rx,0,4,08,00,00,00,00,00,00,00
1756488292697072,00000193,false,Rx,0,6,14,00,FE,FF,FE,FF,00,00
1756488292702020,00000488,false,Rx,0,8,0A,27,54,00,4B,01,0D,00
1756488292702222,00000188,false,Rx,0,6,C3,FF,08,00,F9,03,00,00
1756488292703483,00000194,false,Rx,0,6,14,00,01,00,FD,FF,00,00
1756488292703895,00000701,false,Rx,0,1,05,00,00,00,00,00,00,00
1756488292704460,00000288,false,Rx,0,6,00,00,00,00,00,00,00,00
1756488292706033,00000213,false,Rx,0,4,08,00,00,00,00,00,00,00
1756488292706129,00000214,false,Rx,0,4,08,00,00,00,00,00,00,00
1756488292706895,00000193,false,Rx,0,6,14,00,03,00,FD,FF,00,00
1756488292709150,00000710,false,Rx,0,1,7F,00,00,00,00,00,00,00
1756488292712328,00000488,false,Rx,0,8,0A,27,54,00,4B,01,0D,00
1756488292712518,00000188,false,Rx,0,6,B8,FF,16,00,CE,03,00,00
1756488292713313,00000194,false,Rx,0,6,14,00,03,00,FF,FF,00,00
