Time Stamp,ID,Extended,Dir,Bus,LEN,D1,D2,D3,D4,D5,D6,D7,D8,D9,D10,D11,D12
1756489532187539,00000420,false,Rx,0,1,01,00,00,00,00,00,00,00
1756489532189472,00000194,false,Rx,0,6,12,00,00,00,00,00,00,00
1756489532192510,00000188,false,Rx,0,6,B9,FF,12,00,D7,03,00,00
1756489532192675,00000193,false,Rx,0,6,12,00,F5,FF,00,00,00,00
1756489532192777,00000288,false,Rx,0,6,01,00,00,00,00,00,00,00
1756489532192839,00000488,false,Rx,0,8,08,27,5E,00,54,01,8D,00
1756489532194079,00000213,false,Rx,0,4,08,00,00,00,00,00,00,00
1756489532195173,00000214,false,Rx,0,4,08,00,00,00,00,00,00,00
1756489532199278,00000194,false,Rx,0,6,14,00,FD,FF,01,00,00,00
1756489532202386,00000193,false,Rx,0,6,14,00,FB,FF,03,00,00,00
1756489532202730,00000188,false,Rx,0,6,C3,FF,10,00,FC,03,00,00
1756489532202855,00000288,false,Rx,0,6,00,00,00,00,00,00,00,00
1756489532202983,00000488,false,Rx,0,8,08,27,5E,00,54,01,8D,00
1756489532205084,00000213,false,Rx,0,4,08,00,00,00,00,00,00,00
1756489532206191,00000214,false,Rx,0,4,08,00,00,00,00,00,00,00
1756489532207313,00000181,false,Rx,0,8,04,10,00,EA,02,0F,09,0A
1756489532209097,00000194,false,Rx,0,6,14,00,00,00,FD,FF,00,00
1756489532212214,00000193,false,Rx,0,6,14,00,05,00,FF,FF,00,00
1756489532212904,00000188,false,Rx,0,6,B9,FF,18,00,D5,03,00,00
1756489532213024,00000288,false,Rx,0,6,00,00,00,00,00,00,00,00
1756489532213142,00000488,false,Rx,0,8,08,27,5E,00,54,01,8D,00
1756489532216160,00000213,false,Rx,0,4,08,00,00,00,00,00,00,00
1756489532217198,00000214,false,Rx,0,4,08,00,00,00,00,00,00,00
1756489532218925,00000194,false,Rx,0,6,14,00,FF,FF,FC,FF,00,00
1756489532222101,00000193,false,Rx,0,6,14,00,FE,FF,02,00,00,00
1756489532223118,00000188,false,Rx,0,6,BD,FF,14,00,D6,03,00,00
1756489532223251,00000288,false,Rx,0,6,00,00,00,00,00,00,00,00
1756489532223370,00000488,false,Rx,0,8,08,27,5E,00,54,01,8D,00
1756489532227222,00000181,false,Rx,0,8,04,10,00,EA,02,0F,09,0A
1756489532227332,00000213,false,Rx,0,4,08,00,00,00,00,00,00,00
1756489532228306,00000214,false,Rx,0,4,08,00,00,00,00,00,00,00
1756489532228755,00000194,false,Rx,0,6,14,00,01,00,FF,FF,00,00
1756489532231869,00000193,false,Rx,0,6,14,00,FE,FF,03,00,00,00
1756489532233604,00000710,false,Rx,0,1,7F,00,00,00,00,00,00,00
1756489532233964,00000188,false,Rx,0,6,C7,FF,12,00,FB,03,00,00
1756489532234084,00000288,false,Rx,0,6,00,00,00,00,00,00,00,00
1756489532234200,00000488,false,Rx,0,8,08,27,5E,00,53,01,8D,00
1756489532238210,00000213,false,Rx,0,4,08,00,00,00,00,00,00,00
1756489532238567,00000194,false,Rx,0,6,14,00,01,00,FE,FF,00,00
1756489532239348,00000181,false,Rx,0,8,04,10,00,E9,02,0F,09,0A
1756489532239455,00000214,false,Rx,0,4,08,00,00,00,00,00,00,00
1756489532241702,00000193,false,Rx,0,6,14,00,F8,FF,02,00,00,00
1756489532244021,00000188,false,Rx,0,6,B8,FF,1A,00,D7,03,00,00
1756489532244127,00000288,false,Rx,0,6,01,00,00,00,00,00,00,00
1756489532244339,00000488,false,Rx,0,8,08,27,5E,00,53,01,8D,00
1756489532248408,00000194,false,Rx,0,6,14,00,FF,FF,FF,FF,00,00
1756489532249316,00000213,false,Rx,0,4,08,00,00,00,00,00,00,00
1756489532250409,00000214,false,Rx,0,4,08,00,00,00,00,00,00,00
1756489532251492,00000393,false,Rx,0,6,0A,01,D5,01,0F,01,00,00
1756489532251602,00000293,false,Rx,0,4,26,A3,00,00,00,00,00,00
1756489532251701,00000713,false,Rx,0,1,05,00,00,00,00,00,00,00
1756489532251799,00000733,false,Rx,0,8,03,6F,12,03,3B,A3,00,05
1756489532251920,00000193,false,Rx,0,6,14,00,1B,00,03,00,00,00
1756489532254313,00000188,false,Rx,0,6,C4,FF,0D,00,F5,03,00,00
1756489532254423,00000288,false,Rx,0,6,00,00,00,00,00,00,00,00
1756489532254642,00000488,false,Rx,0,8,08,27,5E,00,53,01,8D,00
1756489532258234,00000394,false,Rx,0,6,62,05,ED,01,0E,01,00,00
1756489532258398,00000294,false,Rx,0,4,75,A2,87,FF,00,00,00,00
1756489532258500,00000714,false,Rx,0,1,05,00,00,00,00,00,00,00
1756489532258616,00000734,false,Rx,0,8,05,00,00,20,3F,A2,87,05
1756489532258677,00000194,false,Rx,0,6,14,00,FF,FF,FF,FF,00,00
1756489532261330,00000193,false,Rx,0,6,14,00,10,00,FB,FF,00,00
1756489532261442,00000213,false,Rx,0,4,08,00,00,00,00,00,00,00
1756489532261581,00000214,false,Rx,0,4,08,00,00,00,00,00,00,00
1756489532264605,00000188,false,Rx,0,6,BF,FF,12,00,F6,03,00,00
1756489532264736,00000288,false,Rx,0,6,00,00,00,00,00,00,00,00
1756489532264951,00000488,false,Rx,0,8,08,27,5E,00,53,01,8D,00
1756489532266945,00000181,false,Rx,0,8,04,10,00,EA,02,0F,09,0A
1756489532268062,00000194,false,Rx,0,6,14,00,00,00,00,00,00,00
1756489532271172,00000193,false,Rx,0,6,14,00,00,00,FC,FF,00,00
1756489532272385,00000213,false,Rx,0,4,08,00,00,00,00,00,00,00
1756489532272489,00000214,false,Rx,0,4,08,00,00,00,00,00,00,00
1756489532273535,00000701,false,Rx,0,1,05,00,00,00,00,00,00,00
1756489532274907,00000188,false,Rx,0,6,B6,FF,16,00,D2,03,00,00
1756489532275035,00000288,false,Rx,0,6,00,00,00,00,00,00,00,00
1756489532275244,00000488,false,Rx,0,8,08,27,5E,00,53,01,8D,00
1756489532277888,00000194,false,Rx,0,6,14,00,FD,FF,01,00,00,00
1756489532280996,00000193,false,Rx,0,6,14,00,00,00,03,00,00,00
1756489532283599,00000213,false,Rx,0,4,08,00,00,00,00,00,00,00
1756489532283692,00000214,false,Rx,0,4,08,00,00,00,00,00,00,00
1756489532285216,00000188,false,Rx,0,6,BF,FF,16,00,EB,03,00,00
1756489532285384,00000288,false,Rx,0,6,00,00,00,00,00,00,00,00
1756489532285567,00000488,false,Rx,0,8,08,27,5F,00,53,01,8D,00
1756489532287770,00000194,false,Rx,0,6,14,00,03,00,04,00,00,00
1756489532290850,00000193,false,Rx,0,6,14,00,00,00,FF,FF,00,00
1756489532294505,00000213,false,Rx,0,4,08,00,00,00,00,00,00,00
1756489532294614,00000214,false,Rx,0,4,08,00,00,00,00,00,00,00
1756489532295504,00000188,false,Rx,0,6,C3,FF,11,00,F0,03,00,00
1756489532295632,00000288,false,Rx,0,6,00,00,01,00,00,00,00,00
1756489532296894,00000488,false,Rx,0,8,08,27,5F,00,53,01,8D,00
1756489532297565,00000194,false,Rx,0,6,14,00,FE,FF,02,00,00,00
1756489532300662,00000193,false,Rx,0,6,14,00,07,00,01,00,00,00
1756489532305558,00000213,false,Rx,0,4,08,00,00,00,00,00,00,00
1756489532305673,00000214,false,Rx,0,4,08,00,00,00,00,00,00,00
1756489532306909,00000188,false,Rx,0,6,C3,FF,11,00,E9,03,00,00
1756489532307019,00000288,false,Rx,0,6,00,00,00,00,00,00,00,00
1756489532307137,00000488,false,Rx,0,8,08,27,5E,00,53,01,8D,00
1756489532307364,00000194,false,Rx,0,6,14,00,FD,FF,04,00,00,00
1756489532310480,00000193,false,Rx,0,6,14,00,04,00,05,00,00,00
1756489532316704,00000213,false,Rx,0,4,08,00,00,00,00,00,00,00
1756489532316791,00000214,false,Rx,0,4,08,00,00,00,00,00,00,00
1756489532317138,00000188,false,Rx,0,6,BF,FF,11,00,F7,03,00,00
1756489532317247,00000194,false,Rx,0,6,14,00,01,00,04,00,00,00
1756489532317360,00000288,false,Rx,0,6,00,00,00,00,00,00,00,00
1756489532317481,00000488,false,Rx,0,8,08,27,5E,00,53,01,8D,00
1756489532320308,00000193,false,Rx,0,6,14,00,0E,00,00,00,00,00
1756489532327177,00000194,false,Rx,0,6,14,00,FF,FF,02,00,00,00
1756489532327338,00000188,false,Rx,0,6,B8,FF,19,00,D2,03,00,00
1756489532327463,00000288,false,Rx,0,6,00,00,00,00,00,00,00,00
1756489532327522,00000488,false,Rx,0,8,08,27,5E,00,53,01,8D,00
1756489532327780,00000213,false,Rx,0,4,08,00,00,00,00,00,00,00
1756489532327885,00000214,false,Rx,0,4,08,00,00,00,00,00,00,00
1756489532330153,00000193,false,Rx,0,6,14,00,14,00,02,00,00,00
1756489532336874,00000194,false,Rx,0,6,14,00,00,00,05,00,00,00
1756489532337429,00000188,false,Rx,0,6,BD,FF,18,00,E5,03,00,00
1756489532337600,00000288,false,Rx,0,6,00,00,00,00,00,00,00,00
1756489532337666,00000488,false,Rx,0,8,08,27,5F,00,53,01,8D,00
1756489532338921,00000213,false,Rx,0,4,08,00,00,00,00,00,00,00
1756489532339026,00000214,false,Rx,0,4,08,00,00,00,00,00,00,00
1756489532339960,00000193,false,Rx,0,6,14,00,08,00,FE,FF,00,00
1756489532341833,00000710,false,Rx,0,1,7F,00,00,00,00,00,00,00
1756489532346688,00000194,false,Rx,0,6,14,00,FE,FF,04,00,00,00
1756489532347619,00000188,false,Rx,0,6,C1,FF,0C,00,FC,03,00,00
1756489532347728,00000288,false,Rx,0,6,00,00,00,00,00,00,00,00
1756489532347829,00000488,false,Rx,0,8,08,27,5F,00,53,01,8D,00
1756489532349771,00000393,false,Rx,0,6,0A,01,D5,01,0F,01,00,00
1756489532349877,00000293,false,Rx,0,4,F5,A2,00,00,00,00,00,00
1756489532350284,00000713,false,Rx,0,1,05,00,00,00,00,00,00,00
1756489532350413,00000213,false,Rx,0,4,08,00,00,00,00,00,00,00
1756489532350473,00000214,false,Rx,0,4,08,00,00,00,00,00,00,00
1756489532350529,00000733,false,Rx,0,8,04,8F,C2,F5,3F,A2,00,05
1756489532350588,00000004,false,Rx,0,8,00,01,00,00,00,00,00,00
1756489532350646,00000193,false,Rx,0,6,14,00,F4,FF,03,00,00,00
1756489532356501,00000394,false,Rx,0,6,62,05,ED,01,16,01,00,00
1756489532356654,00000294,false,Rx,0,4,6F,A2,1C,00,00,00,00,00
1756489532356752,00000714,false,Rx,0,1,05,00,00,00,00,00,00,00
1756489532356810,00000734,false,Rx,0,8,06,00,00,00,00,A2,1C,05
1756489532356927,00000194,false,Rx,0,6,14,00,03,00,04,00,00,00
1756489532357807,00000188,false,Rx,0,6,B7,FF,13,00,D5,03,00,00
1756489532357914,00000288,false,Rx,0,6,00,00,00,00,00,00,00,00
1756489532358031,00000488,false,Rx,0,8,08,27,5F,00,53,01,8D,00
1756489532359618,00000193,false,Rx,0,6,14,00,F7,FF,07,00,00,00
1756489532360958,00000213,false,Rx,0,4,08,00,00,00,00,00,00,00
1756489532361060,00000214,false,Rx,0,4,08,00,00,00,00,00,00,00
1756489532366341,00000194,false,Rx,0,6,14,00,FE,FF,03,00,00,00
1756489532368005,00000188,false,Rx,0,6,B8,FF,19,00,D7,03,00,00
1756489532368111,00000288,false,Rx,0,6,01,00,00,00,00,00,00,00
1756489532368229,00000488,false,Rx,0,8,08,27,5F,00,53,01,8D,00
1756489532369446,00000193,false,Rx,0,6,14,00,FB,FF,02,00,00,00
1756489532372048,00000213,false,Rx,0,4,08,00,00,00,00,00,00,00
1756489532372153,00000214,false,Rx,0,4,08,00,00,00,00,00,00,00
1756489532373689,00000701,false,Rx,0,1,05,00,00,00,00,00,00,00
1756489532374204,00000290,false,Rx,0,7,01,E8,00,00,00,00,00,00
1756489532374303,00000490,false,Rx,0,5,64,00,00,00,00,00,00,00
1756489532376178,00000194,false,Rx,0,6,14,00,FE,FF,FF,FF,00,00
1756489532378215,00000188,false,Rx,0,6,C3,FF,09,00,F9,03,00,00
1756489532378334,00000288,false,Rx,0,6,01,00,00,00,00,00,00,00
1756489532379049,00000488,false,Rx,0,8,08,27,5F,00,53,01,8D,00
1756489532379264,00000193,false,Rx,0,6,14,00,01,00,FF,FF,00,00
1756489532383073,00000213,false,Rx,0,4,08,00,00,00,00,00,00,00
1756489532384180,00000214,false,Rx,0,4,08,00,00,00,00,00,00,00
1756489532385993,00000194,false,Rx,0,6,14,00,FE,FF,FD,FF,00,00
1756489532386413,00000181,false,Rx,0,8,04,10,00,EA,02,0F,09,0A
1756489532389073,00000188,false,Rx,0,6,B6,FF,1E,00,DB,03,00,00
1756489532389177,00000193,false,Rx,0,6,14,00,07,00,02,00,00,00
1756489532389295,00000288,false,Rx,0,6,00,00,00,00,00,00,00,00
1756489532389410,00000488,false,Rx,0,8,08,27,5F,00,53,01,8D,00
1756489532394185,00000213,false,Rx,0,4,08,00,00,00,00,00,00,00
1756489532395265,00000214,false,Rx,0,4,08,00,00,00,00,00,00,00
1756489532395812,00000194,false,Rx,0,6,14,00,00,00,01,00,00,00
1756489532398925,00000193,false,Rx,0,6,14,00,0D,00,FF,FF,00,00
1756489532399346,00000188,false,Rx,0,6,C1,FF,0D,00,00,04,00,00
1756489532399452,00000288,false,Rx,0,6,00,00,00,00,00,00,00,00
1756489532399549,00000488,false,Rx,0,8,08,27,5F,00,53,01,8D,00
1756489532399780,00000181,false,Rx,0,8,04,10,00,EA,02,0F,09,0A
1756489532405277,00000213,false,Rx,0,4,08,00,00,00,00,00,00,00
1756489532405637,00000194,false,Rx,0,6,14,00,02,00,FD,FF,00,00
1756489532406389,00000214,false,Rx,0,4,08,00,00,00,00,00,00,00
1756489532408752,00000193,false,Rx,0,6,14,00,07,00,FE,FF,00,00
1756489532409419,00000188,false,Rx,0,6,BD,FF,13,00,E4,03,00,00
1756489532409561,00000288,false,Rx,0,6,00,00,00,00,00,00,00,00
1756489532409684,00000488,false,Rx,0,8,08,27,5F,00,53,01,8D,00
1756489532415581,00000194,false,Rx,0,6,14,00,FF,FF,FD,FF,00,00
1756489532416439,00000213,false,Rx,0,4,08,00,00,00,00,00,00,00
1756489532417493,00000214,false,Rx,0,4,08,00,00,00,00,00,00,00
1756489532418588,00000193,false,Rx,0,6,14,00,FD,FF,FF,FF,00,00
1756489532419633,00000188,false,Rx,0,6,B2,FF,16,00,D6,03,00,00
1756489532419765,00000288,false,Rx,0,6,00,00,01,00,00,00,00,00
1756489532419882,00000488,false,Rx,0,8,08,27,5F,00,53,01,8D,00
1756489532425361,00000194,false,Rx,0,6,14,00,FE,FF,FF,FF,00,00
1756489532426348,00000181,false,Rx,0,8,04,10,00,EA,02,0F,09,0A
1756489532427413,00000213,false,Rx,0,4,08,00,00,00,00,00,00,00
1756489532428393,00000193,false,Rx,0,6,14,00,F3,FF,FD,FF,00,00
1756489532428499,00000214,false,Rx,0,4,08,00,00,00,00,00,00,00
1756489532429813,00000188,false,Rx,0,6,C4,FF,13,00,F1,03,00,00
1756489532429967,00000288,false,Rx,0,6,00,00,00,00,00,00,00,00
1756489532430083,00000488,false,Rx,0,8,08,27,5F,00,53,01,8D,00
1756489532435129,00000194,false,Rx,0,6,14,00,00,00,FB,FF,00,00
1756489532438275,00000193,false,Rx,0,6,14,00,FB,FF,01,00,00,00
1756489532438403,00000213,false,Rx,0,4,08,00,00,00,00,00,00,00
1756489532439525,00000181,false,Rx,0,8,04,10,00,EA,02,0F,09,0A
1756489532439635,00000214,false,Rx,0,4,08,00,00,00,00,00,00,00
1756489532440030,00000188,false,Rx,0,6,C2,FF,0F,00,F2,03,00,00
1756489532440156,00000288,false,Rx,0,6,01,00,01,00,00,00,00,00
1756489532440273,00000488,false,Rx,0,8,08,27,5F,00,53,01,8D,00
1756489532444956,00000194,false,Rx,0,6,14,00,01,00,01,00,00,00
1756489532448044,00000393,false,Rx,0,6,0C,01,D5,01,0F,01,00,00
1756489532448149,00000293,false,Rx,0,4,E9,A2,00,00,00,00,00,00
1756489532448246,00000713,false,Rx,0,1,05,00,00,00,00,00,00,00
1756489532448344,00000733,false,Rx,0,8,05,00,00,C0,3F,A2,00,05
1756489532448462,00000193,false,Rx,0,6,14,00,FE,FF,FC,FF,00,00
1756489532449433,00000213,false,Rx,0,4,08,00,00,00,00,00,00,00
1756489532449822,00000710,false,Rx,0,1,7F,00,00,00,00,00,00,00
1756489532450238,00000188,false,Rx,0,6,B8,FF,18,00,DC,03,00,00
1756489532450364,00000288,false,Rx,0,6,00,00,00,00,00,00,00,00
1756489532450463,00000488,false,Rx,0,8,08,27,5F,00,53,01,8D,00
1756489532450566,00000214,false,Rx,0,4,08,00,00,00,00,00,00,00
1756489532454787,00000394,false,Rx,0,6,65,05,ED,01,1F,01,00,00
1756489532454963,00000294,false,Rx,0,4,80,A2,D0,FF,00,00,00,00
1756489532455069,00000714,false,Rx,0,1,05,00,00,00,00,00,00,00
1756489532455184,00000734,false,Rx,0,8,07,00,00,80,3F,A2,D0,05
1756489532455244,00000194,false,Rx,0,6,14,00,01,00,FE,FF,00,00
1756489532457131,00000181,false,Rx,0,8,04,10,00,E9,02,0F,09,0A
1756489532457894,00000193,false,Rx,0,6,14,00,0C,00,FD,FF,00,00
1756489532460388,00000188,false,Rx,0,6,BF,FF,0F,00,EA,03,00,00
1756489532460498,00000213,false,Rx,0,4,08,00,00,00,00,00,00,00
1756489532460602,00000288,false,Rx,0,6,00,00,00,00,00,00,00,00
1756489532460711,00000488,false,Rx,0,8,08,27,5F,00,54,01,8D,00
1756489532461563,00000214,false,Rx,0,4,08,00,00,00,00,00,00,00
1756489532464607,00000194,false,Rx,0,6,14,00,FF,FF,FC,FF,00,00
1756489532467717,00000193,false,Rx,0,6,14,00,0F,00,FE,FF,00,00
1756489532470383,00000181,false,Rx,0,8,04,10,00,E9,02,0F,09,0A
1756489532470615,00000188,false,Rx,0,6,BF,FF,14,00,EA,03,00,00
1756489532470737,00000288,false,Rx,0,6,00,00,00,00,00,00,00,00
1756489532470852,00000488,false,Rx,0,8,08,27,5F,00,54,01,8D,00
1756489532471464,00000213,false,Rx,0,4,08,00,00,00,00,00,00,00
1756489532472602,00000214,false,Rx,0,4,08,00,00,00,00,00,00,00
1756489532473952,00000701,false,Rx,0,1,05,00,00,00,00,00,00,00
1756489532474418,00000194,false,Rx,0,6,14,00,01,00,FC,FF,00,00
1756489532477564,00000193,false,Rx,0,6,14,00,01,00,FF,FF,00,00
1756489532480800,00000188,false,Rx,0,6,B7,FF,14,00,D9,03,00,00
1756489532482170,00000288,false,Rx,0,6,01,00,00,00,00,00,00,00
1756489532482300,00000488,false,Rx,0,8,08,27,5F,00,54,01,8D,00
1756489532482545,00000213,false,Rx,0,4,08,00,00,00,00,00,00,00
1756489532483630,00000181,false,Rx,0,8,04,10,00,E9,02,0E,09,0A
1756489532483735,00000214,false,Rx,0,4,08,00,00,00,00,00,00,00
1756489532484259,00000194,false,Rx,0,6,14,00,FB,FF,FD,FF,00,00
1756489532487370,00000193,false,Rx,0,6,14,00,EF,FF,01,00,00,00
1756489532492183,00000188,false,Rx,0,6,BD,FF,0D,00,F4,03,00,00
1756489532492453,00000288,false,Rx,0,6,01,00,01,00,00,00,00,00
1756489532492571,00000488,false,Rx,0,8,08,27,5F,00,54,01,8D,00
1756489532494088,00000194,false,Rx,0,6,14,00,01,00,FD,FF,00,00
1756489532494618,00000213,false,Rx,0,4,08,00,00,00,00,00,00,00
1756489532494720,00000214,false,Rx,0,4,08,00,00,00,00,00,00,00
1756489532495827,00000181,false,Rx,0,8,04,10,00,EA,02,0C,08,08
1756489532497215,00000193,false,Rx,0,6,14,00,F7,FF,01,00,00,00
1756489532502417,00000188,false,Rx,0,6,B6,FF,1B,00,D2,03,00,00
1756489532502649,00000288,false,Rx,0,6,FF,FF,02,00,00,00,00,00
1756489532502771,00000488,false,Rx,0,8,08,27,5F,00,54,01,8D,00
1756489532503916,00000194,false,Rx,0,6,14,00,02,00,FE,FF,00,00
1756489532505606,00000213,false,Rx,0,4,08,00,00,00,00,00,00,00
1756489532505710,00000214,false,Rx,0,4,08,00,00,00,00,00,00,00
1756489532507025,00000193,false,Rx,0,6,14,00,0E,00,06,00,00,00
1756489532508956,00000181,false,Rx,0,8,04,10,00,EA,02,0B,07,07
1756489532512614,00000188,false,Rx,0,6,C0,FF,1C,00,DE,03,00,00
1756489532512846,00000288,false,Rx,0,6,00,00,02,00,00,00,00,00
1756489532512963,00000488,false,Rx,0,8,08,27,5F,00,54,01,8D,00
1756489532513742,00000194,false,Rx,0,6,14,00,02,00,FE,FF,00,00
1756489532516713,00000213,false,Rx,0,4,08,00,00,00,00,00,00,00
1756489532516866,00000214,false,Rx,0,4,08,00,00,00,00,00,00,00
1756489532516927,00000193,false,Rx,0,6,14,00,0F,00,00,00,00,00
1756489532522177,00000181,false,Rx,0,8,04,10,00,E9,02,0A,06,07
1756489532522834,00000188,false,Rx,0,6,C5,FF,12,00,F8,03,00,00
1756489532523065,00000288,false,Rx,0,6,02,00,00,00,00,00,00,00
1756489532523188,00000488,false,Rx,0,8,08,27,5F,00,54,01,8D,00
1756489532523615,00000194,false,Rx,0,6,14,00,00,00,FD,FF,00,00
1756489532526699,00000193,false,Rx,0,6,14,00,09,00,03,00,00,00
1756489532527649,00000213,false,Rx,0,4,08,00,00,00,00,00,00,00
1756489532527752,00000214,false,Rx,0,4,08,00,00,00,00,00,00,00
1756489532533019,00000188,false,Rx,0,6,C3,FF,10,00,DC,03,00,00
1756489532533260,00000288,false,Rx,0,6,FF,FF,01,00,00,00,00,00
1756489532533366,00000488,false,Rx,0,8,08,27,5F,00,54,01,8D,00
1756489532533466,00000194,false,Rx,0,6,14,00,FF,FF,00,00,00,00
1756489532535376,00000181,false,Rx,0,8,04,10,00,EA,02,08,04,05
1756489532536508,00000193,false,Rx,0,6,14,00,09,00,02,00,00,00
1756489532538623,00000213,false,Rx,0,4,08,00,00,00,00,00,00,00
1756489532538726,00000214,false,Rx,0,4,08,00,00,00,00,00,00,00
1756489532543198,00000188,false,Rx,0,6,BE,FF,1C,00,D7,03,00,00
1756489532543303,00000194,false,Rx,0,6,14,00,FE,FF,FD,FF,00,00
1756489532544139,00000288,false,Rx,0,6,00,00,01,00,00,00,00,00
1756489532544261,00000488,false,Rx,0,8,08,27,5F,00,54,01,8D,00
1756489532546316,00000393,false,Rx,0,6,0C,01,D5,01,0F,01,00,00
1756489532546424,00000293,false,Rx,0,4,E1,A2,00,00,00,00,00,00
1756489532546524,00000713,false,Rx,0,1,05,00,00,00,00,00,00,00
1756489532546620,00000733,false,Rx,0,8,06,6F,12,03,3B,A2,00,05
1756489532546738,00000193,false,Rx,0,6,14,00,11,00,03,00,00,00
1756489532548577,00000181,false,Rx,0,8,04,10,00,E9,02,07,04,05
1756489532549661,00000213,false,Rx,0,4,08,00,00,00,00,00,00,00
1756489532550738,00000214,false,Rx,0,4,08,00,00,00,00,00,00,00
1756489532553031,00000394,false,Rx,0,6,65,05,ED,01,1F,01,00,00
1756489532553136,00000294,false,Rx,0,4,98,A2,AB,FF,00,00,00,00
1756489532553233,00000714,false,Rx,0,1,05,00,00,00,00,00,00,00
1756489532553330,00000734,false,Rx,0,8,08,00,00,80,3F,A2,AB,05
1756489532553447,00000194,false,Rx,0,6,14,00,01,00,FF,FF,00,00
1756489532554398,00000188,false,Rx,0,6,C4,FF,16,00,F0,03,00,00
1756489532554504,00000288,false,Rx,0,6,00,00,01,00,00,00,00,00
1756489532554620,00000488,false,Rx,0,8,08,27,5F,00,54,01,8D,00
1756489532556160,00000193,false,Rx,0,6,14,00,F6,FF,05,00,00,00
1756489532557839,00000710,false,Rx,0,1,7F,00,00,00,00,00,00,00
1756489532560695,00000213,false,Rx,0,4,08,00,00,00,00,00,00,00
1756489532561779,00000181,false,Rx,0,8,04,10,00,EA,02,06,03,04
1756489532561890,00000214,false,Rx,0,4,08,00,00,00,00,00,00,00
1756489532562938,00000194,false,Rx,0,6,14,00,00,00,00,00,00,00
1756489532564316,00000188,false,Rx,0,6,BE,FF,14,00,DD,03,00,00
1756489532564566,00000288,false,Rx,0,6,01,00,00,00,00,00,00,00
1756489532564651,00000488,false,Rx,0,8,08,27,5F,00,54,01,8D,00
1756489532566318,00000193,false,Rx,0,6,14,00,F6,FF,08,00,00,00
1756489532571703,00000213,false,Rx,0,4,08,00,00,00,00,00,00,00
1756489532572688,00000194,false,Rx,0,6,14,00,FD,FF,FD,FF,00,00
1756489532572778,00000214,false,Rx,0,4,08,00,00,00,00,00,00,00
1756489532574146,00000290,false,Rx,0,7,01,E8,00,00,00,00,00,00
1756489532574228,00000188,false,Rx,0,6,BA,FF,13,00,F2,03,00,00
1756489532574326,00000288,false,Rx,0,6,00,00,02,00,00,00,00,00
1756489532574450,00000488,false,Rx,0,8,08,27,5F,00,54,01,8D,00
1756489532574707,00000701,false,Rx,0,1,05,00,00,00,00,00,00,00
1756489532575021,00000181,false,Rx,0,8,04,10,00,E9,02,00,02,03
1756489532575832,00000193,false,Rx,0,6,14,00,03,00,FF,FF,00,00
1756489532582560,00000194,false,Rx,0,6,14,00,01,00,04,00,00,00
1756489532582772,00000213,false,Rx,0,4,08,00,00,00,00,00,00,00
1756489532583861,00000214,false,Rx,0,4,08,00,00,00,00,00,00,00
1756489532584348,00000188,false,Rx,0,6,BF,FF,14,00,E8,03,00,00
1756489532584462,00000288,false,Rx,0,6,00,00,00,00,00,00,00,00
1756489532584563,00000488,false,Rx,0,8,08,27,5F,00,54,01,8D,00
1756489532585651,00000193,false,Rx,0,6,14,00,08,00,02,00,00,00
1756489532592367,00000194,false,Rx,0,6,14,00,FC,FF,01,00,00,00
1756489532593868,00000213,false,Rx,0,4,08,00,00,00,00,00,00,00
1756489532594535,00000188,false,Rx,0,6,BA,FF,11,00,E0,03,00,00
1756489532594667,00000288,false,Rx,0,6,00,00,01,00,00,00,00,00
1756489532594785,00000488,false,Rx,0,8,08,27,5F,00,54,01,8D,00
1756489532595005,00000214,false,Rx,0,4,08,00,00,00,00,00,00,00
1756489532595455,00000193,false,Rx,0,6,14,00,FA,FF,01,00,00,00
1756489532602199,00000194,false,Rx,0,6,14,00,01,00,FE,FF,00,00
1756489532604737,00000188,false,Rx,0,6,BE,FF,18,00,E8,03,00,00
1756489532604848,00000288,false,Rx,0,6,FF,FF,02,00,00,00,00,00
1756489532604958,00000213,false,Rx,0,4,08,00,00,00,00,00,00,00
1756489532605077,00000488,false,Rx,0,8,08,27,5F,00,55,01,8D,00
1756489532605296,00000193,false,Rx,0,6,14,00,FB,FF,00,00,00,00
1756489532606027,00000214,false,Rx,0,4,08,00,00,00,00,00,00,00
1756489532612025,00000194,false,Rx,0,6,14,00,00,00,05,00,00,00
1756489532615239,00000188,false,Rx,0,6,B5,FF,11,00,DD,03,00,00
1756489532615354,00000288,false,Rx,0,6,00,00,00,00,00,00,00,00
1756489532615422,00000193,false,Rx,0,6,14,00,FD,FF,03,00,00,00
1756489532615483,00000488,false,Rx,0,8,08,27,5F,00,55,01,8D,00
1756489532615975,00000213,false,Rx,0,4,08,00,00,00,00,00,00,00
1756489532617111,00000214,false,Rx,0,4,08,00,00,00,00,00,00,00
1756489532621864,00000194,false,Rx,0,6,14,00,01,00,04,00,00,00
1756489532625083,00000193,false,Rx,0,6,14,00,EC,FF,F8,FF,00,00
1756489532625270,00000188,false,Rx,0,6,B8,FF,1B,00,E5,03,00,00
1756489532625388,00000288,false,Rx,0,6,00,00,01,00,00,00,00,00
1756489532625448,00000488,false,Rx,0,8,08,27,5F,00,55,01,8D,00
1756489532627012,00000213,false,Rx,0,4,08,00,00,00,00,00,00,00
1756489532628082,00000214,false,Rx,0,4,08,00,00,00,00,00,00,00
1756489532631679,00000194,false,Rx,0,6,14,00,FF,FF,05,00,00,00
1756489532634786,00000193,false,Rx,0,6,14,00,EB,FF,01,00,00,00
1756489532635340,00000188,false,Rx,0,6,C1,FF,15,00,F4,03,00,00
1756489532635475,00000288,false,Rx,0,6,00,00,01,00,00,00,00,00
1756489532635593,00000488,false,Rx,0,8,08,27,5F,00,55,01,8D,00
1756489532638083,00000213,false,Rx,0,4,08,00,00,00,00,00,00,00
1756489532639186,00000214,false,Rx,0,4,08,00,00,00,00,00,00,00
1756489532641495,00000194,false,Rx,0,6,14,00,FE,FF,05,00,00,00
1756489532644592,00000393,false,Rx,0,6,0C,01,D5,01,17,01,00,00
1756489532644704,00000293,false,Rx,0,4,C8,A2,00,00,00,00,00,00
1756489532644811,00000713,false,Rx,0,1,05,00,00,00,00,00,00,00
1756489532644908,00000733,false,Rx,0,8,07,00,00,80,3F,A2,00,05
1756489532645025,00000193,false,Rx,0,6,14,00,0E,00,01,00,00,00
1756489532645545,00000188,false,Rx,0,6,C1,FF,0D,00,ED,03,00,00
1756489532645667,00000288,false,Rx,0,6,00,00,01,00,00,00,00,00
1756489532645787,00000488,false,Rx,0,8,08,27,5F,00,56,01,8D,00
1756489532649190,00000213,false,Rx,0,4,08,00,00,00,00,00,00,00
1756489532650296,00000214,false,Rx,0,4,08,00,00,00,00,00,00,00
1756489532651305,00000394,false,Rx,0,6,65,05,ED,01,16,01,00,00
1756489532651414,00000294,false,Rx,0,4,7F,A2,B7,FF,00,00,00,00
1756489532651736,00000714,false,Rx,0,1,05,00,00,00,00,00,00,00
1756489532651808,00000734,false,Rx,0,8,09,00,00,00,00,A2,B7,05
1756489532651868,00000194,false,Rx,0,6,14,00,FA,FF,03,00,00,00
1756489532654442,00000193,false,Rx,0,6,14,00,0C,00,F6,FF,00,00
1756489532655736,00000188,false,Rx,0,6,B3,FF,13,00,D3,03,00,00
1756489532655863,00000288,false,Rx,0,6,00,00,00,00,00,00,00,00
1756489532655981,00000488,false,Rx,0,8,08,27,5F,00,56,01,8D,00
1756489532660197,00000213,false,Rx,0,4,08,00,00,00,00,00,00,00
1756489532661183,00000194,false,Rx,0,6,14,00,FF,FF,04,00,00,00
1756489532661307,00000214,false,Rx,0,4,08,00,00,00,00,00,00,00
1756489532664260,00000193,false,Rx,0,6,14,00,06,00,FD,FF,00,00
1756489532665817,00000710,false,Rx,0,1,7F,00,00,00,00,00,00,00
1756489532665921,00000188,false,Rx,0,6,B8,FF,18,00,E0,03,00,00
1756489532667053,00000288,false,Rx,0,6,FF,FF,03,00,00,00,00,00
1756489532667175,00000488,false,Rx,0,8,08,27,5F,00,56,01,8D,00
1756489532670997,00000194,false,Rx,0,6,14,00,05,00,05,00,00,00
1756489532672284,00000213,false,Rx,0,4,08,00,00,00,00,00,00,00
1756489532672390,00000214,false,Rx,0,4,08,00,00,00,00,00,00,00
1756489532674094,00000193,false,Rx,0,6,14,00,F5,FF,FD,FF,00,00
1756489532674574,00000701,false,Rx,0,1,05,00,00,00,00,00,00,00
1756489532677061,00000188,false,Rx,0,6,B4,FF,1C,00,DB,03,00,00
1756489532677219,00000288,false,Rx,0,6,00,00,01,00,00,00,00,00
1756489532677350,00000488,false,Rx,0,8,08,27,5F,00,56,01,8D,00
1756489532680810,00000194,false,Rx,0,6,14,00,04,00,05,00,00,00
1756489532683309,00000213,false,Rx,0,4,08,00,00,00,00,00,00,00
1756489532683415,00000214,false,Rx,0,4,08,00,00,00,00,00,00,00
1756489532683905,00000193,false,Rx,0,6,14,00,F2,FF,FD,FF,00,00
1756489532687429,00000188,false,Rx,0,6,B9,FF,19,00,D8,03,00,00
1756489532687537,00000288,false,Rx,0,6,00,00,01,00,00,00,00,00
1756489532687634,00000488,false,Rx,0,8,08,27,5F,00,57,01,8D,00
1756489532690633,00000194,false,Rx,0,6,14,00,00,00,05,00,00,00
1756489532693747,00000193,false,Rx,0,6,14,00,01,00,FC,FF,00,00
1756489532694416,00000213,false,Rx,0,4,08,00,00,00,00,00,00,00
1756489532694515,00000214,false,Rx,0,4,08,00,00,00,00,00,00,00
1756489532697629,00000188,false,Rx,0,6,C0,FF,0D,00,F3,03,00,00
1756489532697734,00000288,false,Rx,0,6,00,00,00,00,00,00,00,00
1756489532697829,00000488,false,Rx,0,8,08,27,5F,00,57,01,8D,00
1756489532700461,00000194,false,Rx,0,6,14,00,00,00,02,00,00,00
1756489532703570,00000193,false,Rx,0,6,14,00,00,00,03,00,00,00
1756489532705392,00000213,false,Rx,0,4,08,00,00,00,00,00,00,00
1756489532705499,00000214,false,Rx,0,4,08,00,00,00,00,00,00,00
1756489532707826,00000188,false,Rx,0,6,B6,FF,19,00,DE,03,00,00
1756489532707935,00000288,false,Rx,0,6,FF,FF,00,00,00,00,00,00
1756489532708033,00000488,false,Rx,0,8,08,27,5F,00,57,01,8D,00
1756489532710286,00000194,false,Rx,0,6,14,00,02,00,FF,FF,00,00
1756489532713398,00000193,false,Rx,0,6,14,00,12,00,02,00,00,00
1756489532716579,00000213,false,Rx,0,4,08,00,00,00,00,00,00,00
1756489532716666,00000214,false,Rx,0,4,08,00,00,00,00,00,00,00
1756489532718021,00000188,false,Rx,0,6,BF,FF,15,00,D8,03,00,00
1756489532718144,00000288,false,Rx,0,6,00,00,00,00,00,00,00,00
1756489532718263,00000488,false,Rx,0,8,08,27,5F,00,57,01,8D,00
1756489532720115,00000194,false,Rx,0,6,14,00,FE,FF,FF,FF,00,00
1756489532723225,00000193,false,Rx,0,6,14,00,19,00,02,00,00,00
1756489532727738,00000213,false,Rx,0,4,08,00,00,00,00,00,00,00
1756489532727862,00000214,false,Rx,0,4,08,00,00,00,00,00,00,00
1756489532728458,00000188,false,Rx,0,6,BE,FF,11,00,F8,03,00,00
1756489532728546,00000288,false,Rx,0,6,00,00,00,00,00,00,00,00
1756489532728605,00000488,false,Rx,0,8,08,27,5F,00,57,01,8D,00
1756489532730559,00000194,false,Rx,0,6,14,00,02,00,00,00,00,00
1756489532733193,00000193,false,Rx,0,6,14,00,19,00,F8,FF,00,00
1756489532738551,00000188,false,Rx,0,6,B8,FF,13,00,DD,03,00,00
1756489532738645,00000288,false,Rx,0,6,FF,FF,01,00,00,00,00,00
1756489532738712,00000213,false,Rx,0,4,08,00,00,00,00,00,00,00
1756489532738772,00000214,false,Rx,0,4,08,00,00,00,00,00,00,00
1756489532739475,00000488,false,Rx,0,8,08,27,5F,00,57,01,8D,00
1756489532739730,00000194,false,Rx,0,6,14,00,FE,FF,FD,FF,00,00
1756489532742861,00000393,false,Rx,0,6,0C,01,D5,01,0F,01,00,00
1756489532742947,00000293,false,Rx,0,4,F4,A2,00,00,00,00,00,00
1756489532743050,00000713,false,Rx,0,1,05,00,00,00,00,00,00,00
1756489532743157,00000733,false,Rx,0,8,08,00,00,80,3F,A2,00,05
1756489532743266,00000193,false,Rx,0,6,14,00,FA,FF,FF,FF,00,00
1756489532746437,00000181,false,Rx,0,8,68,10,00,EA,02,00,00,01
1756489532749348,00000188,false,Rx,0,6,C1,FF,17,00,F1,03,00,00
1756489532749469,00000288,false,Rx,0,6,00,00,02,00,00,00,00,00
1756489532749570,00000488,false,Rx,0,8,08,27,5F,00,57,01,8D,00
1756489532749643,00000394,false,Rx,0,6,69,05,ED,01,16,01,00,00
1756489532749704,00000294,false,Rx,0,4,86,A2,C8,FF,00,00,00,00
1756489532749773,00000714,false,Rx,0,1,05,00,00,00,00,00,00,00
1756489532749873,00000213,false,Rx,0,4,08,00,00,00,00,00,00,00
1756489532749950,00000214,false,Rx,0,4,08,00,00,00,00,00,00,00
1756489532750008,00000004,false,Rx,0,8,00,01,00,00,00,00,00,00
1756489532750094,00000734,false,Rx,0,8,01,00,00,C0,3F,A2,C8,05
1756489532750171,00000194,false,Rx,0,6,14,00,FF,FF,FC,FF,00,00
1756489532752677,00000193,false,Rx,0,6,14,00,F5,FF,03,00,00,00
1756489532759397,00000194,false,Rx,0,6,14,00,00,00,FC,FF,00,00
1756489532759476,00000188,false,Rx,0,6,BB,FF,15,00,EB,03,00,00
1756489532759581,00000288,false,Rx,0,6,00,00,00,00,00,00,00,00
1756489532759698,00000488,false,Rx,0,8,08,27,5F,00,57,01,8D,00
1756489532759825,00000181,false,Rx,0,8,04,10,00,EA,02,00,00,01
1756489532760824,00000213,false,Rx,0,4,08,00,00,00,00,00,00,00
1756489532760916,00000214,false,Rx,0,4,08,00,00,00,00,00,00,00
1756489532762501,00000193,false,Rx,0,6,14,00,0C,00,03,00,00,00
1756489532765099,00000710,false,Rx,0,1,7F,00,00,00,00,00,00,00
1756489532769217,00000194,false,Rx,0,6,14,00,FF,FF,FD,FF,00,00
1756489532769689,00000188,false,Rx,0,6,B5,FF,14,00,D6,03,00,00
1756489532769785,00000288,false,Rx,0,6,01,00,01,00,00,00,00,00
1756489532769907,00000488,false,Rx,0,8,08,27,5F,00,58,01,8D,00
1756489532771802,00000213,false,Rx,0,4,08,00,00,00,00,00,00,00
1756489532771893,00000214,false,Rx,0,4,08,00,00,00,00,00,00,00
1756489532772303,00000193,false,Rx,0,6,14,00,15,00,FD,FF,00,00
1756489532774116,00000290,false,Rx,0,7,01,E8,00,00,00,00,00,00
1756489532774207,00000490,false,Rx,0,5,64,00,00,00,00,00,00,00
1756489532774708,00000701,false,Rx,0,1,05,00,00,00,00,00,00,00
1756489532779040,00000194,false,Rx,0,6,14,00,FF,FF,FE,FF,00,00
1756489532779889,00000188,false,Rx,0,6,C3,FF,13,00,F7,03,00,00
1756489532779982,00000288,false,Rx,0,6,00,00,01,00,00,00,00,00
1756489532780079,00000488,false,Rx,0,8,08,27,5F,00,57,01,8D,00
1756489532782158,00000193,false,Rx,0,6,14,00,0D,00,00,00,00,00
1756489532782939,00000213,false,Rx,0,4,08,00,00,00,00,00,00,00
1756489532783034,00000214,false,Rx,0,4,08,00,00,00,00,00,00,00
1756489532788863,00000194,false,Rx,0,6,14,00,FF,FF,FC,FF,00,00
1756489532790089,00000188,false,Rx,0,6,BF,FF,11,00,EE,03,00,00
1756489532790201,00000288,false,Rx,0,6,00,00,00,00,00,00,00,00
1756489532790323,00000488,false,Rx,0,8,08,27,5F,00,58,01,8D,00
1756489532791977,00000193,false,Rx,0,6,14,00,04,00,FE,FF,00,00
1756489532793953,00000213,false,Rx,0,4,08,00,00,00,00,00,00,00
1756489532795010,00000214,false,Rx,0,4,08,00,00,00,00,00,00,00
1756489532798701,00000194,false,Rx,0,6,14,00,FF,FF,00,00,00,00
1756489532800289,00000188,false,Rx,0,6,B3,FF,18,00,D6,03,00,00
1756489532800405,00000288,false,Rx,0,6,00,00,01,00,00,00,00,00
1756489532800521,00000488,false,Rx,0,8,08,27,5F,00,58,01,8D,00
1756489532801802,00000193,false,Rx,0,6,14,00,01,00,FB,FF,00,00
1756489532804915,00000213,false,Rx,0,4,08,00,00,00,00,00,00,00
1756489532806021,00000214,false,Rx,0,4,08,00,00,00,00,00,00,00
1756489532808519,00000194,false,Rx,0,6,14,00,FF,FF,FE,FF,00,00
1756489532810493,00000188,false,Rx,0,6,C0,FF,17,00,EA,03,00,00
1756489532810603,00000288,false,Rx,0,6,00,00,00,00,00,00,00,00
1756489532810699,00000488,false,Rx,0,8,08,27,5F,00,57,01,8D,00
1756489532811648,00000193,false,Rx,0,6,14,00,00,00,00,00,00,00
1756489532815965,00000213,false,Rx,0,4,08,00,00,00,00,00,00,00
1756489532817041,00000214,false,Rx,0,4,08,00,00,00,00,00,00,00
1756489532818347,00000194,false,Rx,0,6,14,00,00,00,FF,FF,00,00
1756489532820687,00000188,false,Rx,0,6,C6,FF,0F,00,F3,03,00,00
1756489532820801,00000288,false,Rx,0,6,00,00,00,00,00,00,00,00
1756489532820920,00000488,false,Rx,0,8,08,27,5F,00,57,01,8D,00
1756489532821454,00000193,false,Rx,0,6,14,00,FE,FF,02,00,00,00
1756489532826939,00000213,false,Rx,0,4,08,00,00,00,00,00,00,00
1756489532828060,00000214,false,Rx,0,4,08,00,00,00,00,00,00,00
1756489532828185,00000194,false,Rx,0,6,14,00,FE,FF,FE,FF,00,00
1756489532831047,00000188,false,Rx,0,6,B8,FF,17,00,D6,03,00,00
1756489532831337,00000193,false,Rx,0,6,14,00,FB,FF,02,00,00,00
1756489532832423,00000288,false,Rx,0,6,00,00,00,00,00,00,00,00
1756489532832603,00000488,false,Rx,0,8,08,27,5F,00,57,01,8D,00
1756489532838218,00000194,false,Rx,0,6,14,00,01,00,01,00,00,00
1756489532838339,00000213,false,Rx,0,4,08,00,00,00,00,00,00,00
1756489532839208,00000214,false,Rx,0,4,08,00,00,00,00,00,00,00
1756489532841145,00000393,false,Rx,0,6,0C,01,D5,01,0F,01,00,00
1756489532841262,00000293,false,Rx,0,4,ED,A2,00,00,00,00,00,00
1756489532841405,00000713,false,Rx,0,1,05,00,00,00,00,00,00,00
1756489532841539,00000733,false,Rx,0,8,09,00,00,00,00,A2,00,05
1756489532841616,00000193,false,Rx,0,6,14,00,FD,FF,01,00,00,00
1756489532842338,00000188,false,Rx,0,6,C5,FF,0C,00,F6,03,00,00
1756489532842463,00000288,false,Rx,0,6,00,00,00,00,00,00,00,00
1756489532842584,00000488,false,Rx,0,8,08,27,5F,00,57,01,8D,00
1756489532847864,00000394,false,Rx,0,6,69,05,ED,01,1F,01,00,00
1756489532848025,00000294,false,Rx,0,4,A0,A2,9F,FF,00,00,00,00
1756489532848125,00000714,false,Rx,0,1,05,00,00,00,00,00,00,00
1756489532848242,00000734,false,Rx,0,8,02,00,00,20,3F,A2,9F,05
1756489532848303,00000194,false,Rx,0,6,14,00,00,00,FE,FF,00,00
1756489532849096,00000213,false,Rx,0,4,08,00,00,00,00,00,00,00
1756489532850180,00000214,false,Rx,0,4,08,00,00,00,00,00,00,00
1756489532850977,00000193,false,Rx,0,6,14,00,07,00,F9,FF,00,00
1756489532852516,00000188,false,Rx,0,6,BC,FF,17,00,E1,03,00,00
1756489532852643,00000288,false,Rx,0,6,00,00,00,00,00,00,00,00
1756489532852763,00000488,false,Rx,0,8,08,27,5F,00,57,01,8D,00
1756489532857712,00000194,false,Rx,0,6,14,00,FF,FF,FF,FF,00,00
1756489532860078,00000213,false,Rx,0,4,08,00,00,00,00,00,00,00
1756489532860808,00000193,false,Rx,0,6,14,00,FB,FF,FA,FF,00,00
1756489532861191,00000214,false,Rx,0,4,08,00,00,00,00,00,00,00
1756489532862728,00000188,false,Rx,0,6,BD,FF,17,00,DC,03,00,00
1756489532862859,00000288,false,Rx,0,6,00,00,00,00,00,00,00,00
1756489532862978,00000488,false,Rx,0,8,08,27,5F,00,57,01,8D,00
1756489532865058,00000710,false,Rx,0,1,7F,00,00,00,00,00,00,00
1756489532867521,00000194,false,Rx,0,6,14,00,FE,FF,00,00,00,00
1756489532870643,00000193,false,Rx,0,6,14,00,FD,FF,FE,FF,00,00
1756489532872193,00000213,false,Rx,0,4,08,00,00,00,00,00,00,00
1756489532872315,00000214,false,Rx,0,4,08,00,00,00,00,00,00,00
1756489532872916,00000188,false,Rx,0,6,C1,FF,0F,00,F6,03,00,00
1756489532873043,00000288,false,Rx,0,6,01,00,01,00,00,00,00,00
1756489532873173,00000488,false,Rx,0,8,08,27,5F,00,57,01,8D,00
1756489532875096,00000701,false,Rx,0,1,05,00,00,00,00,00,00,00
1756489532877351,00000194,false,Rx,0,6,14,00,FE,FF,FE,FF,00,00
1756489532880470,00000193,false,Rx,0,6,14,00,FC,FF,FE,FF,00,00
1756489532883144,00000188,false,Rx,0,6,B5,FF,16,00,DA,03,00,00
1756489532883251,00000288,false,Rx,0,6,00,00,01,00,00,00,00,00
1756489532883350,00000213,false,Rx,0,4,08,00,00,00,00,00,00,00
1756489532883448,00000214,false,Rx,0,4,08,00,00,00,00,00,00,00
1756489532883549,00000488,false,Rx,0,8,08,27,5F,00,57,01,8D,00
1756489532887187,00000194,false,Rx,0,6,14,00,FE,FF,02,00,00,00
1756489532890294,00000193,false,Rx,0,6,14,00,FE,FF,03,00,00,00
1756489532893343,00000188,false,Rx,0,6,B9,FF,13,00,D6,03,00,00
1756489532893468,00000288,false,Rx,0,6,00,00,00,00,00,00,00,00
1756489532893620,00000488,false,Rx,0,8,08,27,5F,00,57,01,8D,00
1756489532894340,00000213,false,Rx,0,4,08,00,00,00,00,00,00,00
1756489532894446,00000214,false,Rx,0,4,08,00,00,00,00,00,00,00
1756489532896633,00000181,false,Rx,0,8,68,10,00,E9,02,00,00,00
1756489532896997,00000194,false,Rx,0,6,14,00,01,00,01,00,00,00
1756489532900117,00000193,false,Rx,0,6,14,00,FE,FF,03,00,00,00
1756489532903521,00000188,false,Rx,0,6,BF,FF,14,00,F7,03,00,00
1756489532904525,00000288,false,Rx,0,6,00,00,FF,FF,00,00,00,00
1756489532904651,00000488,false,Rx,0,8,08,27,5F,00,57,01,8D,00
1756489532905416,00000213,false,Rx,0,4,08,00,00,00,00,00,00,00
1756489532905527,00000214,false,Rx,0,4,08,00,00,00,00,00,00,00
1756489532906832,00000194,false,Rx,0,6,14,00,FE,FF,FE,FF,00,00
1756489532909836,00000181,false,Rx,0,8,04,10,00,E9,02,00,00,00
1756489532909948,00000193,false,Rx,0,6,14,00,FE,FF,FF,FF,00,00
1756489532914536,00000188,false,Rx,0,6,B9,FF,18,00,DB,03,00,00
1756489532914663,00000288,false,Rx,0,6,00,00,00,00,00,00,00,00
1756489532914779,00000488,false,Rx,0,8,08,27,5F,00,57,01,8D,00
1756489532916481,00000213,false,Rx,0,4,08,00,00,00,00,00,00,00
1756489532916627,00000214,false,Rx,0,4,08,00,00,00,00,00,00,00
1756489532916688,00000194,false,Rx,0,6,14,00,FF,FF,06,00,00,00
1756489532919784,00000193,false,Rx,0,6,14,00,0A,00,03,00,00,00
1756489532924746,00000188,false,Rx,0,6,BF,FF,0C,00,F1,03,00,00
1756489532924876,00000288,false,Rx,0,6,00,00,00,00,00,00,00,00
1756489532924992,00000488,false,Rx,0,8,08,27,5F,00,58,01,8D,00
1756489532926495,00000194,false,Rx,0,6,14,00,00,00,01,00,00,00
1756489532927417,00000213,false,Rx,0,4,08,00,00,00,00,00,00,00
1756489532927516,00000214,false,Rx,0,4,08,00,00,00,00,00,00,00
1756489532929616,00000193,false,Rx,0,6,14,00,03,00,00,00,00,00
1756489532935035,00000188,false,Rx,0,6,BA,FF,15,00,ED,03,00,00
1756489532935181,00000288,false,Rx,0,6,00,00,00,00,00,00,00,00
1756489532935241,00000488,false,Rx,0,8,08,27,5F,00,58,01,8D,00
1756489532936321,00000194,false,Rx,0,6,14,00,00,00,00,00,00,00
1756489532938413,00000213,false,Rx,0,4,08,00,00,00,00,00,00,00
1756489532938523,00000214,false,Rx,0,4,08,00,00,00,00,00,00,00
1756489532939399,00000393,false,Rx,0,6,0C,01,D5,01,07,01,00,00
1756489532939505,00000293,false,Rx,0,4,D5,A2,00,00,00,00,00,00
1756489532939615,00000713,false,Rx,0,1,05,00,00,00,00,00,00,00
1756489532939715,00000733,false,Rx,0,8,01,9A,99,19,40,A2,00,05
1756489532939832,00000193,false,Rx,0,6,14,00,FE,FF,03,00,00,00
1756489532945150,00000188,false,Rx,0,6,B5,FF,17,00,D9,03,00,00
1756489532945284,00000288,false,Rx,0,6,00,00,00,00,00,00,00,00
1756489532945411,00000488,false,Rx,0,8,08,27,5F,00,58,01,8D,00
1756489532946118,00000394,false,Rx,0,6,6C,05,ED,01,16,01,00,00
1756489532946217,00000294,false,Rx,0,4,75,A2,24,00,00,00,00,00
1756489532946314,00000714,false,Rx,0,1,05,00,00,00,00,00,00,00
1756489532946420,00000734,false,Rx,0,8,03,00,00,00,00,A2,24,05
1756489532946543,00000194,false,Rx,0,6,14,00,FE,FF,03,00,00,00
1756489532949286,00000193,false,Rx,0,6,14,00,F5,FF,09,00,00,00
1756489532949441,00000213,false,Rx,0,4,08,00,00,00,00,00,00,00
1756489532950526,00000214,false,Rx,0,4,08,00,00,00,00,00,00,00
1756489532955347,00000188,false,Rx,0,6,C2,FF,13,00,F0,03,00,00
1756489532955477,00000288,false,Rx,0,6,01,00,00,00,00,00,00,00
1756489532955596,00000488,false,Rx,0,8,08,27,5F,00,58,01,8D,00
1756489532955968,00000194,false,Rx,0,6,14,00,FF,FF,02,00,00,00
1756489532959087,00000193,false,Rx,0,6,14,00,0A,00,06,00,00,00
1756489532960529,00000213,false,Rx,0,4,08,00,00,00,00,00,00,00
1756489532961633,00000214,false,Rx,0,4,08,00,00,00,00,00,00,00
1756489532965097,00000710,false,Rx,0,1,7F,00,00,00,00,00,00,00
1756489532965627,00000188,false,Rx,0,6,BD,FF,14,00,F2,03,00,00
1756489532965753,00000288,false,Rx,0,6,01,00,00,00,00,00,00,00
1756489532965871,00000488,false,Rx,0,8,08,27,5F,00,58,01,8D,00
1756489532965932,00000194,false,Rx,0,6,14,00,02,00,FF,FF,00,00
1756489532967180,00000181,false,Rx,0,8,68,10,00,E9,02,00,00,00
1756489532968907,00000193,false,Rx,0,6,14,00,0D,00,03,00,00,00
1756489532971547,00000213,false,Rx,0,4,08,00,00,00,00,00,00,00
1756489532972628,00000214,false,Rx,0,4,08,00,00,00,00,00,00,00
1756489532974229,00000290,false,Rx,0,7,01,E8,00,00,00,00,00,00
1756489532974339,00000490,false,Rx,0,5,64,00,00,00,00,00,00,00
1756489532975300,00000701,false,Rx,0,1,05,00,00,00,00,00,00,00
1756489532975600,00000194,false,Rx,0,6,14,00,01,00,06,00,00,00
1756489532975744,00000188,false,Rx,0,6,B9,FF,15,00,D4,03,00,00
1756489532975867,00000288,false,Rx,0,6,00,00,00,00,00,00,00,00
1756489532975983,00000488,false,Rx,0,8,08,27,5F,00,58,01,8D,00
1756489532978737,00000193,false,Rx,0,6,14,00,10,00,05,00,00,00
1756489532980382,00000181,false,Rx,0,8,04,10,00,E9,02,00,00,00
1756489532982545,00000213,false,Rx,0,4,08,00,00,00,00,00,00,00
1756489532983641,00000214,false,Rx,0,4,08,00,00,00,00,00,00,00
1756489532985451,00000194,false,Rx,0,6,14,00,FE,FF,FA,FF,00,00
1756489532985931,00000188,false,Rx,0,6,C1,FF,12,00,EF,03,00,00
1756489532986051,00000288,false,Rx,0,6,00,00,00,00,00,00,00,00
1756489532986172,00000488,false,Rx,0,8,08,27,5F,00,57,01,8D,00
1756489532988560,00000193,false,Rx,0,6,14,00,F4,FF,FF,FF,00,00
1756489532993562,00000213,false,Rx,0,4,08,00,00,00,00,00,00,00
1756489532994642,00000214,false,Rx,0,4,08,00,00,00,00,00,00,00
1756489532995267,00000194,false,Rx,0,6,14,00,00,00,00,00,00,00
1756489532996878,00000181,false,Rx,0,8,68,10,00,EA,02,00,00,00
1756489532997100,00000188,false,Rx,0,6,C0,FF,0E,00,EE,03,00,00
1756489532997223,00000288,false,Rx,0,6,00,00,00,00,00,00,00,00
1756489532997340,00000488,false,Rx,0,8,08,27,5F,00,57,01,8D,00
1756489532998396,00000193,false,Rx,0,6,14,00,F5,FF,FF,FF,00,00
1756489533004655,00000213,false,Rx,0,4,08,00,00,00,00,00,00,00
1756489533005100,00000194,false,Rx,0,6,14,00,FE,FF,01,00,00,00
1756489533005770,00000214,false,Rx,0,4,08,00,00,00,00,00,00,00
1756489533007222,00000188,false,Rx,0,6,C0,FF,17,00,D7,03,00,00
1756489533007358,00000288,false,Rx,0,6,00,00,00,00,00,00,00,00
1756489533007475,00000488,false,Rx,0,8,08,27,5F,00,57,01,8D,00
1756489533008214,00000193,false,Rx,0,6,14,00,FD,FF,FE,FF,00,00
1756489533010209,00000181,false,Rx,0,8,04,10,00,EA,02,00,00,00
1756489533014941,00000194,false,Rx,0,6,14,00,FF,FF,FA,FF,00,00
1756489533015684,00000213,false,Rx,0,4,08,00,00,00,00,00,00,00
1756489533016827,00000214,false,Rx,0,4,08,00,00,00,00,00,00,00
1756489533017441,00000188,false,Rx,0,6,C0,FF,0E,00,FB,03,00,00
1756489533017589,00000288,false,Rx,0,6,00,00,00,00,00,00,00,00
1756489533017719,00000488,false,Rx,0,8,08,27,5F,00,57,01,8D,00
1756489533018038,00000193,false,Rx,0,6,14,00,E9,FF,FF,FF,00,00
1756489533024772,00000194,false,Rx,0,6,14,00,FF,FF,FD,FF,00,00
1756489533026697,00000181,false,Rx,0,8,04,10,00,E9,02,00,00,00
1756489533027634,00000188,false,Rx,0,6,B8,FF,16,00,DD,03,00,00
1756489533027740,00000288,false,Rx,0,6,00,00,01,00,00,00,00,00
1756489533027840,00000213,false,Rx,0,4,08,00,00,00,00,00,00,00
1756489533027939,00000193,false,Rx,0,6,14,00,ED,FF,03,00,00,00
1756489533028046,00000214,false,Rx,0,4,08,00,00,00,00,00,00,00
1756489533028168,00000488,false,Rx,0,8,08,27,5F,00,57,01,8D,00
1756489533034655,00000194,false,Rx,0,6,14,00,FE,FF,FF,FF,00,00
1756489533037708,00000393,false,Rx,0,6,0C,01,D5,01,07,01,00,00
1756489533037874,00000293,false,Rx,0,4,DC,A2,00,00,00,00,00,00
1756489533037974,00000188,false,Rx,0,6,BE,FF,16,00,DE,03,00,00
1756489533038073,00000288,false,Rx,0,6,01,00,00,00,00,00,00,00
1756489533038171,00000488,false,Rx,0,8,08,27,5F,00,57,01,8D,00
1756489533038272,00000713,false,Rx,0,1,05,00,00,00,00,00,00,00
1756489533038368,00000733,false,Rx,0,8,02,00,00,C0,3F,A2,00,05
1756489533038428,00000193,false,Rx,0,6,14,00,1A,00,01,00,00,00
1756489533038882,00000213,false,Rx,0,4,08,00,00,00,00,00,00,00
1756489533038987,00000214,false,Rx,0,4,08,00,00,00,00,00,00,00
1756489533040002,00000181,false,Rx,0,8,04,10,00,E9,02,00,00,00
1756489533044396,00000394,false,Rx,0,6,6C,05,ED,01,1F,01,00,00
1756489533044527,00000294,false,Rx,0,4,76,A2,63,FF,00,00,00,00
1756489533044668,00000714,false,Rx,0,1,05,00,00,00,00,00,00,00
1756489533044726,00000734,false,Rx,0,8,04,66,66,66,3F,A2,63,05
1756489533044844,00000194,false,Rx,0,6,14,00,FD,FF,FD,FF,00,00
1756489533047542,00000193,false,Rx,0,6,14,00,0B,00,F8,FF,00,00
1756489533048043,00000188,false,Rx,0,6,C1,FF,0E,00,F7,03,00,00
1756489533048173,00000288,false,Rx,0,6,00,00,00,00,00,00,00,00
1756489533048290,00000488,false,Rx,0,8,08,27,5F,00,57,01,8D,00
1756489533049952,00000213,false,Rx,0,4,08,00,00,00,00,00,00,00
1756489533050057,00000214,false,Rx,0,4,08,00,00,00,00,00,00,00
1756489533054250,00000194,false,Rx,0,6,14,00,00,00,01,00,00,00
1756489533057358,00000193,false,Rx,0,6,14,00,EC,FF,FD,FF,00,00
1756489533058239,00000188,false,Rx,0,6,BC,FF,15,00,E1,03,00,00
1756489533058360,00000288,false,Rx,0,6,00,00,00,00,00,00,00,00
1756489533058481,00000488,false,Rx,0,8,08,27,5F,00,57,01,8D,00
1756489533060970,00000213,false,Rx,0,4,08,00,00,00,00,00,00,00
1756489533061075,00000214,false,Rx,0,4,08,00,00,00,00,00,00,00
